# //  Questa Sim-64
# //  Version 2021.1 win64 Jan 19 2021
# //
# //  Copyright 1991-2021 Mentor Graphics Corporation
# //  All Rights Reserved.
# //
# //  QuestaSim and its associated documentation contain trade
# //  secrets and commercial or financial information that are the property of
# //  Mentor Graphics Corporation and are privileged, confidential,
# //  and exempt from disclosure under the Freedom of Information Act,
# //  5 U.S.C. Section 552. Furthermore, this information
# //  is prohibited from disclosure under the Trade Secrets Act,
# //  18 U.S.C. Section 1905.
# //
# vsim -voptargs="+acc" ahbslave_tb 
# Start time: 16:51:51 on Sep 22,2024
# ** Note: (vsim-3812) Design is being optimized...
# ** Error: ahb_slave.v(162): (vopt-2123) Missing argument for format specification '%d'.
# ** Error: ahb_slave.v(162): (vopt-2123) Missing argument for format specification '%d'.
# ** Error: ahb_slave.v(174): (vopt-2123) Missing argument for format specification '%d'.
# ** Error: ahb_slave.v(174): (vopt-2123) Missing argument for format specification '%d'.
# Optimization failed
# ** Error: (vopt-2064) Compiler back-end code generation process terminated with code 12.
# ** Note: (vsim-12126) Error and warning message counts have been restored: Errors=5, Warnings=0.
# Error loading design
# End time: 16:51:58 on Sep 22,2024, Elapsed time: 0:00:07
# Errors: 5, Warnings: 0
vlog ahb_slave.v
# QuestaSim-64 vlog 2021.1 Compiler 2021.01 Jan 19 2021
# Start time: 16:52:58 on Sep 22,2024
# vlog -reportprogress 300 ahb_slave.v 
# -- Compiling module ahb_slave
# ** Warning: ahb_slave.v(162): (vlog-2182) 'burst_counter_reg' might be read before written in always_comb or always @* block.
# 
# Top level modules:
# 	ahb_slave
# End time: 16:52:58 on Sep 22,2024, Elapsed time: 0:00:00
# Errors: 0, Warnings: 1
ahbs_tb.sv
# couldn't execute ".\ahbs_tb.sv": no such file or directory
vlog ahbs_tb.sv
# QuestaSim-64 vlog 2021.1 Compiler 2021.01 Jan 19 2021
# Start time: 16:53:14 on Sep 22,2024
# vlog -reportprogress 300 ahbs_tb.sv 
# -- Compiling module ahbslave_tb
# 
# Top level modules:
# 	ahbslave_tb
# End time: 16:53:14 on Sep 22,2024, Elapsed time: 0:00:00
# Errors: 0, Warnings: 0
vsim -voptargs=+acc ahbs_tb.sv
# OpenFile ahbs_tb.sv
vsim -voptargs=+acc ahbs_tb.sv
# OpenFile ahbs_tb.sv
OpenFile ahbslave_tb
# Error opening F:/ic_design/repos/AHB_LITE/rtl/ahbslave_tb
# Path name 'F:/ic_design/repos/AHB_LITE/rtl/ahbslave_tb' doesn't exist.
vsim -voptargs=+acc ahbslave_tb
# vsim -voptargs="+acc" ahbslave_tb 
# Start time: 16:54:13 on Sep 22,2024
# ** Note: (vsim-3812) Design is being optimized...
# ** Warning: ahb_slave.v(162): (vopt-2182) 'burst_counter_reg' might be read before written in always_comb or always @* block.
# ** Note: (vsim-12126) Error and warning message counts have been restored: Errors=0, Warnings=1.
# Loading sv_std.std
# Loading work.ahbslave_tb(fast)
# Loading work.ahb_slave(fast)
add wave -position insertpoint sim:/ahbslave_tb/*
add wave -position insertpoint  \
sim:/ahbslave_tb/s0/burst_counter
add wave -position insertpoint  \
sim:/ahbslave_tb/s0/burst_counter_reg
add wave -position insertpoint  \
sim:/ahbslave_tb/s0/next_state
add wave -position insertpoint  \
sim:/ahbslave_tb/s0/state
run -all
# time: 25 xxxxxxxxxxxxxxxxxxxxxxxxxx
# time: 40 xxxxxxxxxxxxxxxxxxxxxxxxxx
# time: 60 xxxxxxxxxxxxxxxxxxxxxxxxxx
# time: 65 xxxxxxxxxxxxxxxxxxxxxxxxxx
# time: 65 aaaaaaaaaaaaaaaaaaaaa burst_counter = 0, burst_counter_reg = 0
# time :70 HRDATA = x
# time: 75 xxxxxxxxxxxxxxxxxxxxxxxxxx
# time :80 HRDATA = x
# time: 80 xxxxxxxxxxxxxxxxxxxxxxxxxx
# time: 85 xxxxxxxxxxxxxxxxxxxxxxxxxx
# time :90 HRDATA = 5
# time :100 HRDATA = 5
# time: 100 xxxxxxxxxxxxxxxxxxxxxxxxxx
# time: 105 xxxxxxxxxxxxxxxxxxxxxxxxxx
# time :110 HRDATA = 5
# time :120 HRDATA = 5
# time: 120 xxxxxxxxxxxxxxxxxxxxxxxxxx
# time: 125 xxxxxxxxxxxxxxxxxxxxxxxxxx
# time: 125 aaaaaaaaaaaaaaaaaaaaa burst_counter = 1, burst_counter_reg = 1
# time: 125 jjjjjjjjjjjjjjjjjjjjj burst_counter = 1, burst_counter_reg = 2
# time: 135 xxxxxxxxxxxxxxxxxxxxxxxxxx
# time: 135 aaaaaaaaaaaaaaaaaaaaa burst_counter = 2, burst_counter_reg = 2
# time: 135 jjjjjjjjjjjjjjjjjjjjj burst_counter = 2, burst_counter_reg = 3
# time: 145 xxxxxxxxxxxxxxxxxxxxxxxxxx
# time: 145 aaaaaaaaaaaaaaaaaaaaa burst_counter = 3, burst_counter_reg = 3
# time: 145 jjjjjjjjjjjjjjjjjjjjj burst_counter = 3, burst_counter_reg = 4
# time: 155 xxxxxxxxxxxxxxxxxxxxxxxxxx
# time: 155 aaaaaaaaaaaaaaaaaaaaa burst_counter = 4, burst_counter_reg = 4
# time: 155 jjjjjjjjjjjjjjjjjjjjj burst_counter = 4, burst_counter_reg = 5
# time: 165 xxxxxxxxxxxxxxxxxxxxxxxxxx
# time: 165 aaaaaaaaaaaaaaaaaaaaa burst_counter = 5, burst_counter_reg = 5
# time: 165 jjjjjjjjjjjjjjjjjjjjj burst_counter = 5, burst_counter_reg = 6
# time: 175 xxxxxxxxxxxxxxxxxxxxxxxxxx
# time: 175 aaaaaaaaaaaaaaaaaaaaa burst_counter = 6, burst_counter_reg = 6
# time: 175 jjjjjjjjjjjjjjjjjjjjj burst_counter = 6, burst_counter_reg = 7
# time: 185 xxxxxxxxxxxxxxxxxxxxxxxxxx
# time: 185 aaaaaaaaaaaaaaaaaaaaa burst_counter = 7, burst_counter_reg = 7
# time: 185 jjjjjjjjjjjjjjjjjjjjj burst_counter = 7, burst_counter_reg = 8
# time: 195 xxxxxxxxxxxxxxxxxxxxxxxxxx
# time: 195 aaaaaaaaaaaaaaaaaaaaa burst_counter = 8, burst_counter_reg = 8
# time: 195 jjjjjjjjjjjjjjjjjjjjj burst_counter = 8, burst_counter_reg = 9
# time: 205 xxxxxxxxxxxxxxxxxxxxxxxxxx
# time: 205 aaaaaaaaaaaaaaaaaaaaa burst_counter = 9, burst_counter_reg = 9
# time: 205 jjjjjjjjjjjjjjjjjjjjj burst_counter = 9, burst_counter_reg = 10
# time: 215 xxxxxxxxxxxxxxxxxxxxxxxxxx
# time: 215 aaaaaaaaaaaaaaaaaaaaa burst_counter = 10, burst_counter_reg = 10
# time: 215 jjjjjjjjjjjjjjjjjjjjj burst_counter = 10, burst_counter_reg = 11
# time: 225 xxxxxxxxxxxxxxxxxxxxxxxxxx
# time: 225 aaaaaaaaaaaaaaaaaaaaa burst_counter = 11, burst_counter_reg = 11
# time: 225 jjjjjjjjjjjjjjjjjjjjj burst_counter = 11, burst_counter_reg = 12
# time: 235 xxxxxxxxxxxxxxxxxxxxxxxxxx
# time: 235 aaaaaaaaaaaaaaaaaaaaa burst_counter = 12, burst_counter_reg = 12
# time: 235 jjjjjjjjjjjjjjjjjjjjj burst_counter = 12, burst_counter_reg = 13
# time: 245 xxxxxxxxxxxxxxxxxxxxxxxxxx
# time: 245 aaaaaaaaaaaaaaaaaaaaa burst_counter = 13, burst_counter_reg = 13
# time: 245 jjjjjjjjjjjjjjjjjjjjj burst_counter = 13, burst_counter_reg = 14
# ** Note: $stop    : ahbs_tb.sv(88)
#    Time: 250 ns  Iteration: 0  Instance: /ahbslave_tb
# Break in Module ahbslave_tb at ahbs_tb.sv line 88
vlog ahb_slave.v
# QuestaSim-64 vlog 2021.1 Compiler 2021.01 Jan 19 2021
# Start time: 17:13:42 on Sep 22,2024
# vlog -reportprogress 300 ahb_slave.v 
# -- Compiling module ahb_slave
# ** Warning: ahb_slave.v(164): (vlog-2182) 'burst_counter_reg' might be read before written in always_comb or always @* block.
# 
# Top level modules:
# 	ahb_slave
# End time: 17:13:42 on Sep 22,2024, Elapsed time: 0:00:00
# Errors: 0, Warnings: 1
restart
# ** Note: (vsim-12125) Error and warning message counts have been reset to '0' because of 'restart'.
# ** Note: (vsim-3813) Design is being optimized due to module recompilation...
# ** Warning: ahb_slave.v(164): (vopt-2182) 'burst_counter_reg' might be read before written in always_comb or always @* block.
# ** Note: (vsim-12126) Error and warning message counts have been restored: Errors=0, Warnings=1.
# Loading sv_std.std
# Loading work.ahbslave_tb(fast)
# Loading work.ahb_slave(fast)
run -all
# time: 25 xxxxxxxxxxxxxxxxxxxxxxxxxx
# time: 40 xxxxxxxxxxxxxxxxxxxxxxxxxx
# time: 45 xxxxxxxxxxxxxxxxxxxxxxxxxx
# time: 60 xxxxxxxxxxxxxxxxxxxxxxxxxx
# time: 65 xxxxxxxxxxxxxxxxxxxxxxxxxx
# time: 65 aaaaaaaaaaaaaaaaaaaaa burst_counter = 0, burst_counter_reg = 0
# time :70 HRDATA = x
# time: 75 xxxxxxxxxxxxxxxxxxxxxxxxxx
# time :80 HRDATA = x
# time: 80 xxxxxxxxxxxxxxxxxxxxxxxxxx
# time: 85 xxxxxxxxxxxxxxxxxxxxxxxxxx
# time :90 HRDATA = 5
# time :100 HRDATA = 5
# time: 100 xxxxxxxxxxxxxxxxxxxxxxxxxx
# time: 105 xxxxxxxxxxxxxxxxxxxxxxxxxx
# time :110 HRDATA = 5
# time :120 HRDATA = 5
# time: 120 xxxxxxxxxxxxxxxxxxxxxxxxxx
# time: 125 xxxxxxxxxxxxxxxxxxxxxxxxxx
# time: 125 aaaaaaaaaaaaaaaaaaaaa burst_counter = 0, burst_counter_reg = 0
# time: 125 jjjjjjjjjjjjjjjjjjjjj burst_counter = 0, burst_counter_reg = 1
# time: 135 xxxxxxxxxxxxxxxxxxxxxxxxxx
# time: 135 aaaaaaaaaaaaaaaaaaaaa burst_counter = 1, burst_counter_reg = 1
# time: 135 jjjjjjjjjjjjjjjjjjjjj burst_counter = 1, burst_counter_reg = 2
# time: 145 xxxxxxxxxxxxxxxxxxxxxxxxxx
# time: 145 aaaaaaaaaaaaaaaaaaaaa burst_counter = 2, burst_counter_reg = 2
# time: 145 jjjjjjjjjjjjjjjjjjjjj burst_counter = 2, burst_counter_reg = 3
# time: 155 xxxxxxxxxxxxxxxxxxxxxxxxxx
# time: 155 aaaaaaaaaaaaaaaaaaaaa burst_counter = 3, burst_counter_reg = 3
# time: 155 jjjjjjjjjjjjjjjjjjjjj burst_counter = 3, burst_counter_reg = 4
# time: 165 xxxxxxxxxxxxxxxxxxxxxxxxxx
# time: 165 aaaaaaaaaaaaaaaaaaaaa burst_counter = 4, burst_counter_reg = 4
# time: 165 jjjjjjjjjjjjjjjjjjjjj burst_counter = 4, burst_counter_reg = 5
# time: 175 xxxxxxxxxxxxxxxxxxxxxxxxxx
# time: 175 aaaaaaaaaaaaaaaaaaaaa burst_counter = 5, burst_counter_reg = 5
# time: 175 jjjjjjjjjjjjjjjjjjjjj burst_counter = 5, burst_counter_reg = 6
# time: 185 xxxxxxxxxxxxxxxxxxxxxxxxxx
# time: 185 aaaaaaaaaaaaaaaaaaaaa burst_counter = 6, burst_counter_reg = 6
# time: 185 jjjjjjjjjjjjjjjjjjjjj burst_counter = 6, burst_counter_reg = 7
# time: 195 xxxxxxxxxxxxxxxxxxxxxxxxxx
# time: 195 aaaaaaaaaaaaaaaaaaaaa burst_counter = 7, burst_counter_reg = 7
# time: 195 jjjjjjjjjjjjjjjjjjjjj burst_counter = 7, burst_counter_reg = 8
# time: 205 xxxxxxxxxxxxxxxxxxxxxxxxxx
# time: 205 aaaaaaaaaaaaaaaaaaaaa burst_counter = 8, burst_counter_reg = 8
# time: 205 jjjjjjjjjjjjjjjjjjjjj burst_counter = 8, burst_counter_reg = 9
# time: 215 xxxxxxxxxxxxxxxxxxxxxxxxxx
# time: 215 aaaaaaaaaaaaaaaaaaaaa burst_counter = 9, burst_counter_reg = 9
# time: 215 jjjjjjjjjjjjjjjjjjjjj burst_counter = 9, burst_counter_reg = 10
# time: 225 xxxxxxxxxxxxxxxxxxxxxxxxxx
# time: 225 aaaaaaaaaaaaaaaaaaaaa burst_counter = 10, burst_counter_reg = 10
# time: 225 jjjjjjjjjjjjjjjjjjjjj burst_counter = 10, burst_counter_reg = 11
# time: 235 xxxxxxxxxxxxxxxxxxxxxxxxxx
# time: 235 aaaaaaaaaaaaaaaaaaaaa burst_counter = 11, burst_counter_reg = 11
# time: 235 jjjjjjjjjjjjjjjjjjjjj burst_counter = 11, burst_counter_reg = 12
# time: 245 xxxxxxxxxxxxxxxxxxxxxxxxxx
# time: 245 aaaaaaaaaaaaaaaaaaaaa burst_counter = 12, burst_counter_reg = 12
# time: 245 jjjjjjjjjjjjjjjjjjjjj burst_counter = 12, burst_counter_reg = 13
# ** Note: $stop    : ahbs_tb.sv(88)
#    Time: 250 ns  Iteration: 0  Instance: /ahbslave_tb
# Break in Module ahbslave_tb at ahbs_tb.sv line 88
vlog ahbs_tb.sv
# QuestaSim-64 vlog 2021.1 Compiler 2021.01 Jan 19 2021
# Start time: 05:20:53 on Sep 23,2024
# vlog -reportprogress 300 ahbs_tb.sv 
# -- Compiling module ahbslave_tb
# 
# Top level modules:
# 	ahbslave_tb
# End time: 05:20:53 on Sep 23,2024, Elapsed time: 0:00:00
# Errors: 0, Warnings: 0
restart
# ** Note: (vsim-12125) Error and warning message counts have been reset to '0' because of 'restart'.
# ** Note: (vsim-3813) Design is being optimized due to module recompilation...
# Loading sv_std.std
# Loading work.ahbslave_tb(fast)
# Loading work.ahb_slave(fast)
run -all
# time: 25 xxxxxxxxxxxxxxxxxxxxxxxxxx
# time: 40 xxxxxxxxxxxxxxxxxxxxxxxxxx
# time: 45 xxxxxxxxxxxxxxxxxxxxxxxxxx
# time: 60 xxxxxxxxxxxxxxxxxxxxxxxxxx
# time: 65 xxxxxxxxxxxxxxxxxxxxxxxxxx
# time: 65 aaaaaaaaaaaaaaaaaaaaa burst_counter = 0, burst_counter_reg = 0
# time :70 HRDATA = x
# time: 75 xxxxxxxxxxxxxxxxxxxxxxxxxx
# time :80 HRDATA = x
# time: 80 xxxxxxxxxxxxxxxxxxxxxxxxxx
# time: 85 xxxxxxxxxxxxxxxxxxxxxxxxxx
# time :90 HRDATA = 5
# time :100 HRDATA = 5
# time: 100 xxxxxxxxxxxxxxxxxxxxxxxxxx
# time: 105 xxxxxxxxxxxxxxxxxxxxxxxxxx
# time :110 HRDATA = 5
# time :120 HRDATA = 5
# time: 120 xxxxxxxxxxxxxxxxxxxxxxxxxx
# time: 125 xxxxxxxxxxxxxxxxxxxxxxxxxx
# time: 125 aaaaaaaaaaaaaaaaaaaaa burst_counter = 0, burst_counter_reg = 0
# time: 125 jjjjjjjjjjjjjjjjjjjjj burst_counter = 0, burst_counter_reg = 1
# time: 135 xxxxxxxxxxxxxxxxxxxxxxxxxx
# time: 135 aaaaaaaaaaaaaaaaaaaaa burst_counter = 1, burst_counter_reg = 1
# time: 135 jjjjjjjjjjjjjjjjjjjjj burst_counter = 1, burst_counter_reg = 2
# time: 145 xxxxxxxxxxxxxxxxxxxxxxxxxx
# time: 145 aaaaaaaaaaaaaaaaaaaaa burst_counter = 2, burst_counter_reg = 2
# time: 145 jjjjjjjjjjjjjjjjjjjjj burst_counter = 2, burst_counter_reg = 3
# time: 155 xxxxxxxxxxxxxxxxxxxxxxxxxx
# time: 155 aaaaaaaaaaaaaaaaaaaaa burst_counter = 3, burst_counter_reg = 3
# time: 155 jjjjjjjjjjjjjjjjjjjjj burst_counter = 3, burst_counter_reg = 4
# time: 165 xxxxxxxxxxxxxxxxxxxxxxxxxx
# time: 170 xxxxxxxxxxxxxxxxxxxxxxxxxx
# time: 175 xxxxxxxxxxxxxxxxxxxxxxxxxx
# ** Note: $stop    : ahbs_tb.sv(90)
#    Time: 270 ns  Iteration: 0  Instance: /ahbslave_tb
# Break in Module ahbslave_tb at ahbs_tb.sv line 90
vlog ahbs_tb.sv
# QuestaSim-64 vlog 2021.1 Compiler 2021.01 Jan 19 2021
# Start time: 05:24:29 on Sep 23,2024
# vlog -reportprogress 300 ahbs_tb.sv 
# -- Compiling module ahbslave_tb
# 
# Top level modules:
# 	ahbslave_tb
# End time: 05:24:29 on Sep 23,2024, Elapsed time: 0:00:00
# Errors: 0, Warnings: 0
restart
# ** Note: (vsim-3813) Design is being optimized due to module recompilation...
# Loading sv_std.std
# Loading work.ahbslave_tb(fast)
# Loading work.ahb_slave(fast)
run -all
# time: 25 xxxxxxxxxxxxxxxxxxxxxxxxxx
# time: 40 xxxxxxxxxxxxxxxxxxxxxxxxxx
# time: 45 xxxxxxxxxxxxxxxxxxxxxxxxxx
# time: 60 xxxxxxxxxxxxxxxxxxxxxxxxxx
# time: 65 xxxxxxxxxxxxxxxxxxxxxxxxxx
# time: 65 aaaaaaaaaaaaaaaaaaaaa burst_counter = 0, burst_counter_reg = 0
# time :70 HRDATA = x
# time: 75 xxxxxxxxxxxxxxxxxxxxxxxxxx
# time :80 HRDATA = x
# time: 80 xxxxxxxxxxxxxxxxxxxxxxxxxx
# time: 85 xxxxxxxxxxxxxxxxxxxxxxxxxx
# time :90 HRDATA = 5
# time :100 HRDATA = 5
# time: 100 xxxxxxxxxxxxxxxxxxxxxxxxxx
# time: 105 xxxxxxxxxxxxxxxxxxxxxxxxxx
# time :110 HRDATA = 5
# time :120 HRDATA = 5
# time: 120 xxxxxxxxxxxxxxxxxxxxxxxxxx
# time: 125 xxxxxxxxxxxxxxxxxxxxxxxxxx
# time: 125 aaaaaaaaaaaaaaaaaaaaa burst_counter = 0, burst_counter_reg = 0
# time: 125 jjjjjjjjjjjjjjjjjjjjj burst_counter = 0, burst_counter_reg = 1
# time: 135 xxxxxxxxxxxxxxxxxxxxxxxxxx
# time: 135 aaaaaaaaaaaaaaaaaaaaa burst_counter = 1, burst_counter_reg = 1
# time: 135 jjjjjjjjjjjjjjjjjjjjj burst_counter = 1, burst_counter_reg = 2
# time: 145 xxxxxxxxxxxxxxxxxxxxxxxxxx
# time: 145 aaaaaaaaaaaaaaaaaaaaa burst_counter = 2, burst_counter_reg = 2
# time: 145 jjjjjjjjjjjjjjjjjjjjj burst_counter = 2, burst_counter_reg = 3
# time: 155 xxxxxxxxxxxxxxxxxxxxxxxxxx
# time: 155 aaaaaaaaaaaaaaaaaaaaa burst_counter = 3, burst_counter_reg = 3
# time: 155 jjjjjjjjjjjjjjjjjjjjj burst_counter = 3, burst_counter_reg = 4
# time: 165 xxxxxxxxxxxxxxxxxxxxxxxxxx
# time: 170 xxxxxxxxxxxxxxxxxxxxxxxxxx
# time: 175 xxxxxxxxxxxxxxxxxxxxxxxxxx
# time: 175 aaaaaaaaaaaaaaaaaaaaa burst_counter = 4, burst_counter_reg = 4
# time: 175 jjjjjjjjjjjjjjjjjjjjj burst_counter = 4, burst_counter_reg = 3
# time: 185 xxxxxxxxxxxxxxxxxxxxxxxxxx
# time: 185 aaaaaaaaaaaaaaaaaaaaa burst_counter = 3, burst_counter_reg = 3
# time: 185 jjjjjjjjjjjjjjjjjjjjj burst_counter = 3, burst_counter_reg = 2
# time: 195 xxxxxxxxxxxxxxxxxxxxxxxxxx
# time: 195 aaaaaaaaaaaaaaaaaaaaa burst_counter = 2, burst_counter_reg = 2
# time: 195 jjjjjjjjjjjjjjjjjjjjj burst_counter = 2, burst_counter_reg = 1
# time: 205 xxxxxxxxxxxxxxxxxxxxxxxxxx
# time: 205 aaaaaaaaaaaaaaaaaaaaa burst_counter = 1, burst_counter_reg = 1
# time: 205 jjjjjjjjjjjjjjjjjjjjj burst_counter = 1, burst_counter_reg = 0
# time: 215 xxxxxxxxxxxxxxxxxxxxxxxxxx
# time: 215 aaaaaaaaaaaaaaaaaaaaa burst_counter = 0, burst_counter_reg = 0
# time: 215 jjjjjjjjjjjjjjjjjjjjj burst_counter = 0, burst_counter_reg = 1
# time: 225 xxxxxxxxxxxxxxxxxxxxxxxxxx
# time: 225 aaaaaaaaaaaaaaaaaaaaa burst_counter = 1, burst_counter_reg = 1
# time: 225 jjjjjjjjjjjjjjjjjjjjj burst_counter = 1, burst_counter_reg = 0
# time: 235 xxxxxxxxxxxxxxxxxxxxxxxxxx
# time: 235 aaaaaaaaaaaaaaaaaaaaa burst_counter = 0, burst_counter_reg = 0
# time: 235 jjjjjjjjjjjjjjjjjjjjj burst_counter = 0, burst_counter_reg = 1
# time: 245 xxxxxxxxxxxxxxxxxxxxxxxxxx
# time: 245 aaaaaaaaaaaaaaaaaaaaa burst_counter = 1, burst_counter_reg = 1
# time: 245 jjjjjjjjjjjjjjjjjjjjj burst_counter = 1, burst_counter_reg = 0
# time: 255 xxxxxxxxxxxxxxxxxxxxxxxxxx
# time: 255 aaaaaaaaaaaaaaaaaaaaa burst_counter = 0, burst_counter_reg = 0
# time: 255 jjjjjjjjjjjjjjjjjjjjj burst_counter = 0, burst_counter_reg = 1
# time: 265 xxxxxxxxxxxxxxxxxxxxxxxxxx
# time: 265 aaaaaaaaaaaaaaaaaaaaa burst_counter = 1, burst_counter_reg = 1
# time: 265 jjjjjjjjjjjjjjjjjjjjj burst_counter = 1, burst_counter_reg = 0
# time: 275 xxxxxxxxxxxxxxxxxxxxxxxxxx
# time: 275 aaaaaaaaaaaaaaaaaaaaa burst_counter = 0, burst_counter_reg = 0
# time: 275 jjjjjjjjjjjjjjjjjjjjj burst_counter = 0, burst_counter_reg = 1
# ** Note: $stop    : ahbs_tb.sv(93)
#    Time: 280 ns  Iteration: 0  Instance: /ahbslave_tb
# Break in Module ahbslave_tb at ahbs_tb.sv line 93
add wave -position insertpoint  \
sim:/ahbslave_tb/s0/wrap_flag
restart
# ** Note: (vsim-8009) Loading existing optimized design _opt
# Loading work.ahbslave_tb(fast)
# Loading work.ahb_slave(fast)
run -all
# time: 25 xxxxxxxxxxxxxxxxxxxxxxxxxx
# time: 40 xxxxxxxxxxxxxxxxxxxxxxxxxx
# time: 45 xxxxxxxxxxxxxxxxxxxxxxxxxx
# time: 60 xxxxxxxxxxxxxxxxxxxxxxxxxx
# time: 65 xxxxxxxxxxxxxxxxxxxxxxxxxx
# time: 65 aaaaaaaaaaaaaaaaaaaaa burst_counter = 0, burst_counter_reg = 0
# time :70 HRDATA = x
# time: 75 xxxxxxxxxxxxxxxxxxxxxxxxxx
# time :80 HRDATA = x
# time: 80 xxxxxxxxxxxxxxxxxxxxxxxxxx
# time: 85 xxxxxxxxxxxxxxxxxxxxxxxxxx
# time :90 HRDATA = 5
# time :100 HRDATA = 5
# time: 100 xxxxxxxxxxxxxxxxxxxxxxxxxx
# time: 105 xxxxxxxxxxxxxxxxxxxxxxxxxx
# time :110 HRDATA = 5
# time :120 HRDATA = 5
# time: 120 xxxxxxxxxxxxxxxxxxxxxxxxxx
# time: 125 xxxxxxxxxxxxxxxxxxxxxxxxxx
# time: 125 aaaaaaaaaaaaaaaaaaaaa burst_counter = 0, burst_counter_reg = 0
# time: 125 jjjjjjjjjjjjjjjjjjjjj burst_counter = 0, burst_counter_reg = 1
# time: 135 xxxxxxxxxxxxxxxxxxxxxxxxxx
# time: 135 aaaaaaaaaaaaaaaaaaaaa burst_counter = 1, burst_counter_reg = 1
# time: 135 jjjjjjjjjjjjjjjjjjjjj burst_counter = 1, burst_counter_reg = 2
# time: 145 xxxxxxxxxxxxxxxxxxxxxxxxxx
# time: 145 aaaaaaaaaaaaaaaaaaaaa burst_counter = 2, burst_counter_reg = 2
# time: 145 jjjjjjjjjjjjjjjjjjjjj burst_counter = 2, burst_counter_reg = 3
# time: 155 xxxxxxxxxxxxxxxxxxxxxxxxxx
# time: 155 aaaaaaaaaaaaaaaaaaaaa burst_counter = 3, burst_counter_reg = 3
# time: 155 jjjjjjjjjjjjjjjjjjjjj burst_counter = 3, burst_counter_reg = 4
# time: 165 xxxxxxxxxxxxxxxxxxxxxxxxxx
# time: 170 xxxxxxxxxxxxxxxxxxxxxxxxxx
# time: 175 xxxxxxxxxxxxxxxxxxxxxxxxxx
# time: 175 aaaaaaaaaaaaaaaaaaaaa burst_counter = 4, burst_counter_reg = 4
# time: 175 jjjjjjjjjjjjjjjjjjjjj burst_counter = 4, burst_counter_reg = 3
# time: 185 xxxxxxxxxxxxxxxxxxxxxxxxxx
# time: 185 aaaaaaaaaaaaaaaaaaaaa burst_counter = 3, burst_counter_reg = 3
# time: 185 jjjjjjjjjjjjjjjjjjjjj burst_counter = 3, burst_counter_reg = 2
# time: 195 xxxxxxxxxxxxxxxxxxxxxxxxxx
# time: 195 aaaaaaaaaaaaaaaaaaaaa burst_counter = 2, burst_counter_reg = 2
# time: 195 jjjjjjjjjjjjjjjjjjjjj burst_counter = 2, burst_counter_reg = 1
# time: 205 xxxxxxxxxxxxxxxxxxxxxxxxxx
# time: 205 aaaaaaaaaaaaaaaaaaaaa burst_counter = 1, burst_counter_reg = 1
# time: 205 jjjjjjjjjjjjjjjjjjjjj burst_counter = 1, burst_counter_reg = 0
# time: 215 xxxxxxxxxxxxxxxxxxxxxxxxxx
# time: 215 aaaaaaaaaaaaaaaaaaaaa burst_counter = 0, burst_counter_reg = 0
# time: 215 jjjjjjjjjjjjjjjjjjjjj burst_counter = 0, burst_counter_reg = 1
# time: 225 xxxxxxxxxxxxxxxxxxxxxxxxxx
# time: 225 aaaaaaaaaaaaaaaaaaaaa burst_counter = 1, burst_counter_reg = 1
# time: 225 jjjjjjjjjjjjjjjjjjjjj burst_counter = 1, burst_counter_reg = 0
# time: 235 xxxxxxxxxxxxxxxxxxxxxxxxxx
# time: 235 aaaaaaaaaaaaaaaaaaaaa burst_counter = 0, burst_counter_reg = 0
# time: 235 jjjjjjjjjjjjjjjjjjjjj burst_counter = 0, burst_counter_reg = 1
# time: 245 xxxxxxxxxxxxxxxxxxxxxxxxxx
# time: 245 aaaaaaaaaaaaaaaaaaaaa burst_counter = 1, burst_counter_reg = 1
# time: 245 jjjjjjjjjjjjjjjjjjjjj burst_counter = 1, burst_counter_reg = 0
# time: 255 xxxxxxxxxxxxxxxxxxxxxxxxxx
# time: 255 aaaaaaaaaaaaaaaaaaaaa burst_counter = 0, burst_counter_reg = 0
# time: 255 jjjjjjjjjjjjjjjjjjjjj burst_counter = 0, burst_counter_reg = 1
# time: 265 xxxxxxxxxxxxxxxxxxxxxxxxxx
# time: 265 aaaaaaaaaaaaaaaaaaaaa burst_counter = 1, burst_counter_reg = 1
# time: 265 jjjjjjjjjjjjjjjjjjjjj burst_counter = 1, burst_counter_reg = 0
# time: 275 xxxxxxxxxxxxxxxxxxxxxxxxxx
# time: 275 aaaaaaaaaaaaaaaaaaaaa burst_counter = 0, burst_counter_reg = 0
# time: 275 jjjjjjjjjjjjjjjjjjjjj burst_counter = 0, burst_counter_reg = 1
# ** Note: $stop    : ahbs_tb.sv(93)
#    Time: 280 ns  Iteration: 0  Instance: /ahbslave_tb
# Break in Module ahbslave_tb at ahbs_tb.sv line 93
vlog ahbs_tb.sv
# QuestaSim-64 vlog 2021.1 Compiler 2021.01 Jan 19 2021
# Start time: 05:27:58 on Sep 23,2024
# vlog -reportprogress 300 ahbs_tb.sv 
# -- Compiling module ahbslave_tb
# 
# Top level modules:
# 	ahbslave_tb
# End time: 05:27:59 on Sep 23,2024, Elapsed time: 0:00:01
# Errors: 0, Warnings: 0
restart
# ** Note: (vsim-8009) Loading existing optimized design _opt
# Loading work.ahbslave_tb(fast)
# Loading work.ahb_slave(fast)
run -all
# time: 25 xxxxxxxxxxxxxxxxxxxxxxxxxx
# time: 40 xxxxxxxxxxxxxxxxxxxxxxxxxx
# time: 45 xxxxxxxxxxxxxxxxxxxxxxxxxx
# time: 60 xxxxxxxxxxxxxxxxxxxxxxxxxx
# time: 65 xxxxxxxxxxxxxxxxxxxxxxxxxx
# time: 65 aaaaaaaaaaaaaaaaaaaaa burst_counter = 0, burst_counter_reg = 0
# time :70 HRDATA = x
# time: 75 xxxxxxxxxxxxxxxxxxxxxxxxxx
# time :80 HRDATA = x
# time: 80 xxxxxxxxxxxxxxxxxxxxxxxxxx
# time: 85 xxxxxxxxxxxxxxxxxxxxxxxxxx
# time :90 HRDATA = 5
# time :100 HRDATA = 5
# time: 100 xxxxxxxxxxxxxxxxxxxxxxxxxx
# time: 105 xxxxxxxxxxxxxxxxxxxxxxxxxx
# time :110 HRDATA = 5
# time :120 HRDATA = 5
# time: 120 xxxxxxxxxxxxxxxxxxxxxxxxxx
# time: 125 xxxxxxxxxxxxxxxxxxxxxxxxxx
# time: 125 aaaaaaaaaaaaaaaaaaaaa burst_counter = 0, burst_counter_reg = 0
# time: 125 jjjjjjjjjjjjjjjjjjjjj burst_counter = 0, burst_counter_reg = 1
# time: 135 xxxxxxxxxxxxxxxxxxxxxxxxxx
# time: 135 aaaaaaaaaaaaaaaaaaaaa burst_counter = 1, burst_counter_reg = 1
# time: 135 jjjjjjjjjjjjjjjjjjjjj burst_counter = 1, burst_counter_reg = 2
# time: 145 xxxxxxxxxxxxxxxxxxxxxxxxxx
# time: 145 aaaaaaaaaaaaaaaaaaaaa burst_counter = 2, burst_counter_reg = 2
# time: 145 jjjjjjjjjjjjjjjjjjjjj burst_counter = 2, burst_counter_reg = 3
# time: 155 xxxxxxxxxxxxxxxxxxxxxxxxxx
# time: 155 aaaaaaaaaaaaaaaaaaaaa burst_counter = 3, burst_counter_reg = 3
# time: 155 jjjjjjjjjjjjjjjjjjjjj burst_counter = 3, burst_counter_reg = 4
# time: 165 xxxxxxxxxxxxxxxxxxxxxxxxxx
# time: 170 xxxxxxxxxxxxxxxxxxxxxxxxxx
# time: 175 xxxxxxxxxxxxxxxxxxxxxxxxxx
# time: 175 aaaaaaaaaaaaaaaaaaaaa burst_counter = 4, burst_counter_reg = 4
# time: 175 jjjjjjjjjjjjjjjjjjjjj burst_counter = 4, burst_counter_reg = 3
# time: 185 xxxxxxxxxxxxxxxxxxxxxxxxxx
# time: 185 aaaaaaaaaaaaaaaaaaaaa burst_counter = 3, burst_counter_reg = 3
# time: 185 jjjjjjjjjjjjjjjjjjjjj burst_counter = 3, burst_counter_reg = 2
# time: 195 xxxxxxxxxxxxxxxxxxxxxxxxxx
# time: 195 aaaaaaaaaaaaaaaaaaaaa burst_counter = 2, burst_counter_reg = 2
# time: 195 jjjjjjjjjjjjjjjjjjjjj burst_counter = 2, burst_counter_reg = 1
# time: 205 xxxxxxxxxxxxxxxxxxxxxxxxxx
# time: 205 aaaaaaaaaaaaaaaaaaaaa burst_counter = 1, burst_counter_reg = 1
# time: 205 jjjjjjjjjjjjjjjjjjjjj burst_counter = 1, burst_counter_reg = 0
# time: 215 xxxxxxxxxxxxxxxxxxxxxxxxxx
# time: 215 aaaaaaaaaaaaaaaaaaaaa burst_counter = 0, burst_counter_reg = 0
# time: 215 jjjjjjjjjjjjjjjjjjjjj burst_counter = 0, burst_counter_reg = 1
# time: 225 xxxxxxxxxxxxxxxxxxxxxxxxxx
# time: 225 aaaaaaaaaaaaaaaaaaaaa burst_counter = 1, burst_counter_reg = 1
# time: 225 jjjjjjjjjjjjjjjjjjjjj burst_counter = 1, burst_counter_reg = 0
# time: 235 xxxxxxxxxxxxxxxxxxxxxxxxxx
# time: 235 aaaaaaaaaaaaaaaaaaaaa burst_counter = 0, burst_counter_reg = 0
# time: 235 jjjjjjjjjjjjjjjjjjjjj burst_counter = 0, burst_counter_reg = 1
# time: 245 xxxxxxxxxxxxxxxxxxxxxxxxxx
# time: 245 aaaaaaaaaaaaaaaaaaaaa burst_counter = 1, burst_counter_reg = 1
# time: 245 jjjjjjjjjjjjjjjjjjjjj burst_counter = 1, burst_counter_reg = 0
# time: 255 xxxxxxxxxxxxxxxxxxxxxxxxxx
# time: 255 aaaaaaaaaaaaaaaaaaaaa burst_counter = 0, burst_counter_reg = 0
# time: 255 jjjjjjjjjjjjjjjjjjjjj burst_counter = 0, burst_counter_reg = 1
# time: 265 xxxxxxxxxxxxxxxxxxxxxxxxxx
# time: 265 aaaaaaaaaaaaaaaaaaaaa burst_counter = 1, burst_counter_reg = 1
# time: 265 jjjjjjjjjjjjjjjjjjjjj burst_counter = 1, burst_counter_reg = 0
# time: 275 xxxxxxxxxxxxxxxxxxxxxxxxxx
# time: 275 aaaaaaaaaaaaaaaaaaaaa burst_counter = 0, burst_counter_reg = 0
# time: 275 jjjjjjjjjjjjjjjjjjjjj burst_counter = 0, burst_counter_reg = 1
# ** Note: $stop    : ahbs_tb.sv(93)
#    Time: 280 ns  Iteration: 0  Instance: /ahbslave_tb
# Break in Module ahbslave_tb at ahbs_tb.sv line 93
vlog ahb_slave.v
# QuestaSim-64 vlog 2021.1 Compiler 2021.01 Jan 19 2021
# Start time: 05:28:21 on Sep 23,2024
# vlog -reportprogress 300 ahb_slave.v 
# -- Compiling module ahb_slave
# ** Warning: ahb_slave.v(164): (vlog-2182) 'burst_counter_reg' might be read before written in always_comb or always @* block.
# 
# Top level modules:
# 	ahb_slave
# End time: 05:28:21 on Sep 23,2024, Elapsed time: 0:00:00
# Errors: 0, Warnings: 1
vlog ahbs_tb.sv
# QuestaSim-64 vlog 2021.1 Compiler 2021.01 Jan 19 2021
# Start time: 05:28:25 on Sep 23,2024
# vlog -reportprogress 300 ahbs_tb.sv 
# -- Compiling module ahbslave_tb
# 
# Top level modules:
# 	ahbslave_tb
# End time: 05:28:25 on Sep 23,2024, Elapsed time: 0:00:00
# Errors: 0, Warnings: 0
restart
# ** Note: (vsim-3813) Design is being optimized due to module recompilation...
# ** Warning: ahb_slave.v(164): (vopt-2182) 'burst_counter_reg' might be read before written in always_comb or always @* block.
# ** Note: (vsim-12126) Error and warning message counts have been restored: Errors=0, Warnings=1.
# Loading sv_std.std
# Loading work.ahbslave_tb(fast)
# Loading work.ahb_slave(fast)
run -all
# time: 25 xxxxxxxxxxxxxxxxxxxxxxxxxx
# time: 40 xxxxxxxxxxxxxxxxxxxxxxxxxx
# time: 45 xxxxxxxxxxxxxxxxxxxxxxxxxx
# time: 60 xxxxxxxxxxxxxxxxxxxxxxxxxx
# time: 65 xxxxxxxxxxxxxxxxxxxxxxxxxx
# time: 65 aaaaaaaaaaaaaaaaaaaaa burst_counter = 0, burst_counter_reg = 0
# time :70 HRDATA = x
# time: 75 xxxxxxxxxxxxxxxxxxxxxxxxxx
# time :80 HRDATA = x
# time: 80 xxxxxxxxxxxxxxxxxxxxxxxxxx
# time: 85 xxxxxxxxxxxxxxxxxxxxxxxxxx
# time :90 HRDATA = 5
# time :100 HRDATA = 5
# time: 100 xxxxxxxxxxxxxxxxxxxxxxxxxx
# time: 105 xxxxxxxxxxxxxxxxxxxxxxxxxx
# time :110 HRDATA = 5
# time :120 HRDATA = 5
# time: 120 xxxxxxxxxxxxxxxxxxxxxxxxxx
# time: 125 xxxxxxxxxxxxxxxxxxxxxxxxxx
# time: 125 aaaaaaaaaaaaaaaaaaaaa burst_counter = 0, burst_counter_reg = 0
# time: 125 jjjjjjjjjjjjjjjjjjjjj burst_counter = 0, burst_counter_reg = 1
# time: 135 xxxxxxxxxxxxxxxxxxxxxxxxxx
# time: 135 aaaaaaaaaaaaaaaaaaaaa burst_counter = 1, burst_counter_reg = 1
# time: 135 jjjjjjjjjjjjjjjjjjjjj burst_counter = 1, burst_counter_reg = 2
# time: 145 xxxxxxxxxxxxxxxxxxxxxxxxxx
# time: 145 aaaaaaaaaaaaaaaaaaaaa burst_counter = 2, burst_counter_reg = 2
# time: 145 jjjjjjjjjjjjjjjjjjjjj burst_counter = 2, burst_counter_reg = 3
# time: 155 xxxxxxxxxxxxxxxxxxxxxxxxxx
# time: 155 aaaaaaaaaaaaaaaaaaaaa burst_counter = 3, burst_counter_reg = 3
# time: 155 jjjjjjjjjjjjjjjjjjjjj burst_counter = 3, burst_counter_reg = 4
# time: 165 xxxxxxxxxxxxxxxxxxxxxxxxxx
# time: 175 xxxxxxxxxxxxxxxxxxxxxxxxxx
# time: 175 aaaaaaaaaaaaaaaaaaaaa burst_counter = 4, burst_counter_reg = 4
# time: 175 jjjjjjjjjjjjjjjjjjjjj burst_counter = 4, burst_counter_reg = 5
# time: 180 xxxxxxxxxxxxxxxxxxxxxxxxxx
# time: 180 aaaaaaaaaaaaaaaaaaaaa burst_counter = 4, burst_counter_reg = 5
# time: 180 jjjjjjjjjjjjjjjjjjjjj burst_counter = 4, burst_counter_reg = 4
# ** Note: $stop    : ahbs_tb.sv(93)
#    Time: 280 ns  Iteration: 0  Instance: /ahbslave_tb
# Break in Module ahbslave_tb at ahbs_tb.sv line 93
vlog ahb_slave.v
# QuestaSim-64 vlog 2021.1 Compiler 2021.01 Jan 19 2021
# Start time: 13:19:06 on Sep 23,2024
# vlog -reportprogress 300 ahb_slave.v 
# -- Compiling module ahb_slave
# ** Warning: ahb_slave.v(166): (vlog-2182) 'burst_counter_reg' might be read before written in always_comb or always @* block.
# 
# Top level modules:
# 	ahb_slave
# End time: 13:19:08 on Sep 23,2024, Elapsed time: 0:00:02
# Errors: 0, Warnings: 1
vlog ahbs_tb.sv
# QuestaSim-64 vlog 2021.1 Compiler 2021.01 Jan 19 2021
# Start time: 13:19:15 on Sep 23,2024
# vlog -reportprogress 300 ahbs_tb.sv 
# -- Compiling module ahbslave_tb
# 
# Top level modules:
# 	ahbslave_tb
# End time: 13:19:16 on Sep 23,2024, Elapsed time: 0:00:01
# Errors: 0, Warnings: 0
restart
# ** Note: (vsim-12125) Error and warning message counts have been reset to '0' because of 'restart'.
# ** Note: (vsim-3813) Design is being optimized due to module recompilation...
# ** Warning: ahb_slave.v(166): (vopt-2182) 'burst_counter_reg' might be read before written in always_comb or always @* block.
# ** Note: (vsim-12126) Error and warning message counts have been restored: Errors=0, Warnings=1.
# Loading sv_std.std
# Loading work.ahbslave_tb(fast)
# Loading work.ahb_slave(fast)
run -all
# time: 25 xxxxxxxxxxxxxxxxxxxxxxxxxx
# time: 40 xxxxxxxxxxxxxxxxxxxxxxxxxx
# time: 45 xxxxxxxxxxxxxxxxxxxxxxxxxx
# time: 60 xxxxxxxxxxxxxxxxxxxxxxxxxx
# time: 65 xxxxxxxxxxxxxxxxxxxxxxxxxx
# time: 65 aaaaaaaaaaaaaaaaaaaaa burst_counter = 0, burst_counter_reg = 0
# time :70 HRDATA = x
# time: 75 xxxxxxxxxxxxxxxxxxxxxxxxxx
# time :80 HRDATA = x
# time: 80 xxxxxxxxxxxxxxxxxxxxxxxxxx
# time: 85 xxxxxxxxxxxxxxxxxxxxxxxxxx
# time :90 HRDATA = 5
# time :100 HRDATA = 5
# time: 100 xxxxxxxxxxxxxxxxxxxxxxxxxx
# time: 105 xxxxxxxxxxxxxxxxxxxxxxxxxx
# time :110 HRDATA = 5
# time :120 HRDATA = 5
# time: 120 xxxxxxxxxxxxxxxxxxxxxxxxxx
# time: 125 xxxxxxxxxxxxxxxxxxxxxxxxxx
# time: 125 aaaaaaaaaaaaaaaaaaaaa burst_counter = 0, burst_counter_reg = 0
# time: 135 xxxxxxxxxxxxxxxxxxxxxxxxxx
# time: 135 aaaaaaaaaaaaaaaaaaaaa burst_counter = 1, burst_counter_reg = 1
# time: 145 xxxxxxxxxxxxxxxxxxxxxxxxxx
# time: 145 aaaaaaaaaaaaaaaaaaaaa burst_counter = 2, burst_counter_reg = 2
# time: 155 xxxxxxxxxxxxxxxxxxxxxxxxxx
# time: 155 aaaaaaaaaaaaaaaaaaaaa burst_counter = 3, burst_counter_reg = 3
# time: 165 xxxxxxxxxxxxxxxxxxxxxxxxxx
# time: 175 xxxxxxxxxxxxxxxxxxxxxxxxxx
# time: 175 aaaaaaaaaaaaaaaaaaaaa burst_counter = 4, burst_counter_reg = 4
# time: 180 xxxxxxxxxxxxxxxxxxxxxxxxxx
# time: 180 aaaaaaaaaaaaaaaaaaaaa burst_counter = 4, burst_counter_reg = 5
# time: 185 xxxxxxxxxxxxxxxxxxxxxxxxxx
# time: 185 aaaaaaaaaaaaaaaaaaaaa burst_counter = 4, burst_counter_reg = 4
# time: 195 xxxxxxxxxxxxxxxxxxxxxxxxxx
# time: 195 aaaaaaaaaaaaaaaaaaaaa burst_counter = 3, burst_counter_reg = 3
# time: 205 xxxxxxxxxxxxxxxxxxxxxxxxxx
# time: 205 aaaaaaaaaaaaaaaaaaaaa burst_counter = 2, burst_counter_reg = 2
# time: 215 xxxxxxxxxxxxxxxxxxxxxxxxxx
# time: 215 aaaaaaaaaaaaaaaaaaaaa burst_counter = 1, burst_counter_reg = 1
# time: 225 xxxxxxxxxxxxxxxxxxxxxxxxxx
# time: 225 aaaaaaaaaaaaaaaaaaaaa burst_counter = 0, burst_counter_reg = 0
# time: 235 xxxxxxxxxxxxxxxxxxxxxxxxxx
# time: 235 aaaaaaaaaaaaaaaaaaaaa burst_counter = 1, burst_counter_reg = 1
# time: 245 xxxxxxxxxxxxxxxxxxxxxxxxxx
# time: 245 aaaaaaaaaaaaaaaaaaaaa burst_counter = 0, burst_counter_reg = 0
# time: 255 xxxxxxxxxxxxxxxxxxxxxxxxxx
# time: 255 aaaaaaaaaaaaaaaaaaaaa burst_counter = 1, burst_counter_reg = 1
# time: 265 xxxxxxxxxxxxxxxxxxxxxxxxxx
# time: 265 aaaaaaaaaaaaaaaaaaaaa burst_counter = 0, burst_counter_reg = 0
# time: 275 xxxxxxxxxxxxxxxxxxxxxxxxxx
# time: 275 aaaaaaaaaaaaaaaaaaaaa burst_counter = 1, burst_counter_reg = 1
# ** Note: $stop    : ahbs_tb.sv(93)
#    Time: 280 ns  Iteration: 0  Instance: /ahbslave_tb
# Break in Module ahbslave_tb at ahbs_tb.sv line 93
add wave -position insertpoint  \
sim:/ahbslave_tb/s0/HTRANS_reg
restart
# ** Note: (vsim-12125) Error and warning message counts have been reset to '0' because of 'restart'.
# ** Note: (vsim-8009) Loading existing optimized design _opt
# ** Note: (vsim-12126) Error and warning message counts have been restored: Errors=0, Warnings=1.
# Loading work.ahbslave_tb(fast)
# Loading work.ahb_slave(fast)
run -all
# time: 25 xxxxxxxxxxxxxxxxxxxxxxxxxx
# time: 40 xxxxxxxxxxxxxxxxxxxxxxxxxx
# time: 45 xxxxxxxxxxxxxxxxxxxxxxxxxx
# time: 60 xxxxxxxxxxxxxxxxxxxxxxxxxx
# time: 65 xxxxxxxxxxxxxxxxxxxxxxxxxx
# time: 65 aaaaaaaaaaaaaaaaaaaaa burst_counter = 0, burst_counter_reg = 0
# time :70 HRDATA = x
# time: 75 xxxxxxxxxxxxxxxxxxxxxxxxxx
# time :80 HRDATA = x
# time: 80 xxxxxxxxxxxxxxxxxxxxxxxxxx
# time: 85 xxxxxxxxxxxxxxxxxxxxxxxxxx
# time :90 HRDATA = 5
# time :100 HRDATA = 5
# time: 100 xxxxxxxxxxxxxxxxxxxxxxxxxx
# time: 105 xxxxxxxxxxxxxxxxxxxxxxxxxx
# time :110 HRDATA = 5
# time :120 HRDATA = 5
# time: 120 xxxxxxxxxxxxxxxxxxxxxxxxxx
# time: 125 xxxxxxxxxxxxxxxxxxxxxxxxxx
# time: 125 aaaaaaaaaaaaaaaaaaaaa burst_counter = 0, burst_counter_reg = 0
# time: 135 xxxxxxxxxxxxxxxxxxxxxxxxxx
# time: 135 aaaaaaaaaaaaaaaaaaaaa burst_counter = 1, burst_counter_reg = 1
# time: 145 xxxxxxxxxxxxxxxxxxxxxxxxxx
# time: 145 aaaaaaaaaaaaaaaaaaaaa burst_counter = 2, burst_counter_reg = 2
# time: 155 xxxxxxxxxxxxxxxxxxxxxxxxxx
# time: 155 aaaaaaaaaaaaaaaaaaaaa burst_counter = 3, burst_counter_reg = 3
# time: 165 xxxxxxxxxxxxxxxxxxxxxxxxxx
# time: 175 xxxxxxxxxxxxxxxxxxxxxxxxxx
# time: 175 aaaaaaaaaaaaaaaaaaaaa burst_counter = 4, burst_counter_reg = 4
# time: 180 xxxxxxxxxxxxxxxxxxxxxxxxxx
# time: 180 aaaaaaaaaaaaaaaaaaaaa burst_counter = 4, burst_counter_reg = 5
# time: 185 xxxxxxxxxxxxxxxxxxxxxxxxxx
# time: 185 aaaaaaaaaaaaaaaaaaaaa burst_counter = 4, burst_counter_reg = 4
# time: 195 xxxxxxxxxxxxxxxxxxxxxxxxxx
# time: 195 aaaaaaaaaaaaaaaaaaaaa burst_counter = 3, burst_counter_reg = 3
# time: 205 xxxxxxxxxxxxxxxxxxxxxxxxxx
# time: 205 aaaaaaaaaaaaaaaaaaaaa burst_counter = 2, burst_counter_reg = 2
# time: 215 xxxxxxxxxxxxxxxxxxxxxxxxxx
# time: 215 aaaaaaaaaaaaaaaaaaaaa burst_counter = 1, burst_counter_reg = 1
# time: 225 xxxxxxxxxxxxxxxxxxxxxxxxxx
# time: 225 aaaaaaaaaaaaaaaaaaaaa burst_counter = 0, burst_counter_reg = 0
# time: 235 xxxxxxxxxxxxxxxxxxxxxxxxxx
# time: 235 aaaaaaaaaaaaaaaaaaaaa burst_counter = 1, burst_counter_reg = 1
# time: 245 xxxxxxxxxxxxxxxxxxxxxxxxxx
# time: 245 aaaaaaaaaaaaaaaaaaaaa burst_counter = 0, burst_counter_reg = 0
# time: 255 xxxxxxxxxxxxxxxxxxxxxxxxxx
# time: 255 aaaaaaaaaaaaaaaaaaaaa burst_counter = 1, burst_counter_reg = 1
# time: 265 xxxxxxxxxxxxxxxxxxxxxxxxxx
# time: 265 aaaaaaaaaaaaaaaaaaaaa burst_counter = 0, burst_counter_reg = 0
# time: 275 xxxxxxxxxxxxxxxxxxxxxxxxxx
# time: 275 aaaaaaaaaaaaaaaaaaaaa burst_counter = 1, burst_counter_reg = 1
# ** Note: $stop    : ahbs_tb.sv(93)
#    Time: 280 ns  Iteration: 0  Instance: /ahbslave_tb
# Break in Module ahbslave_tb at ahbs_tb.sv line 93
vlog ahb_slave.v
# QuestaSim-64 vlog 2021.1 Compiler 2021.01 Jan 19 2021
# Start time: 13:28:12 on Sep 23,2024
# vlog -reportprogress 300 ahb_slave.v 
# -- Compiling module ahb_slave
# ** Warning: ahb_slave.v(166): (vlog-2182) 'burst_counter_reg' might be read before written in always_comb or always @* block.
# 
# Top level modules:
# 	ahb_slave
# End time: 13:28:12 on Sep 23,2024, Elapsed time: 0:00:00
# Errors: 0, Warnings: 1
vlog ahbs_tb.sv
# QuestaSim-64 vlog 2021.1 Compiler 2021.01 Jan 19 2021
# Start time: 13:28:16 on Sep 23,2024
# vlog -reportprogress 300 ahbs_tb.sv 
# -- Compiling module ahbslave_tb
# 
# Top level modules:
# 	ahbslave_tb
# End time: 13:28:16 on Sep 23,2024, Elapsed time: 0:00:00
# Errors: 0, Warnings: 0
restart
# ** Note: (vsim-12125) Error and warning message counts have been reset to '0' because of 'restart'.
# ** Note: (vsim-3813) Design is being optimized due to module recompilation...
# ** Warning: ahb_slave.v(166): (vopt-2182) 'burst_counter_reg' might be read before written in always_comb or always @* block.
# ** Note: (vsim-12126) Error and warning message counts have been restored: Errors=0, Warnings=1.
# Loading sv_std.std
# Loading work.ahbslave_tb(fast)
# Loading work.ahb_slave(fast)
run -all
# time: 25 xxxxxxxxxxxxxxxxxxxxxxxxxx
# time: 40 xxxxxxxxxxxxxxxxxxxxxxxxxx
# time: 45 xxxxxxxxxxxxxxxxxxxxxxxxxx
# time: 60 xxxxxxxxxxxxxxxxxxxxxxxxxx
# time: 65 xxxxxxxxxxxxxxxxxxxxxxxxxx
# time: 65 aaaaaaaaaaaaaaaaaaaaa burst_counter = 0, burst_counter_reg = 0
# time :70 HRDATA = x
# time: 75 xxxxxxxxxxxxxxxxxxxxxxxxxx
# time :80 HRDATA = x
# time: 80 xxxxxxxxxxxxxxxxxxxxxxxxxx
# time: 85 xxxxxxxxxxxxxxxxxxxxxxxxxx
# time :90 HRDATA = 5
# time :100 HRDATA = 5
# time: 100 xxxxxxxxxxxxxxxxxxxxxxxxxx
# time: 105 xxxxxxxxxxxxxxxxxxxxxxxxxx
# time :110 HRDATA = 5
# time :120 HRDATA = 5
# time: 120 xxxxxxxxxxxxxxxxxxxxxxxxxx
# time: 125 xxxxxxxxxxxxxxxxxxxxxxxxxx
# time: 125 aaaaaaaaaaaaaaaaaaaaa burst_counter = 0, burst_counter_reg = 0
# time: 130 xxxxxxxxxxxxxxxxxxxxxxxxxx
# time: 130 aaaaaaaaaaaaaaaaaaaaa burst_counter = 0, burst_counter_reg = 1
# time: 135 xxxxxxxxxxxxxxxxxxxxxxxxxx
# time: 135 aaaaaaaaaaaaaaaaaaaaa burst_counter = 2, burst_counter_reg = 2
# time: 145 xxxxxxxxxxxxxxxxxxxxxxxxxx
# time: 145 aaaaaaaaaaaaaaaaaaaaa burst_counter = 3, burst_counter_reg = 3
# time: 155 xxxxxxxxxxxxxxxxxxxxxxxxxx
# time: 155 aaaaaaaaaaaaaaaaaaaaa burst_counter = 4, burst_counter_reg = 4
# time: 160 xxxxxxxxxxxxxxxxxxxxxxxxxx
# time: 160 aaaaaaaaaaaaaaaaaaaaa burst_counter = 4, burst_counter_reg = 5
# time: 165 xxxxxxxxxxxxxxxxxxxxxxxxxx
# time: 170 xxxxxxxxxxxxxxxxxxxxxxxxxx
# time: 175 xxxxxxxxxxxxxxxxxxxxxxxxxx
# time: 175 aaaaaaaaaaaaaaaaaaaaa burst_counter = 0, burst_counter_reg = 0
# time: 180 xxxxxxxxxxxxxxxxxxxxxxxxxx
# time: 180 aaaaaaaaaaaaaaaaaaaaa burst_counter = 0, burst_counter_reg = 1
# time: 185 xxxxxxxxxxxxxxxxxxxxxxxxxx
# time: 185 aaaaaaaaaaaaaaaaaaaaa burst_counter = 2, burst_counter_reg = 2
# time: 195 xxxxxxxxxxxxxxxxxxxxxxxxxx
# time: 195 aaaaaaaaaaaaaaaaaaaaa burst_counter = 1, burst_counter_reg = 1
# time: 205 xxxxxxxxxxxxxxxxxxxxxxxxxx
# time: 205 aaaaaaaaaaaaaaaaaaaaa burst_counter = 0, burst_counter_reg = 0
# time: 215 xxxxxxxxxxxxxxxxxxxxxxxxxx
# time: 215 aaaaaaaaaaaaaaaaaaaaa burst_counter = 1, burst_counter_reg = 1
# time: 225 xxxxxxxxxxxxxxxxxxxxxxxxxx
# time: 225 aaaaaaaaaaaaaaaaaaaaa burst_counter = 0, burst_counter_reg = 0
# time: 235 xxxxxxxxxxxxxxxxxxxxxxxxxx
# time: 235 aaaaaaaaaaaaaaaaaaaaa burst_counter = 1, burst_counter_reg = 1
# time: 245 xxxxxxxxxxxxxxxxxxxxxxxxxx
# time: 245 aaaaaaaaaaaaaaaaaaaaa burst_counter = 0, burst_counter_reg = 0
# time: 255 xxxxxxxxxxxxxxxxxxxxxxxxxx
# time: 255 aaaaaaaaaaaaaaaaaaaaa burst_counter = 1, burst_counter_reg = 1
# time: 265 xxxxxxxxxxxxxxxxxxxxxxxxxx
# time: 265 aaaaaaaaaaaaaaaaaaaaa burst_counter = 0, burst_counter_reg = 0
# time: 275 xxxxxxxxxxxxxxxxxxxxxxxxxx
# time: 275 aaaaaaaaaaaaaaaaaaaaa burst_counter = 1, burst_counter_reg = 1
# ** Note: $stop    : ahbs_tb.sv(93)
#    Time: 280 ns  Iteration: 0  Instance: /ahbslave_tb
# Break in Module ahbslave_tb at ahbs_tb.sv line 93
vlog ahbs_tb.sv
# QuestaSim-64 vlog 2021.1 Compiler 2021.01 Jan 19 2021
# Start time: 13:39:10 on Sep 23,2024
# vlog -reportprogress 300 ahbs_tb.sv 
# -- Compiling module ahbslave_tb
# 
# Top level modules:
# 	ahbslave_tb
# End time: 13:39:10 on Sep 23,2024, Elapsed time: 0:00:00
# Errors: 0, Warnings: 0
vlog ahb_slave.v
# QuestaSim-64 vlog 2021.1 Compiler 2021.01 Jan 19 2021
# Start time: 13:39:13 on Sep 23,2024
# vlog -reportprogress 300 ahb_slave.v 
# -- Compiling module ahb_slave
# ** Warning: ahb_slave.v(166): (vlog-2182) 'burst_counter_reg' might be read before written in always_comb or always @* block.
# 
# Top level modules:
# 	ahb_slave
# End time: 13:39:13 on Sep 23,2024, Elapsed time: 0:00:00
# Errors: 0, Warnings: 1

restart
# ** Note: (vsim-12125) Error and warning message counts have been reset to '0' because of 'restart'.
# ** Note: (vsim-3813) Design is being optimized due to module recompilation...
# ** Warning: ahb_slave.v(166): (vopt-2182) 'burst_counter_reg' might be read before written in always_comb or always @* block.
# ** Note: (vsim-12126) Error and warning message counts have been restored: Errors=0, Warnings=1.
# Loading sv_std.std
# Loading work.ahbslave_tb(fast)
# Loading work.ahb_slave(fast)

run -all
# time: 25 xxxxxxxxxxxxxxxxxxxxxxxxxx
# time: 40 xxxxxxxxxxxxxxxxxxxxxxxxxx
# time: 45 xxxxxxxxxxxxxxxxxxxxxxxxxx
# time: 60 xxxxxxxxxxxxxxxxxxxxxxxxxx
# time: 65 xxxxxxxxxxxxxxxxxxxxxxxxxx
# time: 65 aaaaaaaaaaaaaaaaaaaaa burst_counter = 0, burst_counter_reg = 0
# time :70 HRDATA = x
# time: 75 xxxxxxxxxxxxxxxxxxxxxxxxxx
# time :80 HRDATA = x
# time: 80 xxxxxxxxxxxxxxxxxxxxxxxxxx
# time: 85 xxxxxxxxxxxxxxxxxxxxxxxxxx
# time :90 HRDATA = 5
# time :100 HRDATA = 5
# time: 100 xxxxxxxxxxxxxxxxxxxxxxxxxx
# time: 105 xxxxxxxxxxxxxxxxxxxxxxxxxx
# time :110 HRDATA = 5
# time :120 HRDATA = 5
# time: 120 xxxxxxxxxxxxxxxxxxxxxxxxxx
# time: 125 xxxxxxxxxxxxxxxxxxxxxxxxxx
# time: 125 aaaaaaaaaaaaaaaaaaaaa burst_counter = 0, burst_counter_reg = 0
# time: 135 xxxxxxxxxxxxxxxxxxxxxxxxxx
# time: 135 aaaaaaaaaaaaaaaaaaaaa burst_counter = 1, burst_counter_reg = 1
# time: 145 xxxxxxxxxxxxxxxxxxxxxxxxxx
# time: 145 aaaaaaaaaaaaaaaaaaaaa burst_counter = 2, burst_counter_reg = 2
# time: 155 xxxxxxxxxxxxxxxxxxxxxxxxxx
# time: 155 aaaaaaaaaaaaaaaaaaaaa burst_counter = 3, burst_counter_reg = 3
# time: 165 xxxxxxxxxxxxxxxxxxxxxxxxxx
# time: 175 xxxxxxxxxxxxxxxxxxxxxxxxxx
# time: 175 aaaaaaaaaaaaaaaaaaaaa burst_counter = 4, burst_counter_reg = 4
# time: 180 xxxxxxxxxxxxxxxxxxxxxxxxxx
# time: 180 aaaaaaaaaaaaaaaaaaaaa burst_counter = 4, burst_counter_reg = 5
# time: 185 xxxxxxxxxxxxxxxxxxxxxxxxxx
# time: 185 aaaaaaaaaaaaaaaaaaaaa burst_counter = 4, burst_counter_reg = 4
# time: 195 xxxxxxxxxxxxxxxxxxxxxxxxxx
# time: 195 aaaaaaaaaaaaaaaaaaaaa burst_counter = 3, burst_counter_reg = 3
# time: 205 xxxxxxxxxxxxxxxxxxxxxxxxxx
# time: 205 aaaaaaaaaaaaaaaaaaaaa burst_counter = 2, burst_counter_reg = 2
# time: 215 xxxxxxxxxxxxxxxxxxxxxxxxxx
# time: 215 aaaaaaaaaaaaaaaaaaaaa burst_counter = 1, burst_counter_reg = 1
# time: 225 xxxxxxxxxxxxxxxxxxxxxxxxxx
# time: 225 aaaaaaaaaaaaaaaaaaaaa burst_counter = 0, burst_counter_reg = 0
# time: 235 xxxxxxxxxxxxxxxxxxxxxxxxxx
# time: 235 aaaaaaaaaaaaaaaaaaaaa burst_counter = 1, burst_counter_reg = 1
# time: 245 xxxxxxxxxxxxxxxxxxxxxxxxxx
# time: 245 aaaaaaaaaaaaaaaaaaaaa burst_counter = 0, burst_counter_reg = 0
# time: 255 xxxxxxxxxxxxxxxxxxxxxxxxxx
# time: 255 aaaaaaaaaaaaaaaaaaaaa burst_counter = 1, burst_counter_reg = 1
# time: 265 xxxxxxxxxxxxxxxxxxxxxxxxxx
# time: 265 aaaaaaaaaaaaaaaaaaaaa burst_counter = 0, burst_counter_reg = 0
# time: 275 xxxxxxxxxxxxxxxxxxxxxxxxxx
# time: 275 aaaaaaaaaaaaaaaaaaaaa burst_counter = 1, burst_counter_reg = 1
# ** Note: $stop    : ahbs_tb.sv(93)
#    Time: 280 ns  Iteration: 0  Instance: /ahbslave_tb
# Break in Module ahbslave_tb at ahbs_tb.sv line 93
vlog ahb_slave.v
# QuestaSim-64 vlog 2021.1 Compiler 2021.01 Jan 19 2021
# Start time: 14:26:45 on Sep 23,2024
# vlog -reportprogress 300 ahb_slave.v 
# -- Compiling module ahb_slave
# ** Error: (vlog-13069) ahb_slave.v(172): near ";": syntax error, unexpected ';', expecting ':'.
# ** Error: ahb_slave.v(195): A label for a block can be specified before 'begin' only in SystemVerilog.
# ** Error: (vlog-13069) ahb_slave.v(195): near "=": syntax error, unexpected '='.
# ** Error: ahb_slave.v(195): (vlog-13205) Syntax error found in the scope following 'HRESP_reg'. Is there a missing '::'?
# End time: 14:26:46 on Sep 23,2024, Elapsed time: 0:00:01
# Errors: 4, Warnings: 0
# F:/questasim/questasim64_2021.1/win64/vlog failed.
vlog ahb_slave.v
# QuestaSim-64 vlog 2021.1 Compiler 2021.01 Jan 19 2021
# Start time: 14:27:18 on Sep 23,2024
# vlog -reportprogress 300 ahb_slave.v 
# -- Compiling module ahb_slave
# 
# Top level modules:
# 	ahb_slave
# End time: 14:27:18 on Sep 23,2024, Elapsed time: 0:00:00
# Errors: 0, Warnings: 0
restart
# ** Note: (vsim-12125) Error and warning message counts have been reset to '0' because of 'restart'.
# ** Note: (vsim-3813) Design is being optimized due to module recompilation...
# Loading sv_std.std
# Loading work.ahbslave_tb(fast)
# Loading work.ahb_slave(fast)
run -all
# time: 25 xxxxxxxxxxxxxxxxxxxxxxxxxx
# time: 40 xxxxxxxxxxxxxxxxxxxxxxxxxx
# time: 45 xxxxxxxxxxxxxxxxxxxxxxxxxx
# time: 60 xxxxxxxxxxxxxxxxxxxxxxxxxx
# time: 65 xxxxxxxxxxxxxxxxxxxxxxxxxx
# time: 65 aaaaaaaaaaaaaaaaaaaaa burst_counter = 0, burst_counter_reg = 0
# time :70 HRDATA = x
# time: 75 xxxxxxxxxxxxxxxxxxxxxxxxxx
# time :80 HRDATA = x
# time: 80 xxxxxxxxxxxxxxxxxxxxxxxxxx
# time: 85 xxxxxxxxxxxxxxxxxxxxxxxxxx
# time :90 HRDATA = 5
# time :100 HRDATA = 5
# time: 100 xxxxxxxxxxxxxxxxxxxxxxxxxx
# time: 105 xxxxxxxxxxxxxxxxxxxxxxxxxx
# time :110 HRDATA = 5
# time :120 HRDATA = 5
# time: 120 xxxxxxxxxxxxxxxxxxxxxxxxxx
# time: 125 xxxxxxxxxxxxxxxxxxxxxxxxxx
# time: 125 aaaaaaaaaaaaaaaaaaaaa burst_counter = 0, burst_counter_reg = 0
# time: 135 xxxxxxxxxxxxxxxxxxxxxxxxxx
# time: 135 aaaaaaaaaaaaaaaaaaaaa burst_counter = 1, burst_counter_reg = 1
# time: 145 xxxxxxxxxxxxxxxxxxxxxxxxxx
# time: 145 aaaaaaaaaaaaaaaaaaaaa burst_counter = 2, burst_counter_reg = 2
# time: 155 xxxxxxxxxxxxxxxxxxxxxxxxxx
# time: 155 aaaaaaaaaaaaaaaaaaaaa burst_counter = 3, burst_counter_reg = 3
# time: 165 xxxxxxxxxxxxxxxxxxxxxxxxxx
# time: 175 xxxxxxxxxxxxxxxxxxxxxxxxxx
# time: 175 aaaaaaaaaaaaaaaaaaaaa burst_counter = 0, burst_counter_reg = 0
# time: 185 xxxxxxxxxxxxxxxxxxxxxxxxxx
# time: 185 aaaaaaaaaaaaaaaaaaaaa burst_counter = 1, burst_counter_reg = 1
# time: 195 xxxxxxxxxxxxxxxxxxxxxxxxxx
# time: 195 aaaaaaaaaaaaaaaaaaaaa burst_counter = 0, burst_counter_reg = 0
# time: 205 xxxxxxxxxxxxxxxxxxxxxxxxxx
# time: 205 aaaaaaaaaaaaaaaaaaaaa burst_counter = 1, burst_counter_reg = 1
# time: 215 xxxxxxxxxxxxxxxxxxxxxxxxxx
# time: 215 aaaaaaaaaaaaaaaaaaaaa burst_counter = 0, burst_counter_reg = 0
# time: 225 xxxxxxxxxxxxxxxxxxxxxxxxxx
# time: 225 aaaaaaaaaaaaaaaaaaaaa burst_counter = 1, burst_counter_reg = 1
# time: 235 xxxxxxxxxxxxxxxxxxxxxxxxxx
# time: 235 aaaaaaaaaaaaaaaaaaaaa burst_counter = 0, burst_counter_reg = 0
# time: 245 xxxxxxxxxxxxxxxxxxxxxxxxxx
# time: 245 aaaaaaaaaaaaaaaaaaaaa burst_counter = 1, burst_counter_reg = 1
# time: 255 xxxxxxxxxxxxxxxxxxxxxxxxxx
# time: 255 aaaaaaaaaaaaaaaaaaaaa burst_counter = 0, burst_counter_reg = 0
# time: 265 xxxxxxxxxxxxxxxxxxxxxxxxxx
# time: 265 aaaaaaaaaaaaaaaaaaaaa burst_counter = 1, burst_counter_reg = 1
# time: 275 xxxxxxxxxxxxxxxxxxxxxxxxxx
# time: 275 aaaaaaaaaaaaaaaaaaaaa burst_counter = 0, burst_counter_reg = 0
# ** Note: $stop    : ahbs_tb.sv(93)
#    Time: 280 ns  Iteration: 0  Instance: /ahbslave_tb
# Break in Module ahbslave_tb at ahbs_tb.sv line 93
vlog ahb_slave.v
# QuestaSim-64 vlog 2021.1 Compiler 2021.01 Jan 19 2021
# Start time: 14:29:07 on Sep 23,2024
# vlog -reportprogress 300 ahb_slave.v 
# -- Compiling module ahb_slave
# 
# Top level modules:
# 	ahb_slave
# End time: 14:29:07 on Sep 23,2024, Elapsed time: 0:00:00
# Errors: 0, Warnings: 0
restart
# ** Note: (vsim-3813) Design is being optimized due to module recompilation...
# Loading sv_std.std
# Loading work.ahbslave_tb(fast)
# Loading work.ahb_slave(fast)
run -all
# time: 25 xxxxxxxxxxxxxxxxxxxxxxxxxx
# time: 40 xxxxxxxxxxxxxxxxxxxxxxxxxx
# time: 45 xxxxxxxxxxxxxxxxxxxxxxxxxx
# time: 60 xxxxxxxxxxxxxxxxxxxxxxxxxx
# time: 65 xxxxxxxxxxxxxxxxxxxxxxxxxx
# time: 65 aaaaaaaaaaaaaaaaaaaaa burst_counter = 0, burst_counter_reg = 0 HTRANS_reg = 2
# time :70 HRDATA = x
# time: 75 xxxxxxxxxxxxxxxxxxxxxxxxxx
# time :80 HRDATA = x
# time: 80 xxxxxxxxxxxxxxxxxxxxxxxxxx
# time: 85 xxxxxxxxxxxxxxxxxxxxxxxxxx
# time :90 HRDATA = 5
# time :100 HRDATA = 5
# time: 100 xxxxxxxxxxxxxxxxxxxxxxxxxx
# time: 105 xxxxxxxxxxxxxxxxxxxxxxxxxx
# time :110 HRDATA = 5
# time :120 HRDATA = 5
# time: 120 xxxxxxxxxxxxxxxxxxxxxxxxxx
# time: 125 xxxxxxxxxxxxxxxxxxxxxxxxxx
# time: 125 aaaaaaaaaaaaaaaaaaaaa burst_counter = 0, burst_counter_reg = 0 HTRANS_reg = 2
# time: 135 xxxxxxxxxxxxxxxxxxxxxxxxxx
# time: 135 aaaaaaaaaaaaaaaaaaaaa burst_counter = 1, burst_counter_reg = 1 HTRANS_reg = 3
# time: 145 xxxxxxxxxxxxxxxxxxxxxxxxxx
# time: 145 aaaaaaaaaaaaaaaaaaaaa burst_counter = 2, burst_counter_reg = 2 HTRANS_reg = 3
# time: 155 xxxxxxxxxxxxxxxxxxxxxxxxxx
# time: 155 aaaaaaaaaaaaaaaaaaaaa burst_counter = 3, burst_counter_reg = 3 HTRANS_reg = 3
# time: 165 xxxxxxxxxxxxxxxxxxxxxxxxxx
# time: 175 xxxxxxxxxxxxxxxxxxxxxxxxxx
# time: 175 aaaaaaaaaaaaaaaaaaaaa burst_counter = 0, burst_counter_reg = 0 HTRANS_reg = 2
# time: 185 xxxxxxxxxxxxxxxxxxxxxxxxxx
# time: 185 aaaaaaaaaaaaaaaaaaaaa burst_counter = 1, burst_counter_reg = 1 HTRANS_reg = 3
# time: 195 xxxxxxxxxxxxxxxxxxxxxxxxxx
# time: 195 aaaaaaaaaaaaaaaaaaaaa burst_counter = 0, burst_counter_reg = 0 HTRANS_reg = 3
# time: 205 xxxxxxxxxxxxxxxxxxxxxxxxxx
# time: 205 aaaaaaaaaaaaaaaaaaaaa burst_counter = 1, burst_counter_reg = 1 HTRANS_reg = 3
# time: 215 xxxxxxxxxxxxxxxxxxxxxxxxxx
# time: 215 aaaaaaaaaaaaaaaaaaaaa burst_counter = 0, burst_counter_reg = 0 HTRANS_reg = 3
# time: 225 xxxxxxxxxxxxxxxxxxxxxxxxxx
# time: 225 aaaaaaaaaaaaaaaaaaaaa burst_counter = 1, burst_counter_reg = 1 HTRANS_reg = 3
# time: 235 xxxxxxxxxxxxxxxxxxxxxxxxxx
# time: 235 aaaaaaaaaaaaaaaaaaaaa burst_counter = 0, burst_counter_reg = 0 HTRANS_reg = 3
# time: 245 xxxxxxxxxxxxxxxxxxxxxxxxxx
# time: 245 aaaaaaaaaaaaaaaaaaaaa burst_counter = 1, burst_counter_reg = 1 HTRANS_reg = 3
# time: 255 xxxxxxxxxxxxxxxxxxxxxxxxxx
# time: 255 aaaaaaaaaaaaaaaaaaaaa burst_counter = 0, burst_counter_reg = 0 HTRANS_reg = 3
# time: 265 xxxxxxxxxxxxxxxxxxxxxxxxxx
# time: 265 aaaaaaaaaaaaaaaaaaaaa burst_counter = 1, burst_counter_reg = 1 HTRANS_reg = 3
# time: 275 xxxxxxxxxxxxxxxxxxxxxxxxxx
# time: 275 aaaaaaaaaaaaaaaaaaaaa burst_counter = 0, burst_counter_reg = 0 HTRANS_reg = 3
# ** Note: $stop    : ahbs_tb.sv(93)
#    Time: 280 ns  Iteration: 0  Instance: /ahbslave_tb
# Break in Module ahbslave_tb at ahbs_tb.sv line 93
vlog ahb_slave.v
# QuestaSim-64 vlog 2021.1 Compiler 2021.01 Jan 19 2021
# Start time: 14:31:57 on Sep 23,2024
# vlog -reportprogress 300 ahb_slave.v 
# -- Compiling module ahb_slave
# 
# Top level modules:
# 	ahb_slave
# End time: 14:31:58 on Sep 23,2024, Elapsed time: 0:00:01
# Errors: 0, Warnings: 0
restart
# ** Note: (vsim-3813) Design is being optimized due to module recompilation...
# Loading sv_std.std
# Loading work.ahbslave_tb(fast)
# Loading work.ahb_slave(fast)
run -all
# time: 25 xxxxxxxxxxxxxxxxxxxxxxxxxx
# time: 40 xxxxxxxxxxxxxxxxxxxxxxxxxx
# time: 45 xxxxxxxxxxxxxxxxxxxxxxxxxx
# time: 60 xxxxxxxxxxxxxxxxxxxxxxxxxx
# time: 65 xxxxxxxxxxxxxxxxxxxxxxxxxx
# time: 65 aaaaaaaaaaaaaaaaaaaaa burst_counter = 0, burst_counter_reg = 0 HTRANS_reg = 2
# time :70 HRDATA = x
# time: 75 xxxxxxxxxxxxxxxxxxxxxxxxxx
# time :80 HRDATA = x
# time: 80 xxxxxxxxxxxxxxxxxxxxxxxxxx
# time: 85 xxxxxxxxxxxxxxxxxxxxxxxxxx
# time :90 HRDATA = 5
# time :100 HRDATA = 5
# time: 100 xxxxxxxxxxxxxxxxxxxxxxxxxx
# time: 105 xxxxxxxxxxxxxxxxxxxxxxxxxx
# time :110 HRDATA = 5
# time :120 HRDATA = 5
# time: 120 xxxxxxxxxxxxxxxxxxxxxxxxxx
# time: 125 xxxxxxxxxxxxxxxxxxxxxxxxxx
# time: 125 aaaaaaaaaaaaaaaaaaaaa burst_counter = 0, burst_counter_reg = 0 HTRANS_reg = 2
# time: 135 xxxxxxxxxxxxxxxxxxxxxxxxxx
# time: 135 aaaaaaaaaaaaaaaaaaaaa burst_counter = 1, burst_counter_reg = 1 HTRANS_reg = 3
# time: 145 xxxxxxxxxxxxxxxxxxxxxxxxxx
# time: 145 aaaaaaaaaaaaaaaaaaaaa burst_counter = 2, burst_counter_reg = 2 HTRANS_reg = 3
# time: 155 xxxxxxxxxxxxxxxxxxxxxxxxxx
# time: 155 aaaaaaaaaaaaaaaaaaaaa burst_counter = 3, burst_counter_reg = 3 HTRANS_reg = 3
# time: 165 xxxxxxxxxxxxxxxxxxxxxxxxxx
# time: 175 xxxxxxxxxxxxxxxxxxxxxxxxxx
# time: 175 aaaaaaaaaaaaaaaaaaaaa burst_counter = 0, burst_counter_reg = 0 HTRANS_reg = 2
# time: 185 xxxxxxxxxxxxxxxxxxxxxxxxxx
# time: 185 aaaaaaaaaaaaaaaaaaaaa burst_counter = 1, burst_counter_reg = 1 HTRANS_reg = 3
# time: 195 xxxxxxxxxxxxxxxxxxxxxxxxxx
# time: 195 aaaaaaaaaaaaaaaaaaaaa burst_counter = 0, burst_counter_reg = 0 HTRANS_reg = 3
# time: 205 xxxxxxxxxxxxxxxxxxxxxxxxxx
# time: 205 aaaaaaaaaaaaaaaaaaaaa burst_counter = 1, burst_counter_reg = 1 HTRANS_reg = 3
# time: 215 xxxxxxxxxxxxxxxxxxxxxxxxxx
# time: 215 aaaaaaaaaaaaaaaaaaaaa burst_counter = 0, burst_counter_reg = 0 HTRANS_reg = 3
# time: 225 xxxxxxxxxxxxxxxxxxxxxxxxxx
# time: 225 aaaaaaaaaaaaaaaaaaaaa burst_counter = 1, burst_counter_reg = 1 HTRANS_reg = 3
# time: 235 xxxxxxxxxxxxxxxxxxxxxxxxxx
# time: 235 aaaaaaaaaaaaaaaaaaaaa burst_counter = 0, burst_counter_reg = 0 HTRANS_reg = 3
# time: 245 xxxxxxxxxxxxxxxxxxxxxxxxxx
# time: 245 aaaaaaaaaaaaaaaaaaaaa burst_counter = 1, burst_counter_reg = 1 HTRANS_reg = 3
# time: 255 xxxxxxxxxxxxxxxxxxxxxxxxxx
# time: 255 aaaaaaaaaaaaaaaaaaaaa burst_counter = 0, burst_counter_reg = 0 HTRANS_reg = 3
# time: 265 xxxxxxxxxxxxxxxxxxxxxxxxxx
# time: 265 aaaaaaaaaaaaaaaaaaaaa burst_counter = 1, burst_counter_reg = 1 HTRANS_reg = 3
# time: 275 xxxxxxxxxxxxxxxxxxxxxxxxxx
# time: 275 aaaaaaaaaaaaaaaaaaaaa burst_counter = 0, burst_counter_reg = 0 HTRANS_reg = 3
# ** Note: $stop    : ahbs_tb.sv(93)
#    Time: 280 ns  Iteration: 0  Instance: /ahbslave_tb
# Break in Module ahbslave_tb at ahbs_tb.sv line 93
vlog ahb_slave.v
# QuestaSim-64 vlog 2021.1 Compiler 2021.01 Jan 19 2021
# Start time: 17:31:28 on Sep 23,2024
# vlog -reportprogress 300 ahb_slave.v 
# -- Compiling module ahb_slave
# ** Warning: ahb_slave.v(179): (vlog-2182) 'wrap_reg' might be read before written in always_comb or always @* block.
# 
# Top level modules:
# 	ahb_slave
# End time: 17:31:28 on Sep 23,2024, Elapsed time: 0:00:00
# Errors: 0, Warnings: 1
restart
# ** Note: (vsim-3813) Design is being optimized due to module recompilation...
# ** Warning: ahb_slave.v(179): (vopt-2182) 'wrap_reg' might be read before written in always_comb or always @* block.
# ** Note: (vsim-12126) Error and warning message counts have been restored: Errors=0, Warnings=1.
# Loading sv_std.std
# Loading work.ahbslave_tb(fast)
# Loading work.ahb_slave(fast)
# Warning in wave window restart: (vish-4014) No objects found matching '/ahbslave_tb/s0/wrap_flag'. 
add wave -position insertpoint  \
sim:/ahbslave_tb/s0/wrap_reg
run -all
# time: 25 xxxxxxxxxxxxxxxxxxxxxxxxxx
# time: 40 xxxxxxxxxxxxxxxxxxxxxxxxxx
# time: 45 xxxxxxxxxxxxxxxxxxxxxxxxxx
# time: 60 xxxxxxxxxxxxxxxxxxxxxxxxxx
# time: 65 xxxxxxxxxxxxxxxxxxxxxxxxxx
# time: 65 aaaaaaaaaaaaaaaaaaaaa burst_counter = 0, burst_counter_reg = 0 HTRANS_reg = 2
# time :70 HRDATA = x
# time: 75 xxxxxxxxxxxxxxxxxxxxxxxxxx
# time :80 HRDATA = x
# time: 80 xxxxxxxxxxxxxxxxxxxxxxxxxx
# time: 85 xxxxxxxxxxxxxxxxxxxxxxxxxx
# time :90 HRDATA = 5
# time :100 HRDATA = 5
# time: 100 xxxxxxxxxxxxxxxxxxxxxxxxxx
# time: 105 xxxxxxxxxxxxxxxxxxxxxxxxxx
# time :110 HRDATA = 5
# time :120 HRDATA = 5
# time: 120 xxxxxxxxxxxxxxxxxxxxxxxxxx
# time: 125 xxxxxxxxxxxxxxxxxxxxxxxxxx
# time: 125 aaaaaaaaaaaaaaaaaaaaa burst_counter = 0, burst_counter_reg = 0 HTRANS_reg = 2
# time: 135 xxxxxxxxxxxxxxxxxxxxxxxxxx
# time: 135 aaaaaaaaaaaaaaaaaaaaa burst_counter = 1, burst_counter_reg = 1 HTRANS_reg = 3
# time: 145 xxxxxxxxxxxxxxxxxxxxxxxxxx
# time: 145 aaaaaaaaaaaaaaaaaaaaa burst_counter = 2, burst_counter_reg = 2 HTRANS_reg = 3
# time: 155 xxxxxxxxxxxxxxxxxxxxxxxxxx
# time: 155 aaaaaaaaaaaaaaaaaaaaa burst_counter = 3, burst_counter_reg = 3 HTRANS_reg = 3
# time: 165 xxxxxxxxxxxxxxxxxxxxxxxxxx
# time: 170 xxxxxxxxxxxxxxxxxxxxxxxxxx
# time: 175 xxxxxxxxxxxxxxxxxxxxxxxxxx
# time: 175 aaaaaaaaaaaaaaaaaaaaa burst_counter = 0, burst_counter_reg = 0 HTRANS_reg = 2
# time: 185 xxxxxxxxxxxxxxxxxxxxxxxxxx
# time: 185 aaaaaaaaaaaaaaaaaaaaa burst_counter = 1, burst_counter_reg = 1 HTRANS_reg = 3
# time: 195 xxxxxxxxxxxxxxxxxxxxxxxxxx
# time: 195 aaaaaaaaaaaaaaaaaaaaa burst_counter = 2, burst_counter_reg = 2 HTRANS_reg = 3
# time: 205 xxxxxxxxxxxxxxxxxxxxxxxxxx
# time: 205 aaaaaaaaaaaaaaaaaaaaa burst_counter = 3, burst_counter_reg = 3 HTRANS_reg = 3
# time: 215 xxxxxxxxxxxxxxxxxxxxxxxxxx
# time: 215 aaaaaaaaaaaaaaaaaaaaa burst_counter = 4, burst_counter_reg = 4 HTRANS_reg = 3
# time: 225 xxxxxxxxxxxxxxxxxxxxxxxxxx
# time: 225 aaaaaaaaaaaaaaaaaaaaa burst_counter = 5, burst_counter_reg = 5 HTRANS_reg = 3
# time: 235 xxxxxxxxxxxxxxxxxxxxxxxxxx
# time: 235 aaaaaaaaaaaaaaaaaaaaa burst_counter = 6, burst_counter_reg = 6 HTRANS_reg = 3
# time: 245 xxxxxxxxxxxxxxxxxxxxxxxxxx
# time: 245 aaaaaaaaaaaaaaaaaaaaa burst_counter = 7, burst_counter_reg = 7 HTRANS_reg = 3
# time: 255 xxxxxxxxxxxxxxxxxxxxxxxxxx
# time: 255 aaaaaaaaaaaaaaaaaaaaa burst_counter = 8, burst_counter_reg = 8 HTRANS_reg = 3
# time: 265 xxxxxxxxxxxxxxxxxxxxxxxxxx
# time: 265 aaaaaaaaaaaaaaaaaaaaa burst_counter = 9, burst_counter_reg = 9 HTRANS_reg = 3
# time: 275 xxxxxxxxxxxxxxxxxxxxxxxxxx
# time: 275 aaaaaaaaaaaaaaaaaaaaa burst_counter = 10, burst_counter_reg = 10 HTRANS_reg = 3
# ** Note: $stop    : ahbs_tb.sv(93)
#    Time: 280 ns  Iteration: 0  Instance: /ahbslave_tb
# Break in Module ahbslave_tb at ahbs_tb.sv line 93
vlog ahb_slave.v
# QuestaSim-64 vlog 2021.1 Compiler 2021.01 Jan 19 2021
# Start time: 17:33:21 on Sep 23,2024
# vlog -reportprogress 300 ahb_slave.v 
# -- Compiling module ahb_slave
# ** Warning: ahb_slave.v(179): (vlog-2182) 'wrap_reg' might be read before written in always_comb or always @* block.
# 
# Top level modules:
# 	ahb_slave
# End time: 17:33:21 on Sep 23,2024, Elapsed time: 0:00:00
# Errors: 0, Warnings: 1
restart
# ** Note: (vsim-12125) Error and warning message counts have been reset to '0' because of 'restart'.
# ** Note: (vsim-3813) Design is being optimized due to module recompilation...
# ** Warning: ahb_slave.v(179): (vopt-2182) 'wrap_reg' might be read before written in always_comb or always @* block.
# ** Note: (vsim-12126) Error and warning message counts have been restored: Errors=0, Warnings=1.
# Loading sv_std.std
# Loading work.ahbslave_tb(fast)
# Loading work.ahb_slave(fast)
run -all
# time: 25 xxxxxxxxxxxxxxxxxxxxxxxxxx
# time: 40 xxxxxxxxxxxxxxxxxxxxxxxxxx
# time: 45 xxxxxxxxxxxxxxxxxxxxxxxxxx
# time: 60 xxxxxxxxxxxxxxxxxxxxxxxxxx
# time: 65 xxxxxxxxxxxxxxxxxxxxxxxxxx
# time: 65 aaaaaaaaaaaaaaaaaaaaa burst_counter = 0, burst_counter_reg = 0 HTRANS_reg = 2
# time :70 HRDATA = x
# time: 75 xxxxxxxxxxxxxxxxxxxxxxxxxx
# time :80 HRDATA = x
# time: 80 xxxxxxxxxxxxxxxxxxxxxxxxxx
# time: 85 xxxxxxxxxxxxxxxxxxxxxxxxxx
# time :90 HRDATA = 5
# time :100 HRDATA = 5
# time: 100 xxxxxxxxxxxxxxxxxxxxxxxxxx
# time: 105 xxxxxxxxxxxxxxxxxxxxxxxxxx
# time :110 HRDATA = 5
# time :120 HRDATA = 5
# time: 120 xxxxxxxxxxxxxxxxxxxxxxxxxx
# time: 125 xxxxxxxxxxxxxxxxxxxxxxxxxx
# time: 125 aaaaaaaaaaaaaaaaaaaaa burst_counter = 0, burst_counter_reg = 0 HTRANS_reg = 2
# time: 135 xxxxxxxxxxxxxxxxxxxxxxxxxx
# time: 135 aaaaaaaaaaaaaaaaaaaaa burst_counter = 1, burst_counter_reg = 1 HTRANS_reg = 3
# time: 145 xxxxxxxxxxxxxxxxxxxxxxxxxx
# time: 145 aaaaaaaaaaaaaaaaaaaaa burst_counter = 2, burst_counter_reg = 2 HTRANS_reg = 3
# time: 155 xxxxxxxxxxxxxxxxxxxxxxxxxx
# time: 155 aaaaaaaaaaaaaaaaaaaaa burst_counter = 3, burst_counter_reg = 3 HTRANS_reg = 3
# time: 165 xxxxxxxxxxxxxxxxxxxxxxxxxx
# time: 170 xxxxxxxxxxxxxxxxxxxxxxxxxx
# time: 175 xxxxxxxxxxxxxxxxxxxxxxxxxx
# time: 175 aaaaaaaaaaaaaaaaaaaaa burst_counter = 0, burst_counter_reg = 0 HTRANS_reg = 2
# time: 185 xxxxxxxxxxxxxxxxxxxxxxxxxx
# time: 185 aaaaaaaaaaaaaaaaaaaaa burst_counter = 1, burst_counter_reg = 1 HTRANS_reg = 3
# time: 195 xxxxxxxxxxxxxxxxxxxxxxxxxx
# time: 195 aaaaaaaaaaaaaaaaaaaaa burst_counter = 0, burst_counter_reg = 0 HTRANS_reg = 3
# time: 205 xxxxxxxxxxxxxxxxxxxxxxxxxx
# time: 205 aaaaaaaaaaaaaaaaaaaaa burst_counter = 1, burst_counter_reg = 1 HTRANS_reg = 3
# time: 215 xxxxxxxxxxxxxxxxxxxxxxxxxx
# time: 215 aaaaaaaaaaaaaaaaaaaaa burst_counter = 0, burst_counter_reg = 0 HTRANS_reg = 3
# time: 225 xxxxxxxxxxxxxxxxxxxxxxxxxx
# time: 225 aaaaaaaaaaaaaaaaaaaaa burst_counter = 1, burst_counter_reg = 1 HTRANS_reg = 3
# time: 235 xxxxxxxxxxxxxxxxxxxxxxxxxx
# time: 235 aaaaaaaaaaaaaaaaaaaaa burst_counter = 0, burst_counter_reg = 0 HTRANS_reg = 3
# time: 245 xxxxxxxxxxxxxxxxxxxxxxxxxx
# time: 245 aaaaaaaaaaaaaaaaaaaaa burst_counter = 1, burst_counter_reg = 1 HTRANS_reg = 3
# time: 255 xxxxxxxxxxxxxxxxxxxxxxxxxx
# time: 255 aaaaaaaaaaaaaaaaaaaaa burst_counter = 0, burst_counter_reg = 0 HTRANS_reg = 3
# time: 265 xxxxxxxxxxxxxxxxxxxxxxxxxx
# time: 265 aaaaaaaaaaaaaaaaaaaaa burst_counter = 1, burst_counter_reg = 1 HTRANS_reg = 3
# time: 275 xxxxxxxxxxxxxxxxxxxxxxxxxx
# time: 275 aaaaaaaaaaaaaaaaaaaaa burst_counter = 0, burst_counter_reg = 0 HTRANS_reg = 3
# ** Note: $stop    : ahbs_tb.sv(93)
#    Time: 280 ns  Iteration: 0  Instance: /ahbslave_tb
# Break in Module ahbslave_tb at ahbs_tb.sv line 93
vlog ahb_slave.v
# QuestaSim-64 vlog 2021.1 Compiler 2021.01 Jan 19 2021
# Start time: 21:40:49 on Sep 23,2024
# vlog -reportprogress 300 ahb_slave.v 
# -- Compiling module ahb_slave
# 
# Top level modules:
# 	ahb_slave
# End time: 21:40:50 on Sep 23,2024, Elapsed time: 0:00:01
# Errors: 0, Warnings: 0
restart
# ** Note: (vsim-12125) Error and warning message counts have been reset to '0' because of 'restart'.
# ** Note: (vsim-3813) Design is being optimized due to module recompilation...
# Loading sv_std.std
# Loading work.ahbslave_tb(fast)
# Loading work.ahb_slave(fast)
run -all
# time: 25 xxxxxxxxxxxxxxxxxxxxxxxxxx
# time: 40 xxxxxxxxxxxxxxxxxxxxxxxxxx
# time: 45 xxxxxxxxxxxxxxxxxxxxxxxxxx
# time: 60 xxxxxxxxxxxxxxxxxxxxxxxxxx
# time: 65 xxxxxxxxxxxxxxxxxxxxxxxxxx
# time: 65 aaaaaaaaaaaaaaaaaaaaa burst_counter = 0, burst_counter_reg = 0 HTRANS_reg = 2
# time :70 HRDATA = x
# time: 75 xxxxxxxxxxxxxxxxxxxxxxxxxx
# time :80 HRDATA = x
# time: 80 xxxxxxxxxxxxxxxxxxxxxxxxxx
# time: 85 xxxxxxxxxxxxxxxxxxxxxxxxxx
# time :90 HRDATA = 5
# time :100 HRDATA = 5
# time: 100 xxxxxxxxxxxxxxxxxxxxxxxxxx
# time: 105 xxxxxxxxxxxxxxxxxxxxxxxxxx
# time :110 HRDATA = 5
# time :120 HRDATA = 5
# time: 120 xxxxxxxxxxxxxxxxxxxxxxxxxx
# time: 125 xxxxxxxxxxxxxxxxxxxxxxxxxx
# time: 125 aaaaaaaaaaaaaaaaaaaaa burst_counter = 0, burst_counter_reg = 0 HTRANS_reg = 2
# time: 135 xxxxxxxxxxxxxxxxxxxxxxxxxx
# time: 135 aaaaaaaaaaaaaaaaaaaaa burst_counter = 1, burst_counter_reg = 1 HTRANS_reg = 3
# time: 145 xxxxxxxxxxxxxxxxxxxxxxxxxx
# time: 145 aaaaaaaaaaaaaaaaaaaaa burst_counter = 2, burst_counter_reg = 2 HTRANS_reg = 3
# time: 155 xxxxxxxxxxxxxxxxxxxxxxxxxx
# time: 155 aaaaaaaaaaaaaaaaaaaaa burst_counter = 3, burst_counter_reg = 3 HTRANS_reg = 3
# time: 165 xxxxxxxxxxxxxxxxxxxxxxxxxx
# time: 170 xxxxxxxxxxxxxxxxxxxxxxxxxx
# time: 175 xxxxxxxxxxxxxxxxxxxxxxxxxx
# time: 175 aaaaaaaaaaaaaaaaaaaaa burst_counter = 0, burst_counter_reg = 0 HTRANS_reg = 2
# time: 185 xxxxxxxxxxxxxxxxxxxxxxxxxx
# time: 185 aaaaaaaaaaaaaaaaaaaaa burst_counter = 1, burst_counter_reg = 1 HTRANS_reg = 3
# time: 195 xxxxxxxxxxxxxxxxxxxxxxxxxx
# time: 195 aaaaaaaaaaaaaaaaaaaaa burst_counter = 0, burst_counter_reg = 0 HTRANS_reg = 3
# time: 205 xxxxxxxxxxxxxxxxxxxxxxxxxx
# time: 205 aaaaaaaaaaaaaaaaaaaaa burst_counter = -1, burst_counter_reg = -1 HTRANS_reg = 3
# time: 215 xxxxxxxxxxxxxxxxxxxxxxxxxx
# time: 215 aaaaaaaaaaaaaaaaaaaaa burst_counter = -2, burst_counter_reg = -2 HTRANS_reg = 3
# time: 225 xxxxxxxxxxxxxxxxxxxxxxxxxx
# time: 225 aaaaaaaaaaaaaaaaaaaaa burst_counter = -3, burst_counter_reg = -3 HTRANS_reg = 3
# time: 235 xxxxxxxxxxxxxxxxxxxxxxxxxx
# ** Note: $stop    : ahbs_tb.sv(93)
#    Time: 280 ns  Iteration: 0  Instance: /ahbslave_tb
# Break in Module ahbslave_tb at ahbs_tb.sv line 93
vlog ahb_slave.v
# QuestaSim-64 vlog 2021.1 Compiler 2021.01 Jan 19 2021
# Start time: 21:43:53 on Sep 23,2024
# vlog -reportprogress 300 ahb_slave.v 
# -- Compiling module ahb_slave
# 
# Top level modules:
# 	ahb_slave
# End time: 21:43:53 on Sep 23,2024, Elapsed time: 0:00:00
# Errors: 0, Warnings: 0
restart
# ** Note: (vsim-8009) Loading existing optimized design _opt
# Loading work.ahbslave_tb(fast)
# Loading work.ahb_slave(fast)
# **** Error: RestartQ cmd: namespace inscope ::vsimwidgets::ViewMaster {::.view_master SourceUpdatesAfterRestart} sim
# ****        can't read "cbstate": no such variable
# can't read "cbstate": no such variable
#     while executing
# "if {$cbstate} {
#                   set PrefSource(WarnSourceChanged) 0
#                }"
#     (object "::.main_pane.source.interior.cs.body.srcobj" method "::vsimwidgets::SrcCommon::SourceCheckCompileTime" body line 82)
#     invoked from within
# "SourceCheckCompileTime"
#     (object "::.main_pane.source.interior.cs.body.srcobj" method "::vsimwidgets::Srcobj::InitializeForDebug" body line 18)
#     invoked from within
# "InitializeForDebug"
#     (object "::.main_pane.source.interior.cs.body.srcobj" method "::vsimwidgets::Srcobj::SourceUpdateLoadComplete" body line 49)
#     invoked from within
# "$srcedit SourceUpdateLoadComplete -restart"
#     (object "::.view_master" method "::vsimwidgets::ViewMaster::SourceUpdatesAfterRestart" body line 7)
#     invoked from within
# "::.view_master SourceUpdatesAfterRestart sim"
#     (in namespace inscope "::vsimwidgets::ViewMaster" script line 1)
#     invoked from within
# "namespace inscope ::vsimwidgets::ViewMaster {::.view_master SourceUpdatesAfterRestart} sim"
#     ("eval" body line 1)
#     invoked from within
# "eval $p $tankNamespace "
vlog ahbs_tb.sv
# QuestaSim-64 vlog 2021.1 Compiler 2021.01 Jan 19 2021
# Start time: 21:44:08 on Sep 23,2024
# vlog -reportprogress 300 ahbs_tb.sv 
# -- Compiling module ahbslave_tb
# 
# Top level modules:
# 	ahbslave_tb
# End time: 21:44:08 on Sep 23,2024, Elapsed time: 0:00:00
# Errors: 0, Warnings: 0

restart
# ** Note: (vsim-3813) Design is being optimized due to module recompilation...
# Loading sv_std.std
# Loading work.ahbslave_tb(fast)
# Loading work.ahb_slave(fast)
run -all
# time: 25 xxxxxxxxxxxxxxxxxxxxxxxxxx
# time: 40 xxxxxxxxxxxxxxxxxxxxxxxxxx
# time: 45 xxxxxxxxxxxxxxxxxxxxxxxxxx
# time: 60 xxxxxxxxxxxxxxxxxxxxxxxxxx
# time: 65 xxxxxxxxxxxxxxxxxxxxxxxxxx
# time: 65 aaaaaaaaaaaaaaaaaaaaa burst_counter = 0, burst_counter_reg = 0 HTRANS_reg = 2
# time :70 HRDATA = x
# time: 75 xxxxxxxxxxxxxxxxxxxxxxxxxx
# time :80 HRDATA = x
# time: 80 xxxxxxxxxxxxxxxxxxxxxxxxxx
# time: 85 xxxxxxxxxxxxxxxxxxxxxxxxxx
# time :90 HRDATA = 5
# time :100 HRDATA = 5
# time: 100 xxxxxxxxxxxxxxxxxxxxxxxxxx
# time: 105 xxxxxxxxxxxxxxxxxxxxxxxxxx
# time :110 HRDATA = 5
# time :120 HRDATA = 5
# time: 120 xxxxxxxxxxxxxxxxxxxxxxxxxx
# time: 125 xxxxxxxxxxxxxxxxxxxxxxxxxx
# time: 125 aaaaaaaaaaaaaaaaaaaaa burst_counter = 0, burst_counter_reg = 0 HTRANS_reg = 2
# time: 135 xxxxxxxxxxxxxxxxxxxxxxxxxx
# time: 135 aaaaaaaaaaaaaaaaaaaaa burst_counter = 1, burst_counter_reg = 1 HTRANS_reg = 3
# time: 145 xxxxxxxxxxxxxxxxxxxxxxxxxx
# time: 145 aaaaaaaaaaaaaaaaaaaaa burst_counter = 2, burst_counter_reg = 2 HTRANS_reg = 3
# time: 155 xxxxxxxxxxxxxxxxxxxxxxxxxx
# time: 155 aaaaaaaaaaaaaaaaaaaaa burst_counter = 3, burst_counter_reg = 3 HTRANS_reg = 3
# time: 165 xxxxxxxxxxxxxxxxxxxxxxxxxx
# time: 170 xxxxxxxxxxxxxxxxxxxxxxxxxx
# time: 175 xxxxxxxxxxxxxxxxxxxxxxxxxx
# time: 175 aaaaaaaaaaaaaaaaaaaaa burst_counter = 0, burst_counter_reg = 0 HTRANS_reg = 2
# time: 185 xxxxxxxxxxxxxxxxxxxxxxxxxx
# time: 185 aaaaaaaaaaaaaaaaaaaaa burst_counter = 1, burst_counter_reg = 1 HTRANS_reg = 3
# time: 195 xxxxxxxxxxxxxxxxxxxxxxxxxx
# time: 195 aaaaaaaaaaaaaaaaaaaaa burst_counter = 0, burst_counter_reg = 0 HTRANS_reg = 3
# time: 205 xxxxxxxxxxxxxxxxxxxxxxxxxx
# time: 205 aaaaaaaaaaaaaaaaaaaaa burst_counter = -1, burst_counter_reg = -1 HTRANS_reg = 3
# time: 215 xxxxxxxxxxxxxxxxxxxxxxxxxx
# time: 215 aaaaaaaaaaaaaaaaaaaaa burst_counter = -2, burst_counter_reg = -2 HTRANS_reg = 3
# time: 225 xxxxxxxxxxxxxxxxxxxxxxxxxx
# time: 225 aaaaaaaaaaaaaaaaaaaaa burst_counter = -3, burst_counter_reg = -3 HTRANS_reg = 3
# time: 235 xxxxxxxxxxxxxxxxxxxxxxxxxx
# ** Note: $stop    : ahbs_tb.sv(94)
#    Time: 280 ns  Iteration: 0  Instance: /ahbslave_tb
# Break in Module ahbslave_tb at ahbs_tb.sv line 94
vlog ahbs_tb.sv
# QuestaSim-64 vlog 2021.1 Compiler 2021.01 Jan 19 2021
# Start time: 21:52:00 on Sep 23,2024
# vlog -reportprogress 300 ahbs_tb.sv 
# -- Compiling module ahbslave_tb
# 
# Top level modules:
# 	ahbslave_tb
# End time: 21:52:00 on Sep 23,2024, Elapsed time: 0:00:00
# Errors: 0, Warnings: 0
restart
# ** Note: (vsim-3813) Design is being optimized due to module recompilation...
# Loading sv_std.std
# Loading work.ahbslave_tb(fast)
# Loading work.ahb_slave(fast)
run -all
# time: 25 xxxxxxxxxxxxxxxxxxxxxxxxxx
# time: 40 xxxxxxxxxxxxxxxxxxxxxxxxxx
# time: 45 xxxxxxxxxxxxxxxxxxxxxxxxxx
# time: 60 xxxxxxxxxxxxxxxxxxxxxxxxxx
# time: 65 xxxxxxxxxxxxxxxxxxxxxxxxxx
# time: 65 aaaaaaaaaaaaaaaaaaaaa burst_counter = 0, burst_counter_reg = 0 HTRANS_reg = 2
# time :70 HRDATA = x
# time: 75 xxxxxxxxxxxxxxxxxxxxxxxxxx
# time :80 HRDATA = x
# time: 80 xxxxxxxxxxxxxxxxxxxxxxxxxx
# time: 85 xxxxxxxxxxxxxxxxxxxxxxxxxx
# time :90 HRDATA = 5
# time :100 HRDATA = 5
# time: 100 xxxxxxxxxxxxxxxxxxxxxxxxxx
# time: 105 xxxxxxxxxxxxxxxxxxxxxxxxxx
# time :110 HRDATA = 5
# time :120 HRDATA = 5
# time: 120 xxxxxxxxxxxxxxxxxxxxxxxxxx
# time: 125 xxxxxxxxxxxxxxxxxxxxxxxxxx
# time: 125 aaaaaaaaaaaaaaaaaaaaa burst_counter = 0, burst_counter_reg = 0 HTRANS_reg = 2
# time: 135 xxxxxxxxxxxxxxxxxxxxxxxxxx
# time: 135 aaaaaaaaaaaaaaaaaaaaa burst_counter = 1, burst_counter_reg = 1 HTRANS_reg = 3
# time: 145 xxxxxxxxxxxxxxxxxxxxxxxxxx
# time: 145 aaaaaaaaaaaaaaaaaaaaa burst_counter = 2, burst_counter_reg = 2 HTRANS_reg = 3
# time: 155 xxxxxxxxxxxxxxxxxxxxxxxxxx
# time: 155 aaaaaaaaaaaaaaaaaaaaa burst_counter = 3, burst_counter_reg = 3 HTRANS_reg = 3
# time: 165 xxxxxxxxxxxxxxxxxxxxxxxxxx
# time: 170 xxxxxxxxxxxxxxxxxxxxxxxxxx
# time: 175 xxxxxxxxxxxxxxxxxxxxxxxxxx
# time: 175 aaaaaaaaaaaaaaaaaaaaa burst_counter = 0, burst_counter_reg = 0 HTRANS_reg = 2
# time: 185 xxxxxxxxxxxxxxxxxxxxxxxxxx
# time: 185 aaaaaaaaaaaaaaaaaaaaa burst_counter = 1, burst_counter_reg = 1 HTRANS_reg = 3
# time: 195 xxxxxxxxxxxxxxxxxxxxxxxxxx
# time: 195 aaaaaaaaaaaaaaaaaaaaa burst_counter = 0, burst_counter_reg = 0 HTRANS_reg = 3
# time: 205 xxxxxxxxxxxxxxxxxxxxxxxxxx
# time: 205 aaaaaaaaaaaaaaaaaaaaa burst_counter = -1, burst_counter_reg = -1 HTRANS_reg = 3
# time: 215 xxxxxxxxxxxxxxxxxxxxxxxxxx
# time: 215 aaaaaaaaaaaaaaaaaaaaa burst_counter = -2, burst_counter_reg = -2 HTRANS_reg = 3
# time: 225 xxxxxxxxxxxxxxxxxxxxxxxxxx
# time: 225 aaaaaaaaaaaaaaaaaaaaa burst_counter = -3, burst_counter_reg = -3 HTRANS_reg = 3
# time: 235 xxxxxxxxxxxxxxxxxxxxxxxxxx
# time: 235 aaaaaaaaaaaaaaaaaaaaa burst_counter = -4, burst_counter_reg = -4 HTRANS_reg = 3
# time: 245 xxxxxxxxxxxxxxxxxxxxxxxxxx
# time: 245 aaaaaaaaaaaaaaaaaaaaa burst_counter = -5, burst_counter_reg = -5 HTRANS_reg = 3
# time: 255 xxxxxxxxxxxxxxxxxxxxxxxxxx
# time: 255 aaaaaaaaaaaaaaaaaaaaa burst_counter = -6, burst_counter_reg = -6 HTRANS_reg = 3
# time: 265 xxxxxxxxxxxxxxxxxxxxxxxxxx
# ** Note: $stop    : ahbs_tb.sv(95)
#    Time: 280 ns  Iteration: 0  Instance: /ahbslave_tb
# Break in Module ahbslave_tb at ahbs_tb.sv line 95
vlog ahbs_tb.sv
# QuestaSim-64 vlog 2021.1 Compiler 2021.01 Jan 19 2021
# Start time: 21:54:09 on Sep 23,2024
# vlog -reportprogress 300 ahbs_tb.sv 
# -- Compiling module ahbslave_tb
# 
# Top level modules:
# 	ahbslave_tb
# End time: 21:54:09 on Sep 23,2024, Elapsed time: 0:00:00
# Errors: 0, Warnings: 0
restart
# ** Note: (vsim-3813) Design is being optimized due to module recompilation...
# Loading sv_std.std
# Loading work.ahbslave_tb(fast)
# Loading work.ahb_slave(fast)
run -all
# time: 25 xxxxxxxxxxxxxxxxxxxxxxxxxx
# time: 40 xxxxxxxxxxxxxxxxxxxxxxxxxx
# time: 45 xxxxxxxxxxxxxxxxxxxxxxxxxx
# time: 60 xxxxxxxxxxxxxxxxxxxxxxxxxx
# time: 65 xxxxxxxxxxxxxxxxxxxxxxxxxx
# time: 65 aaaaaaaaaaaaaaaaaaaaa burst_counter = 0, burst_counter_reg = 0 HTRANS_reg = 2
# time :70 HRDATA = x
# time: 75 xxxxxxxxxxxxxxxxxxxxxxxxxx
# time :80 HRDATA = x
# time: 80 xxxxxxxxxxxxxxxxxxxxxxxxxx
# time: 85 xxxxxxxxxxxxxxxxxxxxxxxxxx
# time :90 HRDATA = 5
# time :100 HRDATA = 5
# time: 100 xxxxxxxxxxxxxxxxxxxxxxxxxx
# time: 105 xxxxxxxxxxxxxxxxxxxxxxxxxx
# time :110 HRDATA = 5
# time :120 HRDATA = 5
# time: 120 xxxxxxxxxxxxxxxxxxxxxxxxxx
# time: 125 xxxxxxxxxxxxxxxxxxxxxxxxxx
# time: 125 aaaaaaaaaaaaaaaaaaaaa burst_counter = 0, burst_counter_reg = 0 HTRANS_reg = 2
# time: 135 xxxxxxxxxxxxxxxxxxxxxxxxxx
# time: 135 aaaaaaaaaaaaaaaaaaaaa burst_counter = 1, burst_counter_reg = 1 HTRANS_reg = 3
# time: 145 xxxxxxxxxxxxxxxxxxxxxxxxxx
# time: 145 aaaaaaaaaaaaaaaaaaaaa burst_counter = 2, burst_counter_reg = 2 HTRANS_reg = 3
# time: 155 xxxxxxxxxxxxxxxxxxxxxxxxxx
# time: 155 aaaaaaaaaaaaaaaaaaaaa burst_counter = 3, burst_counter_reg = 3 HTRANS_reg = 3
# time: 165 xxxxxxxxxxxxxxxxxxxxxxxxxx
# time: 170 xxxxxxxxxxxxxxxxxxxxxxxxxx
# time: 175 xxxxxxxxxxxxxxxxxxxxxxxxxx
# time: 175 aaaaaaaaaaaaaaaaaaaaa burst_counter = 0, burst_counter_reg = 0 HTRANS_reg = 2
# time: 185 xxxxxxxxxxxxxxxxxxxxxxxxxx
# time: 185 aaaaaaaaaaaaaaaaaaaaa burst_counter = 1, burst_counter_reg = 1 HTRANS_reg = 3
# time: 195 xxxxxxxxxxxxxxxxxxxxxxxxxx
# time: 195 aaaaaaaaaaaaaaaaaaaaa burst_counter = 0, burst_counter_reg = 0 HTRANS_reg = 3
# time: 200 xxxxxxxxxxxxxxxxxxxxxxxxxx
# time: 200 aaaaaaaaaaaaaaaaaaaaa burst_counter = 0, burst_counter_reg = -1 HTRANS_reg = 3
# time: 205 xxxxxxxxxxxxxxxxxxxxxxxxxx
# time: 215 xxxxxxxxxxxxxxxxxxxxxxxxxx
# ** Note: $stop    : ahbs_tb.sv(98)
#    Time: 300 ns  Iteration: 0  Instance: /ahbslave_tb
# Break in Module ahbslave_tb at ahbs_tb.sv line 98
# Causality operation skipped due to absence of debug database file
vlog ahbs_tb.sv
# QuestaSim-64 vlog 2021.1 Compiler 2021.01 Jan 19 2021
# Start time: 23:47:00 on Sep 23,2024
# vlog -reportprogress 300 ahbs_tb.sv 
# -- Compiling module ahbslave_tb
# 
# Top level modules:
# 	ahbslave_tb
# End time: 23:47:00 on Sep 23,2024, Elapsed time: 0:00:00
# Errors: 0, Warnings: 0
vlog ahb_slave.v
# QuestaSim-64 vlog 2021.1 Compiler 2021.01 Jan 19 2021
# Start time: 23:47:06 on Sep 23,2024
# vlog -reportprogress 300 ahb_slave.v 
# -- Compiling module ahb_slave
# 
# Top level modules:
# 	ahb_slave
# End time: 23:47:06 on Sep 23,2024, Elapsed time: 0:00:00
# Errors: 0, Warnings: 0
restart
# ** Note: (vsim-3813) Design is being optimized due to module recompilation...
# Loading sv_std.std
# Loading work.ahbslave_tb(fast)
# Loading work.ahb_slave(fast)
run -all
# time: 25 xxxxxxxxxxxxxxxxxxxxxxxxxx
# time: 40 xxxxxxxxxxxxxxxxxxxxxxxxxx
# time: 45 xxxxxxxxxxxxxxxxxxxxxxxxxx
# time: 60 xxxxxxxxxxxxxxxxxxxxxxxxxx
# time: 65 xxxxxxxxxxxxxxxxxxxxxxxxxx
# time: 65 aaaaaaaaaaaaaaaaaaaaa burst_counter = 0, burst_counter_reg = 0 HTRANS_reg = 2
# time :70 HRDATA = x
# time: 75 xxxxxxxxxxxxxxxxxxxxxxxxxx
# time :80 HRDATA = x
# time: 80 xxxxxxxxxxxxxxxxxxxxxxxxxx
# time: 85 xxxxxxxxxxxxxxxxxxxxxxxxxx
# time :90 HRDATA = 5
# time :100 HRDATA = 5
# time: 100 xxxxxxxxxxxxxxxxxxxxxxxxxx
# time: 105 xxxxxxxxxxxxxxxxxxxxxxxxxx
# time :110 HRDATA = 5
# time :120 HRDATA = 5
# time: 120 xxxxxxxxxxxxxxxxxxxxxxxxxx
# time: 125 xxxxxxxxxxxxxxxxxxxxxxxxxx
# time: 125 aaaaaaaaaaaaaaaaaaaaa burst_counter = 0, burst_counter_reg = 0 HTRANS_reg = 2
# time: 135 xxxxxxxxxxxxxxxxxxxxxxxxxx
# time: 135 aaaaaaaaaaaaaaaaaaaaa burst_counter = 1, burst_counter_reg = 1 HTRANS_reg = 3
# time: 145 xxxxxxxxxxxxxxxxxxxxxxxxxx
# time: 145 aaaaaaaaaaaaaaaaaaaaa burst_counter = 2, burst_counter_reg = 2 HTRANS_reg = 3
# time: 155 xxxxxxxxxxxxxxxxxxxxxxxxxx
# time: 155 aaaaaaaaaaaaaaaaaaaaa burst_counter = 3, burst_counter_reg = 3 HTRANS_reg = 3
# time: 165 xxxxxxxxxxxxxxxxxxxxxxxxxx
# time: 170 xxxxxxxxxxxxxxxxxxxxxxxxxx
# time: 175 xxxxxxxxxxxxxxxxxxxxxxxxxx
# time: 175 aaaaaaaaaaaaaaaaaaaaa burst_counter = 0, burst_counter_reg = 0 HTRANS_reg = 2
# time: 185 xxxxxxxxxxxxxxxxxxxxxxxxxx
# time: 185 aaaaaaaaaaaaaaaaaaaaa burst_counter = 1, burst_counter_reg = 1 HTRANS_reg = 3
# time: 195 xxxxxxxxxxxxxxxxxxxxxxxxxx
# time: 195 aaaaaaaaaaaaaaaaaaaaa burst_counter = 2, burst_counter_reg = 2 HTRANS_reg = 3
# time: 200 xxxxxxxxxxxxxxxxxxxxxxxxxx
# time: 200 aaaaaaaaaaaaaaaaaaaaa burst_counter = 2, burst_counter_reg = 1 HTRANS_reg = 3
# time: 205 xxxxxxxxxxxxxxxxxxxxxxxxxx
# time: 215 xxxxxxxxxxxxxxxxxxxxxxxxxx
# ** Note: $stop    : ahbs_tb.sv(98)
#    Time: 300 ns  Iteration: 0  Instance: /ahbslave_tb
# Break in Module ahbslave_tb at ahbs_tb.sv line 98
vlog ahb_slave.v
# QuestaSim-64 vlog 2021.1 Compiler 2021.01 Jan 19 2021
# Start time: 23:48:57 on Sep 23,2024
# vlog -reportprogress 300 ahb_slave.v 
# -- Compiling module ahb_slave
# 
# Top level modules:
# 	ahb_slave
# End time: 23:48:57 on Sep 23,2024, Elapsed time: 0:00:00
# Errors: 0, Warnings: 0
restart
# ** Note: (vsim-3813) Design is being optimized due to module recompilation...
# Loading sv_std.std
# Loading work.ahbslave_tb(fast)
# Loading work.ahb_slave(fast)
run -all
# time: 25 xxxxxxxxxxxxxxxxxxxxxxxxxx
# time: 40 xxxxxxxxxxxxxxxxxxxxxxxxxx
# time: 45 xxxxxxxxxxxxxxxxxxxxxxxxxx
# time: 60 xxxxxxxxxxxxxxxxxxxxxxxxxx
# time: 65 xxxxxxxxxxxxxxxxxxxxxxxxxx
# time: 65 aaaaaaaaaaaaaaaaaaaaa burst_counter = 0, burst_counter_reg = 0 HTRANS_reg = 2
# time :70 HRDATA = x
# time: 75 xxxxxxxxxxxxxxxxxxxxxxxxxx
# time :80 HRDATA = x
# time: 80 xxxxxxxxxxxxxxxxxxxxxxxxxx
# time: 85 xxxxxxxxxxxxxxxxxxxxxxxxxx
# time :90 HRDATA = 5
# time :100 HRDATA = 5
# time: 100 xxxxxxxxxxxxxxxxxxxxxxxxxx
# time: 105 xxxxxxxxxxxxxxxxxxxxxxxxxx
# time :110 HRDATA = 5
# time :120 HRDATA = 5
# time: 120 xxxxxxxxxxxxxxxxxxxxxxxxxx
# time: 125 xxxxxxxxxxxxxxxxxxxxxxxxxx
# time: 125 aaaaaaaaaaaaaaaaaaaaa burst_counter = 0, burst_counter_reg = 0 HTRANS_reg = 2
# time: 135 xxxxxxxxxxxxxxxxxxxxxxxxxx
# time: 135 aaaaaaaaaaaaaaaaaaaaa burst_counter = 1, burst_counter_reg = 1 HTRANS_reg = 3
# time: 145 xxxxxxxxxxxxxxxxxxxxxxxxxx
# time: 145 aaaaaaaaaaaaaaaaaaaaa burst_counter = 2, burst_counter_reg = 2 HTRANS_reg = 3
# time: 155 xxxxxxxxxxxxxxxxxxxxxxxxxx
# time: 155 aaaaaaaaaaaaaaaaaaaaa burst_counter = 3, burst_counter_reg = 3 HTRANS_reg = 3
# time: 165 xxxxxxxxxxxxxxxxxxxxxxxxxx
# time: 170 xxxxxxxxxxxxxxxxxxxxxxxxxx
# time: 175 xxxxxxxxxxxxxxxxxxxxxxxxxx
# time: 175 aaaaaaaaaaaaaaaaaaaaa burst_counter = 0, burst_counter_reg = 0 HTRANS_reg = 2
# time: 185 xxxxxxxxxxxxxxxxxxxxxxxxxx
# time: 185 aaaaaaaaaaaaaaaaaaaaa burst_counter = 1, burst_counter_reg = 1 HTRANS_reg = 3
# time: 195 xxxxxxxxxxxxxxxxxxxxxxxxxx
# time: 195 aaaaaaaaaaaaaaaaaaaaa burst_counter = 2, burst_counter_reg = 2 HTRANS_reg = 3
# time: 200 xxxxxxxxxxxxxxxxxxxxxxxxxx
# time: 200 aaaaaaaaaaaaaaaaaaaaa burst_counter = 2, burst_counter_reg = 3 HTRANS_reg = 3
# time: 205 xxxxxxxxxxxxxxxxxxxxxxxxxx
# time: 215 xxxxxxxxxxxxxxxxxxxxxxxxxx
# ** Note: $stop    : ahbs_tb.sv(98)
#    Time: 300 ns  Iteration: 0  Instance: /ahbslave_tb
# Break in Module ahbslave_tb at ahbs_tb.sv line 98
vlog ahb_slave.v
# QuestaSim-64 vlog 2021.1 Compiler 2021.01 Jan 19 2021
# Start time: 01:17:58 on Sep 24,2024
# vlog -reportprogress 300 ahb_slave.v 
# -- Compiling module ahb_slave
# 
# Top level modules:
# 	ahb_slave
# End time: 01:17:58 on Sep 24,2024, Elapsed time: 0:00:00
# Errors: 0, Warnings: 0
restart
# ** Note: (vsim-3813) Design is being optimized due to module recompilation...
# Loading sv_std.std
# Loading work.ahbslave_tb(fast)
# Loading work.ahb_slave(fast)
run -all
# time: 25 xxxxxxxxxxxxxxxxxxxxxxxxxx
# time: 40 xxxxxxxxxxxxxxxxxxxxxxxxxx
# time: 45 xxxxxxxxxxxxxxxxxxxxxxxxxx
# time: 60 xxxxxxxxxxxxxxxxxxxxxxxxxx
# time: 65 xxxxxxxxxxxxxxxxxxxxxxxxxx
# time: 65 aaaaaaaaaaaaaaaaaaaaa burst_counter = 0, burst_counter_reg = 0 HTRANS_reg = 2
# time :70 HRDATA = x
# time: 75 xxxxxxxxxxxxxxxxxxxxxxxxxx
# time :80 HRDATA = x
# time: 80 xxxxxxxxxxxxxxxxxxxxxxxxxx
# time: 85 xxxxxxxxxxxxxxxxxxxxxxxxxx
# time :90 HRDATA = 5
# time :100 HRDATA = 5
# time: 100 xxxxxxxxxxxxxxxxxxxxxxxxxx
# time: 105 xxxxxxxxxxxxxxxxxxxxxxxxxx
# time :110 HRDATA = 5
# time :120 HRDATA = 5
# time: 120 xxxxxxxxxxxxxxxxxxxxxxxxxx
# time: 125 xxxxxxxxxxxxxxxxxxxxxxxxxx
# time: 125 aaaaaaaaaaaaaaaaaaaaa burst_counter = 0, burst_counter_reg = 0 HTRANS_reg = 2
# time: 135 xxxxxxxxxxxxxxxxxxxxxxxxxx
# time: 135 aaaaaaaaaaaaaaaaaaaaa burst_counter = 1, burst_counter_reg = 1 HTRANS_reg = 3
# time: 145 xxxxxxxxxxxxxxxxxxxxxxxxxx
# time: 145 aaaaaaaaaaaaaaaaaaaaa burst_counter = 2, burst_counter_reg = 2 HTRANS_reg = 3
# time: 155 xxxxxxxxxxxxxxxxxxxxxxxxxx
# time: 155 aaaaaaaaaaaaaaaaaaaaa burst_counter = 3, burst_counter_reg = 3 HTRANS_reg = 3
# time: 165 xxxxxxxxxxxxxxxxxxxxxxxxxx
# time: 170 xxxxxxxxxxxxxxxxxxxxxxxxxx
# time: 175 xxxxxxxxxxxxxxxxxxxxxxxxxx
# time: 175 aaaaaaaaaaaaaaaaaaaaa burst_counter = 0, burst_counter_reg = 0 HTRANS_reg = 2
# time: 185 xxxxxxxxxxxxxxxxxxxxxxxxxx
# time: 185 aaaaaaaaaaaaaaaaaaaaa burst_counter = 1, burst_counter_reg = 1 HTRANS_reg = 3
# time: 195 xxxxxxxxxxxxxxxxxxxxxxxxxx
# time: 195 aaaaaaaaaaaaaaaaaaaaa burst_counter = 0, burst_counter_reg = 0 HTRANS_reg = 3
# time: 200 xxxxxxxxxxxxxxxxxxxxxxxxxx
# time: 200 aaaaaaaaaaaaaaaaaaaaa burst_counter = 0, burst_counter_reg = -1 HTRANS_reg = 3
# time: 205 xxxxxxxxxxxxxxxxxxxxxxxxxx
# time: 215 xxxxxxxxxxxxxxxxxxxxxxxxxx
# ** Note: $stop    : ahbs_tb.sv(98)
#    Time: 300 ns  Iteration: 0  Instance: /ahbslave_tb
# Break in Module ahbslave_tb at ahbs_tb.sv line 98
vlog ahb_slave.v
# QuestaSim-64 vlog 2021.1 Compiler 2021.01 Jan 19 2021
# Start time: 02:31:39 on Sep 24,2024
# vlog -reportprogress 300 ahb_slave.v 
# -- Compiling module ahb_slave
# 
# Top level modules:
# 	ahb_slave
# End time: 02:31:39 on Sep 24,2024, Elapsed time: 0:00:00
# Errors: 0, Warnings: 0
restart
# ** Note: (vsim-3813) Design is being optimized due to module recompilation...
# Loading sv_std.std
# Loading work.ahbslave_tb(fast)
# Loading work.ahb_slave(fast)
run -all
# time: 25 xxxxxxxxxxxxxxxxxxxxxxxxxx
# time: 40 xxxxxxxxxxxxxxxxxxxxxxxxxx
# time: 45 xxxxxxxxxxxxxxxxxxxxxxxxxx
# time: 60 xxxxxxxxxxxxxxxxxxxxxxxxxx
# time: 65 xxxxxxxxxxxxxxxxxxxxxxxxxx
# time: 65 aaaaaaaaaaaaaaaaaaaaa burst_counter = 0, burst_counter_reg = 0 HTRANS_reg = 2
# time :70 HRDATA = x
# time: 75 xxxxxxxxxxxxxxxxxxxxxxxxxx
# time :80 HRDATA = x
# time: 80 xxxxxxxxxxxxxxxxxxxxxxxxxx
# time: 85 xxxxxxxxxxxxxxxxxxxxxxxxxx
# time :90 HRDATA = 5
# time :100 HRDATA = 5
# time: 100 xxxxxxxxxxxxxxxxxxxxxxxxxx
# time: 105 xxxxxxxxxxxxxxxxxxxxxxxxxx
# time :110 HRDATA = 5
# time :120 HRDATA = 5
# time: 120 xxxxxxxxxxxxxxxxxxxxxxxxxx
# time: 125 xxxxxxxxxxxxxxxxxxxxxxxxxx
# time: 125 aaaaaaaaaaaaaaaaaaaaa burst_counter = 0, burst_counter_reg = 0 HTRANS_reg = 2
# time: 135 xxxxxxxxxxxxxxxxxxxxxxxxxx
# time: 135 aaaaaaaaaaaaaaaaaaaaa burst_counter = 1, burst_counter_reg = 1 HTRANS_reg = 3
# time: 145 xxxxxxxxxxxxxxxxxxxxxxxxxx
# time: 145 aaaaaaaaaaaaaaaaaaaaa burst_counter = 2, burst_counter_reg = 2 HTRANS_reg = 3
# time: 155 xxxxxxxxxxxxxxxxxxxxxxxxxx
# time: 155 aaaaaaaaaaaaaaaaaaaaa burst_counter = 3, burst_counter_reg = 3 HTRANS_reg = 3
# time: 165 xxxxxxxxxxxxxxxxxxxxxxxxxx
# time: 170 xxxxxxxxxxxxxxxxxxxxxxxxxx
# time: 175 xxxxxxxxxxxxxxxxxxxxxxxxxx
# time: 175 aaaaaaaaaaaaaaaaaaaaa burst_counter = 0, burst_counter_reg = 0 HTRANS_reg = 2
# time: 185 xxxxxxxxxxxxxxxxxxxxxxxxxx
# time: 185 aaaaaaaaaaaaaaaaaaaaa burst_counter = 1, burst_counter_reg = 1 HTRANS_reg = 3
# time: 195 xxxxxxxxxxxxxxxxxxxxxxxxxx
# time: 195 aaaaaaaaaaaaaaaaaaaaa burst_counter = 0, burst_counter_reg = 0 HTRANS_reg = 3
# time: 205 xxxxxxxxxxxxxxxxxxxxxxxxxx
# time: 215 xxxxxxxxxxxxxxxxxxxxxxxxxx
# ** Note: $stop    : ahbs_tb.sv(98)
#    Time: 300 ns  Iteration: 0  Instance: /ahbslave_tb
# Break in Module ahbslave_tb at ahbs_tb.sv line 98
vlog ahb_slave.v
# QuestaSim-64 vlog 2021.1 Compiler 2021.01 Jan 19 2021
# Start time: 02:33:21 on Sep 24,2024
# vlog -reportprogress 300 ahb_slave.v 
# -- Compiling module ahb_slave
# 
# Top level modules:
# 	ahb_slave
# End time: 02:33:21 on Sep 24,2024, Elapsed time: 0:00:00
# Errors: 0, Warnings: 0
restart
# ** Note: (vsim-3813) Design is being optimized due to module recompilation...
# Loading sv_std.std
# Loading work.ahbslave_tb(fast)
# Loading work.ahb_slave(fast)
run -all
# time: 25 xxxxxxxxxxxxxxxxxxxxxxxxxx
# time: 40 xxxxxxxxxxxxxxxxxxxxxxxxxx
# time: 45 xxxxxxxxxxxxxxxxxxxxxxxxxx
# time: 60 xxxxxxxxxxxxxxxxxxxxxxxxxx
# time: 65 xxxxxxxxxxxxxxxxxxxxxxxxxx
# time: 65 aaaaaaaaaaaaaaaaaaaaa burst_counter = 0, burst_counter_reg = 0 HTRANS_reg = 2
# time :70 HRDATA = x
# time: 75 xxxxxxxxxxxxxxxxxxxxxxxxxx
# time :80 HRDATA = x
# time: 85 xxxxxxxxxxxxxxxxxxxxxxxxxx
# time :90 HRDATA = 5
# time :100 HRDATA = 5
# time: 105 xxxxxxxxxxxxxxxxxxxxxxxxxx
# time :110 HRDATA = 5
# time :120 HRDATA = 5
# time: 120 xxxxxxxxxxxxxxxxxxxxxxxxxx
# time: 125 xxxxxxxxxxxxxxxxxxxxxxxxxx
# time: 125 aaaaaaaaaaaaaaaaaaaaa burst_counter = 0, burst_counter_reg = 0 HTRANS_reg = 2
# time: 135 xxxxxxxxxxxxxxxxxxxxxxxxxx
# time: 135 aaaaaaaaaaaaaaaaaaaaa burst_counter = 1, burst_counter_reg = 1 HTRANS_reg = 3
# time: 145 xxxxxxxxxxxxxxxxxxxxxxxxxx
# time: 145 aaaaaaaaaaaaaaaaaaaaa burst_counter = 2, burst_counter_reg = 2 HTRANS_reg = 3
# time: 155 xxxxxxxxxxxxxxxxxxxxxxxxxx
# time: 155 aaaaaaaaaaaaaaaaaaaaa burst_counter = 3, burst_counter_reg = 3 HTRANS_reg = 3
# time: 165 xxxxxxxxxxxxxxxxxxxxxxxxxx
# time: 170 xxxxxxxxxxxxxxxxxxxxxxxxxx
# time: 175 xxxxxxxxxxxxxxxxxxxxxxxxxx
# time: 175 aaaaaaaaaaaaaaaaaaaaa burst_counter = 0, burst_counter_reg = 0 HTRANS_reg = 2
# time: 185 xxxxxxxxxxxxxxxxxxxxxxxxxx
# time: 185 aaaaaaaaaaaaaaaaaaaaa burst_counter = 1, burst_counter_reg = 1 HTRANS_reg = 3
# time: 195 xxxxxxxxxxxxxxxxxxxxxxxxxx
# time: 195 aaaaaaaaaaaaaaaaaaaaa burst_counter = 0, burst_counter_reg = 0 HTRANS_reg = 3
# time: 205 xxxxxxxxxxxxxxxxxxxxxxxxxx
# time: 215 xxxxxxxxxxxxxxxxxxxxxxxxxx
# ** Note: $stop    : ahbs_tb.sv(98)
#    Time: 300 ns  Iteration: 0  Instance: /ahbslave_tb
# Break in Module ahbslave_tb at ahbs_tb.sv line 98
vlog ahb_slave.v
# QuestaSim-64 vlog 2021.1 Compiler 2021.01 Jan 19 2021
# Start time: 02:34:48 on Sep 24,2024
# vlog -reportprogress 300 ahb_slave.v 
# -- Compiling module ahb_slave
# 
# Top level modules:
# 	ahb_slave
# End time: 02:34:48 on Sep 24,2024, Elapsed time: 0:00:00
# Errors: 0, Warnings: 0
vlog ahbs_tb.sv
# QuestaSim-64 vlog 2021.1 Compiler 2021.01 Jan 19 2021
# Start time: 02:34:52 on Sep 24,2024
# vlog -reportprogress 300 ahbs_tb.sv 
# -- Compiling module ahbslave_tb
# 
# Top level modules:
# 	ahbslave_tb
# End time: 02:34:52 on Sep 24,2024, Elapsed time: 0:00:00
# Errors: 0, Warnings: 0
restart
# ** Note: (vsim-3813) Design is being optimized due to module recompilation...
# Loading sv_std.std
# Loading work.ahbslave_tb(fast)
# Loading work.ahb_slave(fast)
run -all
# time: 25 xxxxxxxxxxxxxxxxxxxxxxxxxx
# time: 40 xxxxxxxxxxxxxxxxxxxxxxxxxx
# time: 45 xxxxxxxxxxxxxxxxxxxxxxxxxx
# time: 60 xxxxxxxxxxxxxxxxxxxxxxxxxx
# time: 65 xxxxxxxxxxxxxxxxxxxxxxxxxx
# time: 65 aaaaaaaaaaaaaaaaaaaaa burst_counter = 0, burst_counter_reg = 0 HTRANS_reg = 2
# time :70 HRDATA = x
# time: 75 xxxxxxxxxxxxxxxxxxxxxxxxxx
# time :80 HRDATA = x
# time: 85 xxxxxxxxxxxxxxxxxxxxxxxxxx
# time :90 HRDATA = 5
# time :100 HRDATA = 5
# time: 105 xxxxxxxxxxxxxxxxxxxxxxxxxx
# time :110 HRDATA = 5
# time :120 HRDATA = 5
# time: 120 xxxxxxxxxxxxxxxxxxxxxxxxxx
# time: 125 xxxxxxxxxxxxxxxxxxxxxxxxxx
# time: 125 aaaaaaaaaaaaaaaaaaaaa burst_counter = 0, burst_counter_reg = 0 HTRANS_reg = 2
# time: 135 xxxxxxxxxxxxxxxxxxxxxxxxxx
# time: 135 aaaaaaaaaaaaaaaaaaaaa burst_counter = 1, burst_counter_reg = 1 HTRANS_reg = 3
# time: 145 xxxxxxxxxxxxxxxxxxxxxxxxxx
# time: 145 aaaaaaaaaaaaaaaaaaaaa burst_counter = 2, burst_counter_reg = 2 HTRANS_reg = 3
# time: 155 xxxxxxxxxxxxxxxxxxxxxxxxxx
# time: 155 aaaaaaaaaaaaaaaaaaaaa burst_counter = 3, burst_counter_reg = 3 HTRANS_reg = 3
# time: 165 xxxxxxxxxxxxxxxxxxxxxxxxxx
# time: 170 xxxxxxxxxxxxxxxxxxxxxxxxxx
# time: 175 xxxxxxxxxxxxxxxxxxxxxxxxxx
# time: 175 aaaaaaaaaaaaaaaaaaaaa burst_counter = 0, burst_counter_reg = 0 HTRANS_reg = 2
# time: 185 xxxxxxxxxxxxxxxxxxxxxxxxxx
# time: 185 aaaaaaaaaaaaaaaaaaaaa burst_counter = 1, burst_counter_reg = 1 HTRANS_reg = 3
# time: 195 xxxxxxxxxxxxxxxxxxxxxxxxxx
# time: 195 aaaaaaaaaaaaaaaaaaaaa burst_counter = 0, burst_counter_reg = 0 HTRANS_reg = 3
# time: 205 xxxxxxxxxxxxxxxxxxxxxxxxxx
# time: 215 xxxxxxxxxxxxxxxxxxxxxxxxxx
# ** Note: $stop    : ahbs_tb.sv(100)
#    Time: 310 ns  Iteration: 0  Instance: /ahbslave_tb
# Break in Module ahbslave_tb at ahbs_tb.sv line 100
vlog ahb_slave - Copy.v
# QuestaSim-64 vlog 2021.1 Compiler 2021.01 Jan 19 2021
# Start time: 13:44:36 on Sep 24,2024
# vlog -reportprogress 300 ahb_slave - Copy.v 
# ** Error: (vlog-7) Failed to open design unit file "ahb_slave" in read mode.
# No such file or directory. (errno = ENOENT)
# End time: 13:44:38 on Sep 24,2024, Elapsed time: 0:00:02
# Errors: 1, Warnings: 0
# F:/questasim/questasim64_2021.1/win64/vlog failed.
vlog ahb_slave.v
# QuestaSim-64 vlog 2021.1 Compiler 2021.01 Jan 19 2021
# Start time: 13:44:52 on Sep 24,2024
# vlog -reportprogress 300 ahb_slave.v 
# -- Compiling module ahb_slave
# ** Error: ahb_slave.v(198): (vlog-2730) Undefined variable: 'wrap_flag'.
# End time: 13:44:53 on Sep 24,2024, Elapsed time: 0:00:01
# Errors: 1, Warnings: 0
# F:/questasim/questasim64_2021.1/win64/vlog failed.
vlog ahb_slave.v
# QuestaSim-64 vlog 2021.1 Compiler 2021.01 Jan 19 2021
# Start time: 13:45:28 on Sep 24,2024
# vlog -reportprogress 300 ahb_slave.v 
# -- Compiling module ahb_slave
# ** Error: ahb_slave.v(163): (vlog-2730) Undefined variable: 'wrap_reg'.
# ** Error: ahb_slave.v(192): (vlog-2730) Undefined variable: 'synced_wrap_reg'.
# End time: 13:45:28 on Sep 24,2024, Elapsed time: 0:00:00
# Errors: 2, Warnings: 0
# F:/questasim/questasim64_2021.1/win64/vlog failed.
vlog ahb_slave.v
# QuestaSim-64 vlog 2021.1 Compiler 2021.01 Jan 19 2021
# Start time: 13:46:25 on Sep 24,2024
# vlog -reportprogress 300 ahb_slave.v 
# -- Compiling module ahb_slave
# ** Error: ahb_slave.v(229): (vlog-2730) Undefined variable: 'synced_wrap_reg'.
# End time: 13:46:25 on Sep 24,2024, Elapsed time: 0:00:00
# Errors: 1, Warnings: 0
# F:/questasim/questasim64_2021.1/win64/vlog failed.
vlog ahb_slave.v
# QuestaSim-64 vlog 2021.1 Compiler 2021.01 Jan 19 2021
# Start time: 13:46:35 on Sep 24,2024
# vlog -reportprogress 300 ahb_slave.v 
# -- Compiling module ahb_slave
# 
# Top level modules:
# 	ahb_slave
# End time: 13:46:36 on Sep 24,2024, Elapsed time: 0:00:01
# Errors: 0, Warnings: 0
restart
# ** Note: (vsim-3813) Design is being optimized due to module recompilation...
# Loading sv_std.std
# Loading work.ahbslave_tb(fast)
# Loading work.ahb_slave(fast)
# Warning in wave window restart: (vish-4014) No objects found matching '/ahbslave_tb/s0/wrap_reg'. 
add wave -position insertpoint  \
sim:/ahbslave_tb/s0/wrap_flag
run -all
# time: 25 xxxxxxxxxxxxxxxxxxxxxxxxxx
# time: 45 xxxxxxxxxxxxxxxxxxxxxxxxxx
# time: 60 xxxxxxxxxxxxxxxxxxxxxxxxxx
# time: 65 xxxxxxxxxxxxxxxxxxxxxxxxxx
# time: 65 aaaaaaaaaaaaaaaaaaaaa burst_counter = 0, burst_counter_reg = 0 HTRANS_reg = 2
# time :70 HRDATA = 0
# time: 75 xxxxxxxxxxxxxxxxxxxxxxxxxx
# time :80 HRDATA = 0
# time: 85 xxxxxxxxxxxxxxxxxxxxxxxxxx
# time :90 HRDATA = 5
# time :100 HRDATA = 5
# time: 105 xxxxxxxxxxxxxxxxxxxxxxxxxx
# time :110 HRDATA = 5
# time :120 HRDATA = 5
# time: 120 xxxxxxxxxxxxxxxxxxxxxxxxxx
# time: 125 xxxxxxxxxxxxxxxxxxxxxxxxxx
# time: 125 aaaaaaaaaaaaaaaaaaaaa burst_counter = 0, burst_counter_reg = 0 HTRANS_reg = 2
# time: 135 xxxxxxxxxxxxxxxxxxxxxxxxxx
# time: 135 aaaaaaaaaaaaaaaaaaaaa burst_counter = 1, burst_counter_reg = 1 HTRANS_reg = 3
# time: 145 xxxxxxxxxxxxxxxxxxxxxxxxxx
# time: 145 aaaaaaaaaaaaaaaaaaaaa burst_counter = 2, burst_counter_reg = 2 HTRANS_reg = 3
# time: 155 xxxxxxxxxxxxxxxxxxxxxxxxxx
# time: 155 aaaaaaaaaaaaaaaaaaaaa burst_counter = 3, burst_counter_reg = 3 HTRANS_reg = 3
# time: 165 xxxxxxxxxxxxxxxxxxxxxxxxxx
# time: 170 xxxxxxxxxxxxxxxxxxxxxxxxxx
# time: 175 xxxxxxxxxxxxxxxxxxxxxxxxxx
# time: 175 aaaaaaaaaaaaaaaaaaaaa burst_counter = 0, burst_counter_reg = 0 HTRANS_reg = 2
# time: 185 xxxxxxxxxxxxxxxxxxxxxxxxxx
# time: 185 aaaaaaaaaaaaaaaaaaaaa burst_counter = -1, burst_counter_reg = -1 HTRANS_reg = 3
# time: 195 xxxxxxxxxxxxxxxxxxxxxxxxxx
# time: 195 aaaaaaaaaaaaaaaaaaaaa burst_counter = -2, burst_counter_reg = -2 HTRANS_reg = 3
# time: 205 xxxxxxxxxxxxxxxxxxxxxxxxxx
# time: 215 xxxxxxxxxxxxxxxxxxxxxxxxxx
# ** Note: $stop    : ahbs_tb.sv(100)
#    Time: 310 ns  Iteration: 0  Instance: /ahbslave_tb
# Break in Module ahbslave_tb at ahbs_tb.sv line 100
vlog ahb_slave.v
# QuestaSim-64 vlog 2021.1 Compiler 2021.01 Jan 19 2021
# Start time: 13:52:05 on Sep 24,2024
# vlog -reportprogress 300 ahb_slave.v 
# -- Compiling module ahb_slave
# 
# Top level modules:
# 	ahb_slave
# End time: 13:52:05 on Sep 24,2024, Elapsed time: 0:00:00
# Errors: 0, Warnings: 0
restart
# ** Note: (vsim-3813) Design is being optimized due to module recompilation...
# Loading sv_std.std
# Loading work.ahbslave_tb(fast)
# Loading work.ahb_slave(fast)
run -all
# time: 25 xxxxxxxxxxxxxxxxxxxxxxxxxx
# time: 45 xxxxxxxxxxxxxxxxxxxxxxxxxx
# time: 60 xxxxxxxxxxxxxxxxxxxxxxxxxx
# time: 65 xxxxxxxxxxxxxxxxxxxxxxxxxx
# time: 65 aaaaaaaaaaaaaaaaaaaaa burst_counter = 0, burst_counter_reg = 0 HTRANS_reg = 2
# time :70 HRDATA = 0
# time: 75 xxxxxxxxxxxxxxxxxxxxxxxxxx
# time :80 HRDATA = 0
# time: 85 xxxxxxxxxxxxxxxxxxxxxxxxxx
# time :90 HRDATA = 5
# time :100 HRDATA = 5
# time: 105 xxxxxxxxxxxxxxxxxxxxxxxxxx
# time :110 HRDATA = 5
# time :120 HRDATA = 5
# time: 120 xxxxxxxxxxxxxxxxxxxxxxxxxx
# time: 125 xxxxxxxxxxxxxxxxxxxxxxxxxx
# time: 125 aaaaaaaaaaaaaaaaaaaaa burst_counter = 0, burst_counter_reg = 0 HTRANS_reg = 2
# time: 135 xxxxxxxxxxxxxxxxxxxxxxxxxx
# time: 135 aaaaaaaaaaaaaaaaaaaaa burst_counter = 1, burst_counter_reg = 1 HTRANS_reg = 3
# time: 145 xxxxxxxxxxxxxxxxxxxxxxxxxx
# time: 145 aaaaaaaaaaaaaaaaaaaaa burst_counter = 2, burst_counter_reg = 2 HTRANS_reg = 3
# time: 155 xxxxxxxxxxxxxxxxxxxxxxxxxx
# time: 155 aaaaaaaaaaaaaaaaaaaaa burst_counter = 3, burst_counter_reg = 3 HTRANS_reg = 3
# time: 165 xxxxxxxxxxxxxxxxxxxxxxxxxx
# time: 170 xxxxxxxxxxxxxxxxxxxxxxxxxx
# time: 175 xxxxxxxxxxxxxxxxxxxxxxxxxx
# time: 175 aaaaaaaaaaaaaaaaaaaaa burst_counter = 0, burst_counter_reg = 2 HTRANS_reg = 2
# time: 185 xxxxxxxxxxxxxxxxxxxxxxxxxx
# time: 185 aaaaaaaaaaaaaaaaaaaaa burst_counter = 1, burst_counter_reg = 1 HTRANS_reg = 3
# time: 195 xxxxxxxxxxxxxxxxxxxxxxxxxx
# time: 195 aaaaaaaaaaaaaaaaaaaaa burst_counter = 0, burst_counter_reg = 0 HTRANS_reg = 3
# time: 205 xxxxxxxxxxxxxxxxxxxxxxxxxx
# time: 215 xxxxxxxxxxxxxxxxxxxxxxxxxx
# ** Note: $stop    : ahbs_tb.sv(100)
#    Time: 310 ns  Iteration: 0  Instance: /ahbslave_tb
# Break in Module ahbslave_tb at ahbs_tb.sv line 100
add wave -position insertpoint  \
sim:/ahbslave_tb/s0/HBURST_reg
restart
# ** Note: (vsim-8009) Loading existing optimized design _opt
# Loading work.ahbslave_tb(fast)
# Loading work.ahb_slave(fast)

run -all
# time: 25 xxxxxxxxxxxxxxxxxxxxxxxxxx
# time: 45 xxxxxxxxxxxxxxxxxxxxxxxxxx
# time: 60 xxxxxxxxxxxxxxxxxxxxxxxxxx
# time: 65 xxxxxxxxxxxxxxxxxxxxxxxxxx
# time: 65 aaaaaaaaaaaaaaaaaaaaa burst_counter = 0, burst_counter_reg = 0 HTRANS_reg = 2
# time :70 HRDATA = 0
# time: 75 xxxxxxxxxxxxxxxxxxxxxxxxxx
# time :80 HRDATA = 0
# time: 85 xxxxxxxxxxxxxxxxxxxxxxxxxx
# time :90 HRDATA = 5
# time :100 HRDATA = 5
# time: 105 xxxxxxxxxxxxxxxxxxxxxxxxxx
# time :110 HRDATA = 5
# time :120 HRDATA = 5
# time: 120 xxxxxxxxxxxxxxxxxxxxxxxxxx
# time: 125 xxxxxxxxxxxxxxxxxxxxxxxxxx
# time: 125 aaaaaaaaaaaaaaaaaaaaa burst_counter = 0, burst_counter_reg = 0 HTRANS_reg = 2
# time: 135 xxxxxxxxxxxxxxxxxxxxxxxxxx
# time: 135 aaaaaaaaaaaaaaaaaaaaa burst_counter = 1, burst_counter_reg = 1 HTRANS_reg = 3
# time: 145 xxxxxxxxxxxxxxxxxxxxxxxxxx
# time: 145 aaaaaaaaaaaaaaaaaaaaa burst_counter = 2, burst_counter_reg = 2 HTRANS_reg = 3
# time: 155 xxxxxxxxxxxxxxxxxxxxxxxxxx
# time: 155 aaaaaaaaaaaaaaaaaaaaa burst_counter = 3, burst_counter_reg = 3 HTRANS_reg = 3
# time: 165 xxxxxxxxxxxxxxxxxxxxxxxxxx
# time: 170 xxxxxxxxxxxxxxxxxxxxxxxxxx
# time: 175 xxxxxxxxxxxxxxxxxxxxxxxxxx
# time: 175 aaaaaaaaaaaaaaaaaaaaa burst_counter = 0, burst_counter_reg = 2 HTRANS_reg = 2
# time: 185 xxxxxxxxxxxxxxxxxxxxxxxxxx
# time: 185 aaaaaaaaaaaaaaaaaaaaa burst_counter = 1, burst_counter_reg = 1 HTRANS_reg = 3
# time: 195 xxxxxxxxxxxxxxxxxxxxxxxxxx
# time: 195 aaaaaaaaaaaaaaaaaaaaa burst_counter = 0, burst_counter_reg = 0 HTRANS_reg = 3
# time: 205 xxxxxxxxxxxxxxxxxxxxxxxxxx
# time: 215 xxxxxxxxxxxxxxxxxxxxxxxxxx
# ** Note: $stop    : ahbs_tb.sv(100)
#    Time: 310 ns  Iteration: 0  Instance: /ahbslave_tb
# Break in Module ahbslave_tb at ahbs_tb.sv line 100
vlog ahb_slave.v
# QuestaSim-64 vlog 2021.1 Compiler 2021.01 Jan 19 2021
# Start time: 23:25:46 on Sep 24,2024
# vlog -reportprogress 300 ahb_slave.v 
# -- Compiling module ahb_slave
# 
# Top level modules:
# 	ahb_slave
# End time: 23:25:46 on Sep 24,2024, Elapsed time: 0:00:00
# Errors: 0, Warnings: 0
restart
# ** Note: (vsim-3813) Design is being optimized due to module recompilation...
# Loading sv_std.std
# Loading work.ahbslave_tb(fast)
# Loading work.ahb_slave(fast)
run -all
# time: 25 xxxxxxxxxxxxxxxxxxxxxxxxxx
# time: 45 xxxxxxxxxxxxxxxxxxxxxxxxxx
# time: 60 xxxxxxxxxxxxxxxxxxxxxxxxxx
# time: 65 xxxxxxxxxxxxxxxxxxxxxxxxxx
# time: 65 aaaaaaaaaaaaaaaaaaaaa burst_counter = 0, burst_counter_reg = 0 HTRANS_reg = 2
# time :70 HRDATA = 0
# time: 75 xxxxxxxxxxxxxxxxxxxxxxxxxx
# time :80 HRDATA = 0
# time: 85 xxxxxxxxxxxxxxxxxxxxxxxxxx
# time :90 HRDATA = 5
# time :100 HRDATA = 5
# time: 105 xxxxxxxxxxxxxxxxxxxxxxxxxx
# time :110 HRDATA = 5
# time :120 HRDATA = 5
# time: 120 xxxxxxxxxxxxxxxxxxxxxxxxxx
# time: 125 xxxxxxxxxxxxxxxxxxxxxxxxxx
# time: 125 aaaaaaaaaaaaaaaaaaaaa burst_counter = 0, burst_counter_reg = 0 HTRANS_reg = 2
# time: 135 xxxxxxxxxxxxxxxxxxxxxxxxxx
# time: 135 aaaaaaaaaaaaaaaaaaaaa burst_counter = 1, burst_counter_reg = 1 HTRANS_reg = 3
# time: 145 xxxxxxxxxxxxxxxxxxxxxxxxxx
# time: 145 aaaaaaaaaaaaaaaaaaaaa burst_counter = 2, burst_counter_reg = 2 HTRANS_reg = 3
# time: 155 xxxxxxxxxxxxxxxxxxxxxxxxxx
# time: 155 aaaaaaaaaaaaaaaaaaaaa burst_counter = 3, burst_counter_reg = 3 HTRANS_reg = 3
# time: 165 xxxxxxxxxxxxxxxxxxxxxxxxxx
# time: 170 xxxxxxxxxxxxxxxxxxxxxxxxxx
# time: 175 xxxxxxxxxxxxxxxxxxxxxxxxxx
# time: 175 aaaaaaaaaaaaaaaaaaaaa burst_counter = 0, burst_counter_reg = 0 HTRANS_reg = 2
# time: 185 xxxxxxxxxxxxxxxxxxxxxxxxxx
# time: 185 aaaaaaaaaaaaaaaaaaaaa burst_counter = -1, burst_counter_reg = -1 HTRANS_reg = 3
# time: 195 xxxxxxxxxxxxxxxxxxxxxxxxxx
# time: 195 aaaaaaaaaaaaaaaaaaaaa burst_counter = -2, burst_counter_reg = -2 HTRANS_reg = 3
# time: 205 xxxxxxxxxxxxxxxxxxxxxxxxxx
# time: 215 xxxxxxxxxxxxxxxxxxxxxxxxxx
# ** Note: $stop    : ahbs_tb.sv(100)
#    Time: 310 ns  Iteration: 0  Instance: /ahbslave_tb
# Break in Module ahbslave_tb at ahbs_tb.sv line 100
vlog ahb_slave.v
# QuestaSim-64 vlog 2021.1 Compiler 2021.01 Jan 19 2021
# Start time: 23:30:49 on Sep 24,2024
# vlog -reportprogress 300 ahb_slave.v 
# -- Compiling module ahb_slave
# 
# Top level modules:
# 	ahb_slave
# End time: 23:30:49 on Sep 24,2024, Elapsed time: 0:00:00
# Errors: 0, Warnings: 0
restart
# ** Note: (vsim-3813) Design is being optimized due to module recompilation...
# Loading sv_std.std
# Loading work.ahbslave_tb(fast)
# Loading work.ahb_slave(fast)
run -all
# time: 25 xxxxxxxxxxxxxxxxxxxxxxxxxx
# time: 40 nnnnnnnnnnnnnnnnnnnnnnnnnnnnnnnnnnnnn burst_counter = 0, burst_counter_reg = 0
# time: 45 xxxxxxxxxxxxxxxxxxxxxxxxxx
# time: 60 xxxxxxxxxxxxxxxxxxxxxxxxxx
# time: 65 xxxxxxxxxxxxxxxxxxxxxxxxxx
