# //  Questa Sim-64
# //  Version 2021.1 win64 Jan 19 2021
# //
# //  Copyright 1991-2021 Mentor Graphics Corporation
# //  All Rights Reserved.
# //
# //  QuestaSim and its associated documentation contain trade
# //  secrets and commercial or financial information that are the property of
# //  Mentor Graphics Corporation and are privileged, confidential,
# //  and exempt from disclosure under the Freedom of Information Act,
# //  5 U.S.C. Section 552. Furthermore, this information
# //  is prohibited from disclosure under the Trade Secrets Act,
# //  18 U.S.C. Section 1905.
# //
# do run_all_tests_update_header_each_time.do
# "WRITE_READ_INCR_test" "WRITE_READ_INCR4_test" "WRITE_READ_INCR8_test" "WRITE_READ_INCR16_test" "WRITE_READ_WRAP4_test" "WRITE_READ_WRAP8_test" "WRITE_READ_WRAP16_test" "runall_test"
# "32" "64" "128" "256" "512" "1024"
# "32" "32" "32" "32" "32" "32"
# QuestaSim-64 vlog 2021.1 Compiler 2021.01 Jan 19 2021
# Start time: 14:03:43 on Nov 23,2024
# vlog -reportprogress 300 -f dut.f "+cover" -covercells 
# -- Compiling module ahb_default_subordinate
# -- Compiling module ahb_subordinate
# ** Warning: ../../rtl/ahb_subordinate.v(396): (vlog-2182) 'HRESP_reg_d' might be read before written in always_comb or always @* block.
# -- Compiling module ahb_mux
# -- Compiling module ahb_decoder
# -- Compiling module ahb_lite
# 
# Top level modules:
# 	ahb_lite
# End time: 14:03:43 on Nov 23,2024, Elapsed time: 0:00:00
# Errors: 0, Warnings: 1
# QuestaSim-64 vlog 2021.1 Compiler 2021.01 Jan 19 2021
# Start time: 14:03:44 on Nov 23,2024
# vlog -reportprogress 300 -f tb.f "+cover" -covercells 
# -- Compiling package AHB_pkg
# -- Importing package mtiUvm.uvm_pkg (uvm-1.1d Built-in)
# ** Note: (vlog-2286) ../AHB_lite_uvm_pkg.sv(15): Using implicit +incdir+F:/questasim/questasim64_2021.1/uvm-1.1d/../verilog_src/uvm-1.1d/src from import uvm_pkg
# ** Warning: ** while parsing file included at ../AHB_lite_uvm_pkg.sv(91)
# ** at ../sequence_item/sequence_item.svh(210): (vlog-2643) Unterminated string literal continues onto next line.
# ** Warning: ** while parsing file included at ../AHB_lite_uvm_pkg.sv(91)
# ** at ../sequence_item/sequence_item.svh(219): (vlog-2643) Unterminated string literal continues onto next line.
# ** Warning: ** while parsing file included at ../AHB_lite_uvm_pkg.sv(91)
# ** at ../sequence_item/sequence_item.svh(227): (vlog-2643) Unterminated string literal continues onto next line.
# ** Warning: ../components/predictor.svh(927): (vlog-2875) Task "write_AHB" is being called in function "undo_last_operation".
# ** Warning: ../components/predictor.svh(956): (vlog-2875) Task "write_AHB" is being called in function "undo_last_operation".
# -- Compiling interface inf
# -- Importing package AHB_pkg
# -- Compiling module AHB_subordinate_sva
# -- Compiling module top_test_uvm
# 
# Top level modules:
# 	top_test_uvm
# End time: 14:03:44 on Nov 23,2024, Elapsed time: 0:00:00
# Errors: 0, Warnings: 5
# QuestaSim-64 vopt 2021.1 Compiler 2021.01 Jan 19 2021
# Start time: 14:03:47 on Nov 23,2024
# vopt -reportprogress 300 top_test_uvm -o top_optimized "+acc" "+cover=bcefsx+ahb_lite(rtl)" 
# 
# Top level modules:
# 	top_test_uvm
# 
# Analyzing design...
# -- Loading module top_test_uvm
# -- Importing package mtiUvm.uvm_pkg (uvm-1.1d Built-in)
# -- Importing package AHB_pkg
# -- Loading package mtiUvm.questa_uvm_pkg
# -- Loading interface inf
# -- Loading module ahb_lite
# -- Loading module ahb_decoder
# -- Loading module ahb_mux
# -- Loading module ahb_default_subordinate
# -- Loading module ahb_subordinate
# -- Loading module AHB_subordinate_sva
# Optimizing 12 design-units (inlining 0/12 module instances):
# -- Optimizing package mtiUvm.uvm_pkg (uvm-1.1d Built-in)(fast)
# -- Optimizing package mtiUvm.questa_uvm_pkg(fast)
# -- Optimizing package AHB_pkg(fast)
# ** Warning: ../components/predictor.svh(927): (vopt-2875) Task "write_AHB" is being called in function "undo_last_operation".
# ** Warning: ../components/predictor.svh(956): (vopt-2875) Task "write_AHB" is being called in function "undo_last_operation".
# -- Optimizing module AHB_subordinate_sva(fast)
# -- Optimizing module ahb_subordinate(fast)
# ** Warning: ../../rtl/ahb_subordinate.v(396): (vopt-2182) 'HRESP_reg_d' might be read before written in always_comb or always @* block.
# ** Note: (vopt-143) Recognized 1 FSM in module "ahb_subordinate(fast)".
# -- Optimizing interface inf(fast__2)
# -- Optimizing module ahb_mux(fast)
# -- Optimizing module ahb_lite(fast)
# -- Optimizing module ahb_decoder(fast)
# -- Optimizing module ahb_default_subordinate(fast)
# -- Optimizing module top_test_uvm(fast)
# -- Optimizing interface inf(fast)
# Optimized design name is top_optimized
# End time: 14:03:51 on Nov 23,2024, Elapsed time: 0:00:04
# Errors: 0, Warnings: 3
# vsim top_optimized -coverage -solvefaildebug=2 "+UVM_TESTNAME=WRITE_READ_INCR_test" 
# Start time: 14:03:55 on Nov 23,2024
# Loading sv_std.std
# Loading work.inf(fast)
# Loading mtiUvm.uvm_pkg(fast)
# Loading work.AHB_pkg(fast)
# Loading mtiUvm.questa_uvm_pkg(fast)
# Loading work.top_test_uvm(fast)
# Loading work.inf(fast__2)
# Loading work.ahb_lite(fast)
# Loading work.ahb_decoder(fast)
# Loading work.ahb_mux(fast)
# Loading work.ahb_default_subordinate(fast)
# Loading work.ahb_subordinate(fast)
# Loading work.AHB_subordinate_sva(fast)
# ** Warning: (vsim-3764) Stand-alone call to function 'try_get' treated as implicit void cast.
#    Time: 0 ns  Iteration: 0  Region: /AHB_pkg File: ../components/comparator.svh Line: 98
# Loading F:/questasim/questasim64_2021.1/uvm-1.1d\win64\uvm_dpi.dll
# ** Warning: (vsim-8806) Task "write_AHB" is being called in function "undo_last_operation".
#    Time: 0 ns  Iteration: 0  Instance: /top_test_uvm File: ../components/predictor.svh Line: 927
# ** Warning: (vsim-8806) Task "write_AHB" is being called in function "undo_last_operation".
#    Time: 0 ns  Iteration: 0  Instance: /top_test_uvm File: ../components/predictor.svh Line: 956
# ** Warning: (vsim-WLF-5000) WLF file currently in use: vsim.wlf
#           File in use by: darkl  Hostname: DESKTOP-J9VQG1G  ProcessID: 5516
#           Attempting to use alternate WLF file "./wlftcf96nd".
# ** Warning: (vsim-WLF-5001) Could not open WLF file: vsim.wlf
#           Using alternate file: ./wlftcf96nd
# ----------------------------------------------------------------
# UVM-1.1d
# (C) 2007-2013 Mentor Graphics Corporation
# (C) 2007-2013 Cadence Design Systems, Inc.
# (C) 2006-2013 Synopsys, Inc.
# (C) 2011-2013 Cypress Semiconductor Corp.
# ----------------------------------------------------------------
# 
#   ***********       IMPORTANT RELEASE NOTES         ************
# 
#   You are using a version of the UVM library that has been compiled
#   with `UVM_NO_DEPRECATED undefined.
#   See http://www.eda.org/svdb/view.php?id=3313 for more details.
# 
#   You are using a version of the UVM library that has been compiled
#   with `UVM_OBJECT_MUST_HAVE_CONSTRUCTOR undefined.
#   See http://www.eda.org/svdb/view.php?id=3770 for more details.
# 
#       (Specify +UVM_NO_RELNOTES to turn off this notice)
# 
# UVM_INFO verilog_src/questa_uvm_pkg-1.2/src/questa_uvm_pkg.sv(277) @ 0: reporter [Questa UVM] QUESTA_UVM-1.2.3
# UVM_INFO verilog_src/questa_uvm_pkg-1.2/src/questa_uvm_pkg.sv(278) @ 0: reporter [Questa UVM]  questa_uvm::init(+struct)
# UVM_INFO @ 0: reporter [RNTST] Running test WRITE_READ_INCR_test...
# base_test build phase
# my_test build phase
# env build phase
# my_active_agent build phase
# UVM_INFO ../components/sequencer.svh(24) @ 0: uvm_test_top.env_h.active_agent_h.burst_sequencer_h [SEQUENCER] Build phase executed
# my_driver build phase
# Inputs monitor build phase complete.
# UVM_INFO ../components/sequencer.svh(24) @ 0: uvm_test_top.env_h.active_agent_h.runall_sequencer_h [SEQUENCER] Build phase executed
# UVM_INFO ../components/sequencer.svh(24) @ 0: uvm_test_top.env_h.active_agent_h.sequencer_h [SEQUENCER] Build phase executed
# coverage build_phase
# Passive agent build phase complete.
# Outputs monitor build phase complete.
# UVM_INFO ../components/scoreboard.svh(49) @ 0: uvm_test_top.env_h.scoreboard_h [SCOREBOARD] Build phase completed
# my_comparator build phase
# my_predictor build phase
# UVM_INFO ../components/sequencer.svh(30) @ 0: uvm_test_top.env_h.active_agent_h.burst_sequencer_h [SEQUENCER] Connect phase executed
# my_driver connect phase
# Inputs monitor connect phase complete.
# UVM_INFO ../components/sequencer.svh(30) @ 0: uvm_test_top.env_h.active_agent_h.runall_sequencer_h [SEQUENCER] Connect phase executed
# UVM_INFO ../components/sequencer.svh(30) @ 0: uvm_test_top.env_h.active_agent_h.sequencer_h [SEQUENCER] Connect phase executed
# my_active_agent connect phase
# Outputs monitor connect phase complete.
# Passive agent connect phase complete.
# my_comparator connect phase
# my_predictor connect phase
# UVM_INFO ../components/scoreboard.svh(60) @ 0: uvm_test_top.env_h.scoreboard_h [SCOREBOARD] Connect phase completed
# env connect phase
# my_test connect phase
# my_test connect phase
# Inputs monitor end of elaboration phase complete.
# my_monitor end_of_elaboration_phase
# Outputs monitor end of elaboration phase complete.
# Passive agent end of elaboration phase complete.
# UVM_INFO ../components/env.svh(97) @ 0: uvm_test_top.env_h [env_h] '{"uvm_test_top.env_h.active_agent_h.tlm_analysis_port_inputs":@uvm_port_component__5@33 }
# UVM_INFO ../components/env.svh(99) @ 0: uvm_test_top.env_h [env_h] '{"uvm_test_top.env_h.active_agent_h.tlm_analysis_port_inputs":@uvm_port_component__5@33 }
# UVM_INFO ../components/env.svh(101) @ 0: uvm_test_top.env_h [env_h] '{"uvm_test_top.env_h.passive_agent_h.tlm_analysis_port_outputs":@uvm_port_component__5@35 }
# FINISHED GET_PROVIDED_TO
# UVM_INFO ../components/env.svh(105) @ 0: uvm_test_top.env_h [env_h] '{ }
# UVM_INFO ../components/env.svh(107) @ 0: uvm_test_top.env_h [env_h] '{"uvm_test_top.env_h.scoreboard_h.predictor_h.analysis_imp":@uvm_port_component__5@39 }
# UVM_INFO ../components/env.svh(109) @ 0: uvm_test_top.env_h [env_h] '{"uvm_test_top.env_h.scoreboard_h.comparator_h.analysis_actual_outputs":@uvm_port_component__5@56 }
# my_monitor end_of_elaboration_phase
# env run phase
# my_predictor run phase
# UVM_INFO ../components/comparator.svh(87) @ 0: uvm_test_top.env_h.scoreboard_h.comparator_h [COMPARATOR] RUN PHASE
# Passive agent run phase complete.
# coverage run_phase
# my_active_agent run phase
# UVM_INFO ../components/sequencer.svh(36) @ 0: uvm_test_top.env_h.active_agent_h.sequencer_h [SEQUENCER] Run phase started
# UVM_INFO ../components/sequencer.svh(36) @ 0: uvm_test_top.env_h.active_agent_h.runall_sequencer_h [SEQUENCER] Run phase started
# UVM_INFO ../components/sequencer.svh(36) @ 0: uvm_test_top.env_h.active_agent_h.burst_sequencer_h [SEQUENCER] Run phase started
# start of pre_body task
# start of pre_body task
# start of pre_body task
# UVM_INFO ../components/driver.svh(64) @ 0: uvm_test_top.env_h.active_agent_h.driver_h [uvm_test_top.env_h.active_agent_h.driver_h] DRIVEN_ITEM:-----------------------------------------------------------------------------------------------------------------------------------------
# 
#                     time: 0 HRESETn = 0, HSEL= 0, HWRITE = 0, HTRANS =  0, HSIZE = 0, HBURST = 0, HPROT = 0, HADDR = 0, HWDATA = 0, PREDICTOR_transaction_counter = 0, COMPARATOR_transaction_counter= 0
# RECIEVING PHASE: TIME: 5 WAITING FOR CONTROL PHASE TO transaction_finished
# UVM_INFO ../components/predictor.svh(196) @ 10: uvm_test_top.env_h.scoreboard_h.predictor_h [PREDICTOR] EXPECTED_DATA: -----------------------------------------------------------------------------------------------------------------------------------------
# 
#                     time: 10 HRESETn = 0, HSEL= 0, HWRITE = 0, HTRANS =  0, HSIZE = 0, HBURST = 0, HPROT = 0, HADDR = 0, HWDATA = 0, PREDICTOR_transaction_counter = 1, COMPARATOR_transaction_counter= 0
# my_predictor run phase
# UVM_INFO ../components/comparator.svh(91) @ 10: uvm_test_top.env_h.scoreboard_h.comparator_h [COMPARATOR] EXPECTED_SEQ_ITEM RECEIVED: -----------------------------------------------------------------------------------------------------------------------------------------
# 
#                      time: 10  HRESETn = 0, HSEL= 0, HWRITE = 0, HTRANS =  0, HSIZE = 0, HBURST = 0, HPROT = 0, HADDR = 0, HWDATA = 0, HRDATA = x, HRESP = 0, HREADY = 1, PREDICTOR_transaction_counter = 1, COMPARATOR_transaction_counter= 0
# UVM_INFO ../components/outputs_monitor.svh(76) @ 155: uvm_test_top.env_h.passive_agent_h.outputs_monitor_h [uvm_test_top.env_h.passive_agent_h.outputs_monitor_h] OUTPUTS SENT TO THE COMPARATOR
# UVM_INFO ../components/comparator.svh(99) @ 156: uvm_test_top.env_h.scoreboard_h.comparator_h [COMPARATOR] ACTUAL_SEQ_ITEM RECEIVED: -----------------------------------------------------------------------------------------------------------------------------------------
# 
#                     time: 156 HSEL: 0  HRDATA: 0  HRESP: 0   HREADY: 1, PREDICTOR_transaction_counter = 1, COMPARATOR_transaction_counter= 0
# UVM_INFO ../components/comparator.svh(103) @ 156: uvm_test_top.env_h.scoreboard_h.comparator_h [SCOREBOARD] PASS
# UVM_INFO ../components/comparator.svh(87) @ 156: uvm_test_top.env_h.scoreboard_h.comparator_h [COMPARATOR] RUN PHASE
# UVM_INFO ../components/driver.svh(64) @ 165: uvm_test_top.env_h.active_agent_h.driver_h [uvm_test_top.env_h.active_agent_h.driver_h] DRIVEN_ITEM:-----------------------------------------------------------------------------------------------------------------------------------------
# 
#                     time: 165 HRESETn = 1, HSEL= 3, HWRITE = 1, HTRANS =  2, HSIZE = 0, HBURST = 1, HPROT = 0, HADDR = 600000ce, HWDATA = 31, PREDICTOR_transaction_counter = 1, COMPARATOR_transaction_counter= 1
# RECIEVING PHASE: TIME: 165 WAITING FOR CONTROL PHASE TO transaction_finished
# UVM_INFO ../components/predictor.svh(362) @ 175: uvm_test_top.env_h.scoreboard_h.predictor_h [PREDICTOR] WRITE_subordinate3:x31, 31, 600000ce
# UVM_INFO ../components/predictor.svh(196) @ 175: uvm_test_top.env_h.scoreboard_h.predictor_h [PREDICTOR] EXPECTED_DATA: -----------------------------------------------------------------------------------------------------------------------------------------
# 
#                     time: 175 HRESETn = 1, HSEL= 3, HWRITE = 1, HTRANS =  2, HSIZE = 0, HBURST = 1, HPROT = 0, HADDR = 600000ce, HWDATA = 31, PREDICTOR_transaction_counter = 2, COMPARATOR_transaction_counter= 1
# my_predictor run phase
# UVM_INFO ../components/comparator.svh(91) @ 175: uvm_test_top.env_h.scoreboard_h.comparator_h [COMPARATOR] EXPECTED_SEQ_ITEM RECEIVED: -----------------------------------------------------------------------------------------------------------------------------------------
# 
#                      time: 175  HRESETn = 1, HSEL= 3, HWRITE = 1, HTRANS =  2, HSIZE = 0, HBURST = 1, HPROT = 0, HADDR = 600000ce, HWDATA = 31, HRDATA = 0, HRESP = 0, HREADY = 1, PREDICTOR_transaction_counter = 2, COMPARATOR_transaction_counter= 1
# UVM_INFO ../components/driver.svh(64) @ 175: uvm_test_top.env_h.active_agent_h.driver_h [uvm_test_top.env_h.active_agent_h.driver_h] DRIVEN_ITEM:-----------------------------------------------------------------------------------------------------------------------------------------
# 
#                     time: 175 HRESETn = 1, HSEL= 3, HWRITE = 1, HTRANS =  3, HSIZE = 0, HBURST = 1, HPROT = 0, HADDR = 600000ce, HWDATA = eb, PREDICTOR_transaction_counter = 2, COMPARATOR_transaction_counter= 1
# RECIEVING PHASE: TIME: 175 WAITING FOR CONTROL PHASE TO transaction_finished
# UVM_INFO ../components/predictor.svh(362) @ 185: uvm_test_top.env_h.scoreboard_h.predictor_h [PREDICTOR] WRITE_subordinate3:xeb, eb, 600000cf
# UVM_INFO ../components/predictor.svh(196) @ 185: uvm_test_top.env_h.scoreboard_h.predictor_h [PREDICTOR] EXPECTED_DATA: -----------------------------------------------------------------------------------------------------------------------------------------
# 
#                     time: 185 HRESETn = 1, HSEL= 3, HWRITE = 1, HTRANS =  3, HSIZE = 0, HBURST = 1, HPROT = 0, HADDR = 600000ce, HWDATA = eb, PREDICTOR_transaction_counter = 3, COMPARATOR_transaction_counter= 1
# my_predictor run phase
# UVM_INFO ../components/driver.svh(64) @ 185: uvm_test_top.env_h.active_agent_h.driver_h [uvm_test_top.env_h.active_agent_h.driver_h] DRIVEN_ITEM:-----------------------------------------------------------------------------------------------------------------------------------------
# 
#                     time: 185 HRESETn = 1, HSEL= 3, HWRITE = 1, HTRANS =  3, HSIZE = 0, HBURST = 1, HPROT = 0, HADDR = 600000ce, HWDATA = 7e, PREDICTOR_transaction_counter = 3, COMPARATOR_transaction_counter= 1
# RECIEVING PHASE: TIME: 185 WAITING FOR CONTROL PHASE TO transaction_finished
# UVM_INFO ../components/predictor.svh(362) @ 195: uvm_test_top.env_h.scoreboard_h.predictor_h [PREDICTOR] WRITE_subordinate3:x7e, 7e, 600000d0
# UVM_INFO ../components/predictor.svh(196) @ 195: uvm_test_top.env_h.scoreboard_h.predictor_h [PREDICTOR] EXPECTED_DATA: -----------------------------------------------------------------------------------------------------------------------------------------
# 
#                     time: 195 HRESETn = 1, HSEL= 3, HWRITE = 1, HTRANS =  3, HSIZE = 0, HBURST = 1, HPROT = 0, HADDR = 600000ce, HWDATA = 7e, PREDICTOR_transaction_counter = 4, COMPARATOR_transaction_counter= 1
# my_predictor run phase
# UVM_INFO ../components/driver.svh(64) @ 195: uvm_test_top.env_h.active_agent_h.driver_h [uvm_test_top.env_h.active_agent_h.driver_h] DRIVEN_ITEM:-----------------------------------------------------------------------------------------------------------------------------------------
# 
#                     time: 195 HRESETn = 1, HSEL= 3, HWRITE = 1, HTRANS =  3, HSIZE = 0, HBURST = 1, HPROT = 0, HADDR = 600000ce, HWDATA = 69, PREDICTOR_transaction_counter = 4, COMPARATOR_transaction_counter= 1
# RECIEVING PHASE: TIME: 195 WAITING FOR CONTROL PHASE TO transaction_finished
# UVM_INFO ../components/predictor.svh(362) @ 205: uvm_test_top.env_h.scoreboard_h.predictor_h [PREDICTOR] WRITE_subordinate3:x69, 69, 600000d1
# UVM_INFO ../components/predictor.svh(196) @ 205: uvm_test_top.env_h.scoreboard_h.predictor_h [PREDICTOR] EXPECTED_DATA: -----------------------------------------------------------------------------------------------------------------------------------------
# 
#                     time: 205 HRESETn = 1, HSEL= 3, HWRITE = 1, HTRANS =  3, HSIZE = 0, HBURST = 1, HPROT = 0, HADDR = 600000ce, HWDATA = 69, PREDICTOR_transaction_counter = 5, COMPARATOR_transaction_counter= 1
# my_predictor run phase
# UVM_INFO ../components/driver.svh(64) @ 205: uvm_test_top.env_h.active_agent_h.driver_h [uvm_test_top.env_h.active_agent_h.driver_h] DRIVEN_ITEM:-----------------------------------------------------------------------------------------------------------------------------------------
# 
#                     time: 205 HRESETn = 1, HSEL= 3, HWRITE = 1, HTRANS =  3, HSIZE = 0, HBURST = 1, HPROT = 0, HADDR = 600000ce, HWDATA = 9c, PREDICTOR_transaction_counter = 5, COMPARATOR_transaction_counter= 1
# RECIEVING PHASE: TIME: 205 WAITING FOR CONTROL PHASE TO transaction_finished
# UVM_INFO ../components/outputs_monitor.svh(76) @ 215: uvm_test_top.env_h.passive_agent_h.outputs_monitor_h [uvm_test_top.env_h.passive_agent_h.outputs_monitor_h] OUTPUTS SENT TO THE COMPARATOR
# UVM_INFO ../components/predictor.svh(362) @ 215: uvm_test_top.env_h.scoreboard_h.predictor_h [PREDICTOR] WRITE_subordinate3:x9c, 9c, 600000d2
# UVM_INFO ../components/predictor.svh(196) @ 215: uvm_test_top.env_h.scoreboard_h.predictor_h [PREDICTOR] EXPECTED_DATA: -----------------------------------------------------------------------------------------------------------------------------------------
# 
#                     time: 215 HRESETn = 1, HSEL= 3, HWRITE = 1, HTRANS =  3, HSIZE = 0, HBURST = 1, HPROT = 0, HADDR = 600000ce, HWDATA = 9c, PREDICTOR_transaction_counter = 6, COMPARATOR_transaction_counter= 1
# my_predictor run phase
# UVM_INFO ../components/driver.svh(64) @ 215: uvm_test_top.env_h.active_agent_h.driver_h [uvm_test_top.env_h.active_agent_h.driver_h] DRIVEN_ITEM:-----------------------------------------------------------------------------------------------------------------------------------------
# 
#                     time: 215 HRESETn = 1, HSEL= 3, HWRITE = 1, HTRANS =  3, HSIZE = 0, HBURST = 1, HPROT = 0, HADDR = 600000ce, HWDATA = 2, PREDICTOR_transaction_counter = 6, COMPARATOR_transaction_counter= 1
# RECIEVING PHASE: TIME: 215 WAITING FOR CONTROL PHASE TO transaction_finished
# UVM_INFO ../components/comparator.svh(99) @ 216: uvm_test_top.env_h.scoreboard_h.comparator_h [COMPARATOR] ACTUAL_SEQ_ITEM RECEIVED: -----------------------------------------------------------------------------------------------------------------------------------------
# 
#                     time: 216 HSEL: 0  HRDATA: 0  HRESP: 0   HREADY: 1, PREDICTOR_transaction_counter = 6, COMPARATOR_transaction_counter= 1
# UVM_INFO ../components/comparator.svh(103) @ 216: uvm_test_top.env_h.scoreboard_h.comparator_h [SCOREBOARD] PASS
# UVM_INFO ../components/comparator.svh(87) @ 216: uvm_test_top.env_h.scoreboard_h.comparator_h [COMPARATOR] RUN PHASE
# UVM_INFO ../components/comparator.svh(91) @ 216: uvm_test_top.env_h.scoreboard_h.comparator_h [COMPARATOR] EXPECTED_SEQ_ITEM RECEIVED: -----------------------------------------------------------------------------------------------------------------------------------------
# 
#                      time: 216  HRESETn = 1, HSEL= 3, HWRITE = 1, HTRANS =  3, HSIZE = 0, HBURST = 1, HPROT = 0, HADDR = 600000ce, HWDATA = eb, HRDATA = 0, HRESP = 0, HREADY = 1, PREDICTOR_transaction_counter = 6, COMPARATOR_transaction_counter= 2
# UVM_INFO ../components/outputs_monitor.svh(76) @ 225: uvm_test_top.env_h.passive_agent_h.outputs_monitor_h [uvm_test_top.env_h.passive_agent_h.outputs_monitor_h] OUTPUTS SENT TO THE COMPARATOR
# UVM_INFO ../components/predictor.svh(362) @ 225: uvm_test_top.env_h.scoreboard_h.predictor_h [PREDICTOR] WRITE_subordinate3:x02, 2, 600000d3
# UVM_INFO ../components/predictor.svh(196) @ 225: uvm_test_top.env_h.scoreboard_h.predictor_h [PREDICTOR] EXPECTED_DATA: -----------------------------------------------------------------------------------------------------------------------------------------
# 
#                     time: 225 HRESETn = 1, HSEL= 3, HWRITE = 1, HTRANS =  3, HSIZE = 0, HBURST = 1, HPROT = 0, HADDR = 600000ce, HWDATA = 2, PREDICTOR_transaction_counter = 7, COMPARATOR_transaction_counter= 2
# my_predictor run phase
# UVM_INFO ../components/driver.svh(64) @ 225: uvm_test_top.env_h.active_agent_h.driver_h [uvm_test_top.env_h.active_agent_h.driver_h] DRIVEN_ITEM:-----------------------------------------------------------------------------------------------------------------------------------------
# 
#                     time: 225 HRESETn = 1, HSEL= 3, HWRITE = 1, HTRANS =  3, HSIZE = 0, HBURST = 1, HPROT = 0, HADDR = 600000ce, HWDATA = 1f, PREDICTOR_transaction_counter = 7, COMPARATOR_transaction_counter= 2
# RECIEVING PHASE: TIME: 225 WAITING FOR CONTROL PHASE TO transaction_finished
# UVM_INFO ../components/comparator.svh(99) @ 226: uvm_test_top.env_h.scoreboard_h.comparator_h [COMPARATOR] ACTUAL_SEQ_ITEM RECEIVED: -----------------------------------------------------------------------------------------------------------------------------------------
# 
#                     time: 226 HSEL: 0  HRDATA: 0  HRESP: 0   HREADY: 1, PREDICTOR_transaction_counter = 7, COMPARATOR_transaction_counter= 2
# UVM_INFO ../components/comparator.svh(103) @ 226: uvm_test_top.env_h.scoreboard_h.comparator_h [SCOREBOARD] PASS
# UVM_INFO ../components/comparator.svh(87) @ 226: uvm_test_top.env_h.scoreboard_h.comparator_h [COMPARATOR] RUN PHASE
# UVM_INFO ../components/comparator.svh(91) @ 226: uvm_test_top.env_h.scoreboard_h.comparator_h [COMPARATOR] EXPECTED_SEQ_ITEM RECEIVED: -----------------------------------------------------------------------------------------------------------------------------------------
# 
#                      time: 226  HRESETn = 1, HSEL= 3, HWRITE = 1, HTRANS =  3, HSIZE = 0, HBURST = 1, HPROT = 0, HADDR = 600000ce, HWDATA = 7e, HRDATA = 0, HRESP = 0, HREADY = 1, PREDICTOR_transaction_counter = 7, COMPARATOR_transaction_counter= 3
# UVM_INFO ../components/outputs_monitor.svh(76) @ 235: uvm_test_top.env_h.passive_agent_h.outputs_monitor_h [uvm_test_top.env_h.passive_agent_h.outputs_monitor_h] OUTPUTS SENT TO THE COMPARATOR
# UVM_INFO ../components/predictor.svh(362) @ 235: uvm_test_top.env_h.scoreboard_h.predictor_h [PREDICTOR] WRITE_subordinate3:x1f, 1f, 600000d4
# UVM_INFO ../components/predictor.svh(196) @ 235: uvm_test_top.env_h.scoreboard_h.predictor_h [PREDICTOR] EXPECTED_DATA: -----------------------------------------------------------------------------------------------------------------------------------------
# 
#                     time: 235 HRESETn = 1, HSEL= 3, HWRITE = 1, HTRANS =  3, HSIZE = 0, HBURST = 1, HPROT = 0, HADDR = 600000ce, HWDATA = 1f, PREDICTOR_transaction_counter = 8, COMPARATOR_transaction_counter= 3
# my_predictor run phase
# UVM_INFO ../components/driver.svh(64) @ 235: uvm_test_top.env_h.active_agent_h.driver_h [uvm_test_top.env_h.active_agent_h.driver_h] DRIVEN_ITEM:-----------------------------------------------------------------------------------------------------------------------------------------
# 
#                     time: 235 HRESETn = 1, HSEL= 3, HWRITE = 1, HTRANS =  3, HSIZE = 0, HBURST = 1, HPROT = 0, HADDR = 600000ce, HWDATA = c0, PREDICTOR_transaction_counter = 8, COMPARATOR_transaction_counter= 3
# RECIEVING PHASE: TIME: 235 WAITING FOR CONTROL PHASE TO transaction_finished
# UVM_INFO ../components/comparator.svh(99) @ 236: uvm_test_top.env_h.scoreboard_h.comparator_h [COMPARATOR] ACTUAL_SEQ_ITEM RECEIVED: -----------------------------------------------------------------------------------------------------------------------------------------
# 
#                     time: 236 HSEL: 0  HRDATA: 0  HRESP: 0   HREADY: 1, PREDICTOR_transaction_counter = 8, COMPARATOR_transaction_counter= 3
# UVM_INFO ../components/comparator.svh(103) @ 236: uvm_test_top.env_h.scoreboard_h.comparator_h [SCOREBOARD] PASS
# UVM_INFO ../components/comparator.svh(87) @ 236: uvm_test_top.env_h.scoreboard_h.comparator_h [COMPARATOR] RUN PHASE
# UVM_INFO ../components/comparator.svh(91) @ 236: uvm_test_top.env_h.scoreboard_h.comparator_h [COMPARATOR] EXPECTED_SEQ_ITEM RECEIVED: -----------------------------------------------------------------------------------------------------------------------------------------
# 
#                      time: 236  HRESETn = 1, HSEL= 3, HWRITE = 1, HTRANS =  3, HSIZE = 0, HBURST = 1, HPROT = 0, HADDR = 600000ce, HWDATA = 69, HRDATA = 0, HRESP = 0, HREADY = 1, PREDICTOR_transaction_counter = 8, COMPARATOR_transaction_counter= 4
# UVM_INFO ../components/outputs_monitor.svh(76) @ 245: uvm_test_top.env_h.passive_agent_h.outputs_monitor_h [uvm_test_top.env_h.passive_agent_h.outputs_monitor_h] OUTPUTS SENT TO THE COMPARATOR
# UVM_INFO ../components/predictor.svh(362) @ 245: uvm_test_top.env_h.scoreboard_h.predictor_h [PREDICTOR] WRITE_subordinate3:xc0, c0, 600000d5
# UVM_INFO ../components/predictor.svh(196) @ 245: uvm_test_top.env_h.scoreboard_h.predictor_h [PREDICTOR] EXPECTED_DATA: -----------------------------------------------------------------------------------------------------------------------------------------
# 
#                     time: 245 HRESETn = 1, HSEL= 3, HWRITE = 1, HTRANS =  3, HSIZE = 0, HBURST = 1, HPROT = 0, HADDR = 600000ce, HWDATA = c0, PREDICTOR_transaction_counter = 9, COMPARATOR_transaction_counter= 4
# my_predictor run phase
# UVM_INFO ../components/driver.svh(64) @ 245: uvm_test_top.env_h.active_agent_h.driver_h [uvm_test_top.env_h.active_agent_h.driver_h] DRIVEN_ITEM:-----------------------------------------------------------------------------------------------------------------------------------------
# 
#                     time: 245 HRESETn = 1, HSEL= 3, HWRITE = 1, HTRANS =  3, HSIZE = 0, HBURST = 1, HPROT = 0, HADDR = 600000ce, HWDATA = dd, PREDICTOR_transaction_counter = 9, COMPARATOR_transaction_counter= 4
# RECIEVING PHASE: TIME: 245 WAITING FOR CONTROL PHASE TO transaction_finished
# UVM_INFO ../components/comparator.svh(99) @ 246: uvm_test_top.env_h.scoreboard_h.comparator_h [COMPARATOR] ACTUAL_SEQ_ITEM RECEIVED: -----------------------------------------------------------------------------------------------------------------------------------------
# 
#                     time: 246 HSEL: 0  HRDATA: 0  HRESP: 0   HREADY: 1, PREDICTOR_transaction_counter = 9, COMPARATOR_transaction_counter= 4
# UVM_INFO ../components/comparator.svh(103) @ 246: uvm_test_top.env_h.scoreboard_h.comparator_h [SCOREBOARD] PASS
# UVM_INFO ../components/comparator.svh(87) @ 246: uvm_test_top.env_h.scoreboard_h.comparator_h [COMPARATOR] RUN PHASE
# UVM_INFO ../components/comparator.svh(91) @ 246: uvm_test_top.env_h.scoreboard_h.comparator_h [COMPARATOR] EXPECTED_SEQ_ITEM RECEIVED: -----------------------------------------------------------------------------------------------------------------------------------------
# 
#                      time: 246  HRESETn = 1, HSEL= 3, HWRITE = 1, HTRANS =  3, HSIZE = 0, HBURST = 1, HPROT = 0, HADDR = 600000ce, HWDATA = 9c, HRDATA = 0, HRESP = 0, HREADY = 1, PREDICTOR_transaction_counter = 9, COMPARATOR_transaction_counter= 5
# UVM_INFO ../components/outputs_monitor.svh(76) @ 255: uvm_test_top.env_h.passive_agent_h.outputs_monitor_h [uvm_test_top.env_h.passive_agent_h.outputs_monitor_h] OUTPUTS SENT TO THE COMPARATOR
# UVM_INFO ../components/predictor.svh(362) @ 255: uvm_test_top.env_h.scoreboard_h.predictor_h [PREDICTOR] WRITE_subordinate3:xdd, dd, 600000d6
# UVM_INFO ../components/predictor.svh(196) @ 255: uvm_test_top.env_h.scoreboard_h.predictor_h [PREDICTOR] EXPECTED_DATA: -----------------------------------------------------------------------------------------------------------------------------------------
# 
#                     time: 255 HRESETn = 1, HSEL= 3, HWRITE = 1, HTRANS =  3, HSIZE = 0, HBURST = 1, HPROT = 0, HADDR = 600000ce, HWDATA = dd, PREDICTOR_transaction_counter = 10, COMPARATOR_transaction_counter= 5
# my_predictor run phase
# UVM_INFO ../components/driver.svh(64) @ 255: uvm_test_top.env_h.active_agent_h.driver_h [uvm_test_top.env_h.active_agent_h.driver_h] DRIVEN_ITEM:-----------------------------------------------------------------------------------------------------------------------------------------
# 
#                     time: 255 HRESETn = 1, HSEL= 3, HWRITE = 1, HTRANS =  3, HSIZE = 0, HBURST = 1, HPROT = 0, HADDR = 600000ce, HWDATA = 43, PREDICTOR_transaction_counter = 10, COMPARATOR_transaction_counter= 5
# RECIEVING PHASE: TIME: 255 WAITING FOR CONTROL PHASE TO transaction_finished
# UVM_INFO ../components/comparator.svh(99) @ 256: uvm_test_top.env_h.scoreboard_h.comparator_h [COMPARATOR] ACTUAL_SEQ_ITEM RECEIVED: -----------------------------------------------------------------------------------------------------------------------------------------
# 
#                     time: 256 HSEL: 0  HRDATA: 0  HRESP: 0   HREADY: 1, PREDICTOR_transaction_counter = 10, COMPARATOR_transaction_counter= 5
# UVM_INFO ../components/comparator.svh(103) @ 256: uvm_test_top.env_h.scoreboard_h.comparator_h [SCOREBOARD] PASS
# UVM_INFO ../components/comparator.svh(87) @ 256: uvm_test_top.env_h.scoreboard_h.comparator_h [COMPARATOR] RUN PHASE
# UVM_INFO ../components/comparator.svh(91) @ 256: uvm_test_top.env_h.scoreboard_h.comparator_h [COMPARATOR] EXPECTED_SEQ_ITEM RECEIVED: -----------------------------------------------------------------------------------------------------------------------------------------
# 
#                      time: 256  HRESETn = 1, HSEL= 3, HWRITE = 1, HTRANS =  3, HSIZE = 0, HBURST = 1, HPROT = 0, HADDR = 600000ce, HWDATA = 2, HRDATA = 0, HRESP = 0, HREADY = 1, PREDICTOR_transaction_counter = 10, COMPARATOR_transaction_counter= 6
# UVM_INFO ../components/outputs_monitor.svh(76) @ 265: uvm_test_top.env_h.passive_agent_h.outputs_monitor_h [uvm_test_top.env_h.passive_agent_h.outputs_monitor_h] OUTPUTS SENT TO THE COMPARATOR
# UVM_INFO ../components/predictor.svh(362) @ 265: uvm_test_top.env_h.scoreboard_h.predictor_h [PREDICTOR] WRITE_subordinate3:x43, 43, 600000d7
# UVM_INFO ../components/predictor.svh(196) @ 265: uvm_test_top.env_h.scoreboard_h.predictor_h [PREDICTOR] EXPECTED_DATA: -----------------------------------------------------------------------------------------------------------------------------------------
# 
#                     time: 265 HRESETn = 1, HSEL= 3, HWRITE = 1, HTRANS =  3, HSIZE = 0, HBURST = 1, HPROT = 0, HADDR = 600000ce, HWDATA = 43, PREDICTOR_transaction_counter = 11, COMPARATOR_transaction_counter= 6
# my_predictor run phase
# UVM_INFO ../components/driver.svh(64) @ 265: uvm_test_top.env_h.active_agent_h.driver_h [uvm_test_top.env_h.active_agent_h.driver_h] DRIVEN_ITEM:-----------------------------------------------------------------------------------------------------------------------------------------
# 
#                     time: 265 HRESETn = 1, HSEL= 3, HWRITE = 1, HTRANS =  3, HSIZE = 0, HBURST = 1, HPROT = 0, HADDR = 600000ce, HWDATA = a8, PREDICTOR_transaction_counter = 11, COMPARATOR_transaction_counter= 6
# RECIEVING PHASE: TIME: 265 WAITING FOR CONTROL PHASE TO transaction_finished
# UVM_INFO ../components/comparator.svh(99) @ 266: uvm_test_top.env_h.scoreboard_h.comparator_h [COMPARATOR] ACTUAL_SEQ_ITEM RECEIVED: -----------------------------------------------------------------------------------------------------------------------------------------
# 
#                     time: 266 HSEL: 0  HRDATA: 0  HRESP: 0   HREADY: 1, PREDICTOR_transaction_counter = 11, COMPARATOR_transaction_counter= 6
# UVM_INFO ../components/comparator.svh(103) @ 266: uvm_test_top.env_h.scoreboard_h.comparator_h [SCOREBOARD] PASS
# UVM_INFO ../components/comparator.svh(87) @ 266: uvm_test_top.env_h.scoreboard_h.comparator_h [COMPARATOR] RUN PHASE
# UVM_INFO ../components/comparator.svh(91) @ 266: uvm_test_top.env_h.scoreboard_h.comparator_h [COMPARATOR] EXPECTED_SEQ_ITEM RECEIVED: -----------------------------------------------------------------------------------------------------------------------------------------
# 
#                      time: 266  HRESETn = 1, HSEL= 3, HWRITE = 1, HTRANS =  3, HSIZE = 0, HBURST = 1, HPROT = 0, HADDR = 600000ce, HWDATA = 1f, HRDATA = 0, HRESP = 0, HREADY = 1, PREDICTOR_transaction_counter = 11, COMPARATOR_transaction_counter= 7
# UVM_INFO ../components/outputs_monitor.svh(76) @ 275: uvm_test_top.env_h.passive_agent_h.outputs_monitor_h [uvm_test_top.env_h.passive_agent_h.outputs_monitor_h] OUTPUTS SENT TO THE COMPARATOR
# UVM_INFO ../components/predictor.svh(362) @ 275: uvm_test_top.env_h.scoreboard_h.predictor_h [PREDICTOR] WRITE_subordinate3:xa8, a8, 600000d8
# UVM_INFO ../components/predictor.svh(196) @ 275: uvm_test_top.env_h.scoreboard_h.predictor_h [PREDICTOR] EXPECTED_DATA: -----------------------------------------------------------------------------------------------------------------------------------------
# 
#                     time: 275 HRESETn = 1, HSEL= 3, HWRITE = 1, HTRANS =  3, HSIZE = 0, HBURST = 1, HPROT = 0, HADDR = 600000ce, HWDATA = a8, PREDICTOR_transaction_counter = 12, COMPARATOR_transaction_counter= 7
# my_predictor run phase
# UVM_INFO ../components/driver.svh(64) @ 275: uvm_test_top.env_h.active_agent_h.driver_h [uvm_test_top.env_h.active_agent_h.driver_h] DRIVEN_ITEM:-----------------------------------------------------------------------------------------------------------------------------------------
# 
#                     time: 275 HRESETn = 1, HSEL= 3, HWRITE = 1, HTRANS =  3, HSIZE = 0, HBURST = 1, HPROT = 0, HADDR = 600000ce, HWDATA = b1, PREDICTOR_transaction_counter = 12, COMPARATOR_transaction_counter= 7
# RECIEVING PHASE: TIME: 275 WAITING FOR CONTROL PHASE TO transaction_finished
# UVM_INFO ../components/comparator.svh(99) @ 276: uvm_test_top.env_h.scoreboard_h.comparator_h [COMPARATOR] ACTUAL_SEQ_ITEM RECEIVED: -----------------------------------------------------------------------------------------------------------------------------------------
# 
#                     time: 276 HSEL: 0  HRDATA: 0  HRESP: 0   HREADY: 1, PREDICTOR_transaction_counter = 12, COMPARATOR_transaction_counter= 7
# UVM_INFO ../components/comparator.svh(103) @ 276: uvm_test_top.env_h.scoreboard_h.comparator_h [SCOREBOARD] PASS
# UVM_INFO ../components/comparator.svh(87) @ 276: uvm_test_top.env_h.scoreboard_h.comparator_h [COMPARATOR] RUN PHASE
# UVM_INFO ../components/comparator.svh(91) @ 276: uvm_test_top.env_h.scoreboard_h.comparator_h [COMPARATOR] EXPECTED_SEQ_ITEM RECEIVED: -----------------------------------------------------------------------------------------------------------------------------------------
# 
#                      time: 276  HRESETn = 1, HSEL= 3, HWRITE = 1, HTRANS =  3, HSIZE = 0, HBURST = 1, HPROT = 0, HADDR = 600000ce, HWDATA = c0, HRDATA = 0, HRESP = 0, HREADY = 1, PREDICTOR_transaction_counter = 12, COMPARATOR_transaction_counter= 8
# UVM_INFO ../components/outputs_monitor.svh(76) @ 285: uvm_test_top.env_h.passive_agent_h.outputs_monitor_h [uvm_test_top.env_h.passive_agent_h.outputs_monitor_h] OUTPUTS SENT TO THE COMPARATOR
# UVM_INFO ../components/predictor.svh(362) @ 285: uvm_test_top.env_h.scoreboard_h.predictor_h [PREDICTOR] WRITE_subordinate3:xb1, b1, 600000d9
# UVM_INFO ../components/predictor.svh(196) @ 285: uvm_test_top.env_h.scoreboard_h.predictor_h [PREDICTOR] EXPECTED_DATA: -----------------------------------------------------------------------------------------------------------------------------------------
# 
#                     time: 285 HRESETn = 1, HSEL= 3, HWRITE = 1, HTRANS =  3, HSIZE = 0, HBURST = 1, HPROT = 0, HADDR = 600000ce, HWDATA = b1, PREDICTOR_transaction_counter = 13, COMPARATOR_transaction_counter= 8
# my_predictor run phase
# UVM_INFO ../components/driver.svh(64) @ 285: uvm_test_top.env_h.active_agent_h.driver_h [uvm_test_top.env_h.active_agent_h.driver_h] DRIVEN_ITEM:-----------------------------------------------------------------------------------------------------------------------------------------
# 
#                     time: 285 HRESETn = 1, HSEL= 3, HWRITE = 1, HTRANS =  3, HSIZE = 0, HBURST = 1, HPROT = 0, HADDR = 600000ce, HWDATA = 2b, PREDICTOR_transaction_counter = 13, COMPARATOR_transaction_counter= 8
# RECIEVING PHASE: TIME: 285 WAITING FOR CONTROL PHASE TO transaction_finished
# UVM_INFO ../components/comparator.svh(99) @ 286: uvm_test_top.env_h.scoreboard_h.comparator_h [COMPARATOR] ACTUAL_SEQ_ITEM RECEIVED: -----------------------------------------------------------------------------------------------------------------------------------------
# 
#                     time: 286 HSEL: 0  HRDATA: 0  HRESP: 0   HREADY: 1, PREDICTOR_transaction_counter = 13, COMPARATOR_transaction_counter= 8
# UVM_INFO ../components/comparator.svh(103) @ 286: uvm_test_top.env_h.scoreboard_h.comparator_h [SCOREBOARD] PASS
# UVM_INFO ../components/comparator.svh(87) @ 286: uvm_test_top.env_h.scoreboard_h.comparator_h [COMPARATOR] RUN PHASE
# UVM_INFO ../components/comparator.svh(91) @ 286: uvm_test_top.env_h.scoreboard_h.comparator_h [COMPARATOR] EXPECTED_SEQ_ITEM RECEIVED: -----------------------------------------------------------------------------------------------------------------------------------------
# 
#                      time: 286  HRESETn = 1, HSEL= 3, HWRITE = 1, HTRANS =  3, HSIZE = 0, HBURST = 1, HPROT = 0, HADDR = 600000ce, HWDATA = dd, HRDATA = 0, HRESP = 0, HREADY = 1, PREDICTOR_transaction_counter = 13, COMPARATOR_transaction_counter= 9
# UVM_INFO ../components/outputs_monitor.svh(76) @ 295: uvm_test_top.env_h.passive_agent_h.outputs_monitor_h [uvm_test_top.env_h.passive_agent_h.outputs_monitor_h] OUTPUTS SENT TO THE COMPARATOR
# UVM_INFO ../components/predictor.svh(362) @ 295: uvm_test_top.env_h.scoreboard_h.predictor_h [PREDICTOR] WRITE_subordinate3:x2b, 2b, 600000da
# UVM_INFO ../components/predictor.svh(196) @ 295: uvm_test_top.env_h.scoreboard_h.predictor_h [PREDICTOR] EXPECTED_DATA: -----------------------------------------------------------------------------------------------------------------------------------------
# 
#                     time: 295 HRESETn = 1, HSEL= 3, HWRITE = 1, HTRANS =  3, HSIZE = 0, HBURST = 1, HPROT = 0, HADDR = 600000ce, HWDATA = 2b, PREDICTOR_transaction_counter = 14, COMPARATOR_transaction_counter= 9
# my_predictor run phase
# UVM_INFO ../components/driver.svh(64) @ 295: uvm_test_top.env_h.active_agent_h.driver_h [uvm_test_top.env_h.active_agent_h.driver_h] DRIVEN_ITEM:-----------------------------------------------------------------------------------------------------------------------------------------
# 
#                     time: 295 HRESETn = 1, HSEL= 3, HWRITE = 1, HTRANS =  3, HSIZE = 0, HBURST = 1, HPROT = 0, HADDR = 600000ce, HWDATA = fe, PREDICTOR_transaction_counter = 14, COMPARATOR_transaction_counter= 9
# RECIEVING PHASE: TIME: 295 WAITING FOR CONTROL PHASE TO transaction_finished
# UVM_INFO ../components/comparator.svh(99) @ 296: uvm_test_top.env_h.scoreboard_h.comparator_h [COMPARATOR] ACTUAL_SEQ_ITEM RECEIVED: -----------------------------------------------------------------------------------------------------------------------------------------
# 
#                     time: 296 HSEL: 0  HRDATA: 0  HRESP: 0   HREADY: 1, PREDICTOR_transaction_counter = 14, COMPARATOR_transaction_counter= 9
# UVM_INFO ../components/comparator.svh(103) @ 296: uvm_test_top.env_h.scoreboard_h.comparator_h [SCOREBOARD] PASS
# UVM_INFO ../components/comparator.svh(87) @ 296: uvm_test_top.env_h.scoreboard_h.comparator_h [COMPARATOR] RUN PHASE
# UVM_INFO ../components/comparator.svh(91) @ 296: uvm_test_top.env_h.scoreboard_h.comparator_h [COMPARATOR] EXPECTED_SEQ_ITEM RECEIVED: -----------------------------------------------------------------------------------------------------------------------------------------
# 
#                      time: 296  HRESETn = 1, HSEL= 3, HWRITE = 1, HTRANS =  3, HSIZE = 0, HBURST = 1, HPROT = 0, HADDR = 600000ce, HWDATA = 43, HRDATA = 0, HRESP = 0, HREADY = 1, PREDICTOR_transaction_counter = 14, COMPARATOR_transaction_counter= 10
# UVM_INFO ../components/outputs_monitor.svh(76) @ 305: uvm_test_top.env_h.passive_agent_h.outputs_monitor_h [uvm_test_top.env_h.passive_agent_h.outputs_monitor_h] OUTPUTS SENT TO THE COMPARATOR
# UVM_INFO ../components/predictor.svh(362) @ 305: uvm_test_top.env_h.scoreboard_h.predictor_h [PREDICTOR] WRITE_subordinate3:xfe, fe, 600000db
# UVM_INFO ../components/predictor.svh(196) @ 305: uvm_test_top.env_h.scoreboard_h.predictor_h [PREDICTOR] EXPECTED_DATA: -----------------------------------------------------------------------------------------------------------------------------------------
# 
#                     time: 305 HRESETn = 1, HSEL= 3, HWRITE = 1, HTRANS =  3, HSIZE = 0, HBURST = 1, HPROT = 0, HADDR = 600000ce, HWDATA = fe, PREDICTOR_transaction_counter = 15, COMPARATOR_transaction_counter= 10
# my_predictor run phase
# UVM_INFO ../components/driver.svh(64) @ 305: uvm_test_top.env_h.active_agent_h.driver_h [uvm_test_top.env_h.active_agent_h.driver_h] DRIVEN_ITEM:-----------------------------------------------------------------------------------------------------------------------------------------
# 
#                     time: 305 HRESETn = 1, HSEL= 3, HWRITE = 1, HTRANS =  3, HSIZE = 0, HBURST = 1, HPROT = 0, HADDR = 600000ce, HWDATA = e9, PREDICTOR_transaction_counter = 15, COMPARATOR_transaction_counter= 10
# RECIEVING PHASE: TIME: 305 WAITING FOR CONTROL PHASE TO transaction_finished
# UVM_INFO ../components/comparator.svh(99) @ 306: uvm_test_top.env_h.scoreboard_h.comparator_h [COMPARATOR] ACTUAL_SEQ_ITEM RECEIVED: -----------------------------------------------------------------------------------------------------------------------------------------
# 
#                     time: 306 HSEL: 0  HRDATA: 0  HRESP: 0   HREADY: 1, PREDICTOR_transaction_counter = 15, COMPARATOR_transaction_counter= 10
# UVM_INFO ../components/comparator.svh(103) @ 306: uvm_test_top.env_h.scoreboard_h.comparator_h [SCOREBOARD] PASS
# UVM_INFO ../components/comparator.svh(87) @ 306: uvm_test_top.env_h.scoreboard_h.comparator_h [COMPARATOR] RUN PHASE
# UVM_INFO ../components/comparator.svh(91) @ 306: uvm_test_top.env_h.scoreboard_h.comparator_h [COMPARATOR] EXPECTED_SEQ_ITEM RECEIVED: -----------------------------------------------------------------------------------------------------------------------------------------
# 
#                      time: 306  HRESETn = 1, HSEL= 3, HWRITE = 1, HTRANS =  3, HSIZE = 0, HBURST = 1, HPROT = 0, HADDR = 600000ce, HWDATA = a8, HRDATA = 0, HRESP = 0, HREADY = 1, PREDICTOR_transaction_counter = 15, COMPARATOR_transaction_counter= 11
# UVM_INFO ../components/outputs_monitor.svh(76) @ 315: uvm_test_top.env_h.passive_agent_h.outputs_monitor_h [uvm_test_top.env_h.passive_agent_h.outputs_monitor_h] OUTPUTS SENT TO THE COMPARATOR
# UVM_INFO ../components/predictor.svh(362) @ 315: uvm_test_top.env_h.scoreboard_h.predictor_h [PREDICTOR] WRITE_subordinate3:xe9, e9, 600000dc
# UVM_INFO ../components/predictor.svh(196) @ 315: uvm_test_top.env_h.scoreboard_h.predictor_h [PREDICTOR] EXPECTED_DATA: -----------------------------------------------------------------------------------------------------------------------------------------
# 
#                     time: 315 HRESETn = 1, HSEL= 3, HWRITE = 1, HTRANS =  3, HSIZE = 0, HBURST = 1, HPROT = 0, HADDR = 600000ce, HWDATA = e9, PREDICTOR_transaction_counter = 16, COMPARATOR_transaction_counter= 11
# my_predictor run phase
# UVM_INFO ../components/driver.svh(64) @ 315: uvm_test_top.env_h.active_agent_h.driver_h [uvm_test_top.env_h.active_agent_h.driver_h] DRIVEN_ITEM:-----------------------------------------------------------------------------------------------------------------------------------------
# 
#                     time: 315 HRESETn = 1, HSEL= 3, HWRITE = 1, HTRANS =  3, HSIZE = 0, HBURST = 1, HPROT = 0, HADDR = 600000ce, HWDATA = 7c, PREDICTOR_transaction_counter = 16, COMPARATOR_transaction_counter= 11
# RECIEVING PHASE: TIME: 315 WAITING FOR CONTROL PHASE TO transaction_finished
# UVM_INFO ../components/comparator.svh(99) @ 316: uvm_test_top.env_h.scoreboard_h.comparator_h [COMPARATOR] ACTUAL_SEQ_ITEM RECEIVED: -----------------------------------------------------------------------------------------------------------------------------------------
# 
#                     time: 316 HSEL: 0  HRDATA: 0  HRESP: 0   HREADY: 1, PREDICTOR_transaction_counter = 16, COMPARATOR_transaction_counter= 11
# UVM_INFO ../components/comparator.svh(103) @ 316: uvm_test_top.env_h.scoreboard_h.comparator_h [SCOREBOARD] PASS
# UVM_INFO ../components/comparator.svh(87) @ 316: uvm_test_top.env_h.scoreboard_h.comparator_h [COMPARATOR] RUN PHASE
# UVM_INFO ../components/comparator.svh(91) @ 316: uvm_test_top.env_h.scoreboard_h.comparator_h [COMPARATOR] EXPECTED_SEQ_ITEM RECEIVED: -----------------------------------------------------------------------------------------------------------------------------------------
# 
#                      time: 316  HRESETn = 1, HSEL= 3, HWRITE = 1, HTRANS =  3, HSIZE = 0, HBURST = 1, HPROT = 0, HADDR = 600000ce, HWDATA = b1, HRDATA = 0, HRESP = 0, HREADY = 1, PREDICTOR_transaction_counter = 16, COMPARATOR_transaction_counter= 12
# UVM_INFO ../components/outputs_monitor.svh(76) @ 325: uvm_test_top.env_h.passive_agent_h.outputs_monitor_h [uvm_test_top.env_h.passive_agent_h.outputs_monitor_h] OUTPUTS SENT TO THE COMPARATOR
# UVM_INFO ../components/predictor.svh(362) @ 325: uvm_test_top.env_h.scoreboard_h.predictor_h [PREDICTOR] WRITE_subordinate3:x7c, 7c, 600000dd
# UVM_INFO ../components/predictor.svh(196) @ 325: uvm_test_top.env_h.scoreboard_h.predictor_h [PREDICTOR] EXPECTED_DATA: -----------------------------------------------------------------------------------------------------------------------------------------
# 
#                     time: 325 HRESETn = 1, HSEL= 3, HWRITE = 1, HTRANS =  3, HSIZE = 0, HBURST = 1, HPROT = 0, HADDR = 600000ce, HWDATA = 7c, PREDICTOR_transaction_counter = 17, COMPARATOR_transaction_counter= 12
# my_predictor run phase
# UVM_INFO ../components/driver.svh(64) @ 325: uvm_test_top.env_h.active_agent_h.driver_h [uvm_test_top.env_h.active_agent_h.driver_h] DRIVEN_ITEM:-----------------------------------------------------------------------------------------------------------------------------------------
# 
#                     time: 325 HRESETn = 1, HSEL= 3, HWRITE = 1, HTRANS =  3, HSIZE = 0, HBURST = 1, HPROT = 0, HADDR = 600000ce, HWDATA = 82, PREDICTOR_transaction_counter = 17, COMPARATOR_transaction_counter= 12
# RECIEVING PHASE: TIME: 325 WAITING FOR CONTROL PHASE TO transaction_finished
# UVM_INFO ../components/comparator.svh(99) @ 326: uvm_test_top.env_h.scoreboard_h.comparator_h [COMPARATOR] ACTUAL_SEQ_ITEM RECEIVED: -----------------------------------------------------------------------------------------------------------------------------------------
# 
#                     time: 326 HSEL: 0  HRDATA: 0  HRESP: 0   HREADY: 1, PREDICTOR_transaction_counter = 17, COMPARATOR_transaction_counter= 12
# UVM_INFO ../components/comparator.svh(103) @ 326: uvm_test_top.env_h.scoreboard_h.comparator_h [SCOREBOARD] PASS
# UVM_INFO ../components/comparator.svh(87) @ 326: uvm_test_top.env_h.scoreboard_h.comparator_h [COMPARATOR] RUN PHASE
# UVM_INFO ../components/comparator.svh(91) @ 326: uvm_test_top.env_h.scoreboard_h.comparator_h [COMPARATOR] EXPECTED_SEQ_ITEM RECEIVED: -----------------------------------------------------------------------------------------------------------------------------------------
# 
#                      time: 326  HRESETn = 1, HSEL= 3, HWRITE = 1, HTRANS =  3, HSIZE = 0, HBURST = 1, HPROT = 0, HADDR = 600000ce, HWDATA = 2b, HRDATA = 0, HRESP = 0, HREADY = 1, PREDICTOR_transaction_counter = 17, COMPARATOR_transaction_counter= 13
# UVM_INFO ../components/outputs_monitor.svh(76) @ 335: uvm_test_top.env_h.passive_agent_h.outputs_monitor_h [uvm_test_top.env_h.passive_agent_h.outputs_monitor_h] OUTPUTS SENT TO THE COMPARATOR
# UVM_INFO ../components/predictor.svh(362) @ 335: uvm_test_top.env_h.scoreboard_h.predictor_h [PREDICTOR] WRITE_subordinate3:x82, 82, 600000de
# UVM_INFO ../components/predictor.svh(196) @ 335: uvm_test_top.env_h.scoreboard_h.predictor_h [PREDICTOR] EXPECTED_DATA: -----------------------------------------------------------------------------------------------------------------------------------------
# 
#                     time: 335 HRESETn = 1, HSEL= 3, HWRITE = 1, HTRANS =  3, HSIZE = 0, HBURST = 1, HPROT = 0, HADDR = 600000ce, HWDATA = 82, PREDICTOR_transaction_counter = 18, COMPARATOR_transaction_counter= 13
# my_predictor run phase
# UVM_INFO ../components/driver.svh(64) @ 335: uvm_test_top.env_h.active_agent_h.driver_h [uvm_test_top.env_h.active_agent_h.driver_h] DRIVEN_ITEM:-----------------------------------------------------------------------------------------------------------------------------------------
# 
#                     time: 335 HRESETn = 1, HSEL= 3, HWRITE = 1, HTRANS =  3, HSIZE = 0, HBURST = 1, HPROT = 0, HADDR = 600000ce, HWDATA = 9f, PREDICTOR_transaction_counter = 18, COMPARATOR_transaction_counter= 13
# RECIEVING PHASE: TIME: 335 WAITING FOR CONTROL PHASE TO transaction_finished
# UVM_INFO ../components/comparator.svh(99) @ 336: uvm_test_top.env_h.scoreboard_h.comparator_h [COMPARATOR] ACTUAL_SEQ_ITEM RECEIVED: -----------------------------------------------------------------------------------------------------------------------------------------
# 
#                     time: 336 HSEL: 0  HRDATA: 0  HRESP: 0   HREADY: 1, PREDICTOR_transaction_counter = 18, COMPARATOR_transaction_counter= 13
# UVM_INFO ../components/comparator.svh(103) @ 336: uvm_test_top.env_h.scoreboard_h.comparator_h [SCOREBOARD] PASS
# UVM_INFO ../components/comparator.svh(87) @ 336: uvm_test_top.env_h.scoreboard_h.comparator_h [COMPARATOR] RUN PHASE
# UVM_INFO ../components/comparator.svh(91) @ 336: uvm_test_top.env_h.scoreboard_h.comparator_h [COMPARATOR] EXPECTED_SEQ_ITEM RECEIVED: -----------------------------------------------------------------------------------------------------------------------------------------
# 
#                      time: 336  HRESETn = 1, HSEL= 3, HWRITE = 1, HTRANS =  3, HSIZE = 0, HBURST = 1, HPROT = 0, HADDR = 600000ce, HWDATA = fe, HRDATA = 0, HRESP = 0, HREADY = 1, PREDICTOR_transaction_counter = 18, COMPARATOR_transaction_counter= 14
# UVM_INFO ../components/outputs_monitor.svh(76) @ 345: uvm_test_top.env_h.passive_agent_h.outputs_monitor_h [uvm_test_top.env_h.passive_agent_h.outputs_monitor_h] OUTPUTS SENT TO THE COMPARATOR
# UVM_INFO ../components/predictor.svh(362) @ 345: uvm_test_top.env_h.scoreboard_h.predictor_h [PREDICTOR] WRITE_subordinate3:x9f, 9f, 600000df
# UVM_INFO ../components/predictor.svh(196) @ 345: uvm_test_top.env_h.scoreboard_h.predictor_h [PREDICTOR] EXPECTED_DATA: -----------------------------------------------------------------------------------------------------------------------------------------
# 
#                     time: 345 HRESETn = 1, HSEL= 3, HWRITE = 1, HTRANS =  3, HSIZE = 0, HBURST = 1, HPROT = 0, HADDR = 600000ce, HWDATA = 9f, PREDICTOR_transaction_counter = 19, COMPARATOR_transaction_counter= 14
# my_predictor run phase
# UVM_INFO ../components/driver.svh(64) @ 345: uvm_test_top.env_h.active_agent_h.driver_h [uvm_test_top.env_h.active_agent_h.driver_h] DRIVEN_ITEM:-----------------------------------------------------------------------------------------------------------------------------------------
# 
#                     time: 345 HRESETn = 1, HSEL= 3, HWRITE = 1, HTRANS =  3, HSIZE = 0, HBURST = 1, HPROT = 0, HADDR = 600000ce, HWDATA = 0, PREDICTOR_transaction_counter = 19, COMPARATOR_transaction_counter= 14
# RECIEVING PHASE: TIME: 345 WAITING FOR CONTROL PHASE TO transaction_finished
# UVM_INFO ../components/comparator.svh(99) @ 346: uvm_test_top.env_h.scoreboard_h.comparator_h [COMPARATOR] ACTUAL_SEQ_ITEM RECEIVED: -----------------------------------------------------------------------------------------------------------------------------------------
# 
#                     time: 346 HSEL: 0  HRDATA: 0  HRESP: 0   HREADY: 1, PREDICTOR_transaction_counter = 19, COMPARATOR_transaction_counter= 14
# UVM_INFO ../components/comparator.svh(103) @ 346: uvm_test_top.env_h.scoreboard_h.comparator_h [SCOREBOARD] PASS
# UVM_INFO ../components/comparator.svh(87) @ 346: uvm_test_top.env_h.scoreboard_h.comparator_h [COMPARATOR] RUN PHASE
# UVM_INFO ../components/comparator.svh(91) @ 346: uvm_test_top.env_h.scoreboard_h.comparator_h [COMPARATOR] EXPECTED_SEQ_ITEM RECEIVED: -----------------------------------------------------------------------------------------------------------------------------------------
# 
#                      time: 346  HRESETn = 1, HSEL= 3, HWRITE = 1, HTRANS =  3, HSIZE = 0, HBURST = 1, HPROT = 0, HADDR = 600000ce, HWDATA = e9, HRDATA = 0, HRESP = 0, HREADY = 1, PREDICTOR_transaction_counter = 19, COMPARATOR_transaction_counter= 15
# UVM_INFO ../components/outputs_monitor.svh(76) @ 355: uvm_test_top.env_h.passive_agent_h.outputs_monitor_h [uvm_test_top.env_h.passive_agent_h.outputs_monitor_h] OUTPUTS SENT TO THE COMPARATOR
# UVM_INFO ../components/predictor.svh(362) @ 355: uvm_test_top.env_h.scoreboard_h.predictor_h [PREDICTOR] WRITE_subordinate3:x00, 0, 600000e0
# UVM_INFO ../components/predictor.svh(196) @ 355: uvm_test_top.env_h.scoreboard_h.predictor_h [PREDICTOR] EXPECTED_DATA: -----------------------------------------------------------------------------------------------------------------------------------------
# 
#                     time: 355 HRESETn = 1, HSEL= 3, HWRITE = 1, HTRANS =  3, HSIZE = 0, HBURST = 1, HPROT = 0, HADDR = 600000ce, HWDATA = 0, PREDICTOR_transaction_counter = 20, COMPARATOR_transaction_counter= 15
# my_predictor run phase
# UVM_INFO ../components/driver.svh(64) @ 355: uvm_test_top.env_h.active_agent_h.driver_h [uvm_test_top.env_h.active_agent_h.driver_h] DRIVEN_ITEM:-----------------------------------------------------------------------------------------------------------------------------------------
# 
#                     time: 355 HRESETn = 1, HSEL= 3, HWRITE = 1, HTRANS =  3, HSIZE = 0, HBURST = 1, HPROT = 0, HADDR = 600000ce, HWDATA = 1d, PREDICTOR_transaction_counter = 20, COMPARATOR_transaction_counter= 15
# RECIEVING PHASE: TIME: 355 WAITING FOR CONTROL PHASE TO transaction_finished
# UVM_INFO ../components/comparator.svh(99) @ 356: uvm_test_top.env_h.scoreboard_h.comparator_h [COMPARATOR] ACTUAL_SEQ_ITEM RECEIVED: -----------------------------------------------------------------------------------------------------------------------------------------
# 
#                     time: 356 HSEL: 0  HRDATA: 0  HRESP: 0   HREADY: 1, PREDICTOR_transaction_counter = 20, COMPARATOR_transaction_counter= 15
# UVM_INFO ../components/comparator.svh(103) @ 356: uvm_test_top.env_h.scoreboard_h.comparator_h [SCOREBOARD] PASS
# UVM_INFO ../components/comparator.svh(87) @ 356: uvm_test_top.env_h.scoreboard_h.comparator_h [COMPARATOR] RUN PHASE
# UVM_INFO ../components/comparator.svh(91) @ 356: uvm_test_top.env_h.scoreboard_h.comparator_h [COMPARATOR] EXPECTED_SEQ_ITEM RECEIVED: -----------------------------------------------------------------------------------------------------------------------------------------
# 
#                      time: 356  HRESETn = 1, HSEL= 3, HWRITE = 1, HTRANS =  3, HSIZE = 0, HBURST = 1, HPROT = 0, HADDR = 600000ce, HWDATA = 7c, HRDATA = 0, HRESP = 0, HREADY = 1, PREDICTOR_transaction_counter = 20, COMPARATOR_transaction_counter= 16
# UVM_INFO ../components/outputs_monitor.svh(76) @ 365: uvm_test_top.env_h.passive_agent_h.outputs_monitor_h [uvm_test_top.env_h.passive_agent_h.outputs_monitor_h] OUTPUTS SENT TO THE COMPARATOR
# UVM_INFO ../components/predictor.svh(362) @ 365: uvm_test_top.env_h.scoreboard_h.predictor_h [PREDICTOR] WRITE_subordinate3:x1d, 1d, 600000e1
# UVM_INFO ../components/predictor.svh(196) @ 365: uvm_test_top.env_h.scoreboard_h.predictor_h [PREDICTOR] EXPECTED_DATA: -----------------------------------------------------------------------------------------------------------------------------------------
# 
#                     time: 365 HRESETn = 1, HSEL= 3, HWRITE = 1, HTRANS =  3, HSIZE = 0, HBURST = 1, HPROT = 0, HADDR = 600000ce, HWDATA = 1d, PREDICTOR_transaction_counter = 21, COMPARATOR_transaction_counter= 16
# my_predictor run phase
# UVM_INFO ../components/driver.svh(64) @ 365: uvm_test_top.env_h.active_agent_h.driver_h [uvm_test_top.env_h.active_agent_h.driver_h] DRIVEN_ITEM:-----------------------------------------------------------------------------------------------------------------------------------------
# 
#                     time: 365 HRESETn = 1, HSEL= 3, HWRITE = 1, HTRANS =  3, HSIZE = 0, HBURST = 1, HPROT = 0, HADDR = 600000ce, HWDATA = c3, PREDICTOR_transaction_counter = 21, COMPARATOR_transaction_counter= 16
# RECIEVING PHASE: TIME: 365 WAITING FOR CONTROL PHASE TO transaction_finished
# UVM_INFO ../components/comparator.svh(99) @ 366: uvm_test_top.env_h.scoreboard_h.comparator_h [COMPARATOR] ACTUAL_SEQ_ITEM RECEIVED: -----------------------------------------------------------------------------------------------------------------------------------------
# 
#                     time: 366 HSEL: 0  HRDATA: 0  HRESP: 0   HREADY: 1, PREDICTOR_transaction_counter = 21, COMPARATOR_transaction_counter= 16
# UVM_INFO ../components/comparator.svh(103) @ 366: uvm_test_top.env_h.scoreboard_h.comparator_h [SCOREBOARD] PASS
# UVM_INFO ../components/comparator.svh(87) @ 366: uvm_test_top.env_h.scoreboard_h.comparator_h [COMPARATOR] RUN PHASE
# UVM_INFO ../components/comparator.svh(91) @ 366: uvm_test_top.env_h.scoreboard_h.comparator_h [COMPARATOR] EXPECTED_SEQ_ITEM RECEIVED: -----------------------------------------------------------------------------------------------------------------------------------------
# 
#                      time: 366  HRESETn = 1, HSEL= 3, HWRITE = 1, HTRANS =  3, HSIZE = 0, HBURST = 1, HPROT = 0, HADDR = 600000ce, HWDATA = 82, HRDATA = 0, HRESP = 0, HREADY = 1, PREDICTOR_transaction_counter = 21, COMPARATOR_transaction_counter= 17
# UVM_INFO ../components/outputs_monitor.svh(76) @ 375: uvm_test_top.env_h.passive_agent_h.outputs_monitor_h [uvm_test_top.env_h.passive_agent_h.outputs_monitor_h] OUTPUTS SENT TO THE COMPARATOR
# UVM_INFO ../components/predictor.svh(362) @ 375: uvm_test_top.env_h.scoreboard_h.predictor_h [PREDICTOR] WRITE_subordinate3:xc3, c3, 600000e2
# UVM_INFO ../components/predictor.svh(196) @ 375: uvm_test_top.env_h.scoreboard_h.predictor_h [PREDICTOR] EXPECTED_DATA: -----------------------------------------------------------------------------------------------------------------------------------------
# 
#                     time: 375 HRESETn = 1, HSEL= 3, HWRITE = 1, HTRANS =  3, HSIZE = 0, HBURST = 1, HPROT = 0, HADDR = 600000ce, HWDATA = c3, PREDICTOR_transaction_counter = 22, COMPARATOR_transaction_counter= 17
# my_predictor run phase
# UVM_INFO ../components/driver.svh(64) @ 375: uvm_test_top.env_h.active_agent_h.driver_h [uvm_test_top.env_h.active_agent_h.driver_h] DRIVEN_ITEM:-----------------------------------------------------------------------------------------------------------------------------------------
# 
#                     time: 375 HRESETn = 1, HSEL= 3, HWRITE = 1, HTRANS =  3, HSIZE = 0, HBURST = 1, HPROT = 0, HADDR = 600000ce, HWDATA = 56, PREDICTOR_transaction_counter = 22, COMPARATOR_transaction_counter= 17
# RECIEVING PHASE: TIME: 375 WAITING FOR CONTROL PHASE TO transaction_finished
# UVM_INFO ../components/comparator.svh(99) @ 376: uvm_test_top.env_h.scoreboard_h.comparator_h [COMPARATOR] ACTUAL_SEQ_ITEM RECEIVED: -----------------------------------------------------------------------------------------------------------------------------------------
# 
#                     time: 376 HSEL: 0  HRDATA: 0  HRESP: 0   HREADY: 1, PREDICTOR_transaction_counter = 22, COMPARATOR_transaction_counter= 17
# UVM_INFO ../components/comparator.svh(103) @ 376: uvm_test_top.env_h.scoreboard_h.comparator_h [SCOREBOARD] PASS
# UVM_INFO ../components/comparator.svh(87) @ 376: uvm_test_top.env_h.scoreboard_h.comparator_h [COMPARATOR] RUN PHASE
# UVM_INFO ../components/comparator.svh(91) @ 376: uvm_test_top.env_h.scoreboard_h.comparator_h [COMPARATOR] EXPECTED_SEQ_ITEM RECEIVED: -----------------------------------------------------------------------------------------------------------------------------------------
# 
#                      time: 376  HRESETn = 1, HSEL= 3, HWRITE = 1, HTRANS =  3, HSIZE = 0, HBURST = 1, HPROT = 0, HADDR = 600000ce, HWDATA = 9f, HRDATA = 0, HRESP = 0, HREADY = 1, PREDICTOR_transaction_counter = 22, COMPARATOR_transaction_counter= 18
# UVM_INFO ../components/outputs_monitor.svh(76) @ 385: uvm_test_top.env_h.passive_agent_h.outputs_monitor_h [uvm_test_top.env_h.passive_agent_h.outputs_monitor_h] OUTPUTS SENT TO THE COMPARATOR
# UVM_INFO ../components/predictor.svh(362) @ 385: uvm_test_top.env_h.scoreboard_h.predictor_h [PREDICTOR] WRITE_subordinate3:x56, 56, 600000e3
# UVM_INFO ../components/predictor.svh(196) @ 385: uvm_test_top.env_h.scoreboard_h.predictor_h [PREDICTOR] EXPECTED_DATA: -----------------------------------------------------------------------------------------------------------------------------------------
# 
#                     time: 385 HRESETn = 1, HSEL= 3, HWRITE = 1, HTRANS =  3, HSIZE = 0, HBURST = 1, HPROT = 0, HADDR = 600000ce, HWDATA = 56, PREDICTOR_transaction_counter = 23, COMPARATOR_transaction_counter= 18
# my_predictor run phase
# UVM_INFO ../components/driver.svh(64) @ 385: uvm_test_top.env_h.active_agent_h.driver_h [uvm_test_top.env_h.active_agent_h.driver_h] DRIVEN_ITEM:-----------------------------------------------------------------------------------------------------------------------------------------
# 
#                     time: 385 HRESETn = 1, HSEL= 3, HWRITE = 1, HTRANS =  3, HSIZE = 0, HBURST = 1, HPROT = 0, HADDR = 600000ce, HWDATA = 41, PREDICTOR_transaction_counter = 23, COMPARATOR_transaction_counter= 18
# RECIEVING PHASE: TIME: 385 WAITING FOR CONTROL PHASE TO transaction_finished
# UVM_INFO ../components/comparator.svh(99) @ 386: uvm_test_top.env_h.scoreboard_h.comparator_h [COMPARATOR] ACTUAL_SEQ_ITEM RECEIVED: -----------------------------------------------------------------------------------------------------------------------------------------
# 
#                     time: 386 HSEL: 0  HRDATA: 0  HRESP: 0   HREADY: 1, PREDICTOR_transaction_counter = 23, COMPARATOR_transaction_counter= 18
# UVM_INFO ../components/comparator.svh(103) @ 386: uvm_test_top.env_h.scoreboard_h.comparator_h [SCOREBOARD] PASS
# UVM_INFO ../components/comparator.svh(87) @ 386: uvm_test_top.env_h.scoreboard_h.comparator_h [COMPARATOR] RUN PHASE
# UVM_INFO ../components/comparator.svh(91) @ 386: uvm_test_top.env_h.scoreboard_h.comparator_h [COMPARATOR] EXPECTED_SEQ_ITEM RECEIVED: -----------------------------------------------------------------------------------------------------------------------------------------
# 
#                      time: 386  HRESETn = 1, HSEL= 3, HWRITE = 1, HTRANS =  3, HSIZE = 0, HBURST = 1, HPROT = 0, HADDR = 600000ce, HWDATA = 0, HRDATA = 0, HRESP = 0, HREADY = 1, PREDICTOR_transaction_counter = 23, COMPARATOR_transaction_counter= 19
# UVM_INFO ../components/outputs_monitor.svh(76) @ 395: uvm_test_top.env_h.passive_agent_h.outputs_monitor_h [uvm_test_top.env_h.passive_agent_h.outputs_monitor_h] OUTPUTS SENT TO THE COMPARATOR
# UVM_INFO ../components/predictor.svh(362) @ 395: uvm_test_top.env_h.scoreboard_h.predictor_h [PREDICTOR] WRITE_subordinate3:x41, 41, 600000e4
# UVM_INFO ../components/predictor.svh(196) @ 395: uvm_test_top.env_h.scoreboard_h.predictor_h [PREDICTOR] EXPECTED_DATA: -----------------------------------------------------------------------------------------------------------------------------------------
# 
#                     time: 395 HRESETn = 1, HSEL= 3, HWRITE = 1, HTRANS =  3, HSIZE = 0, HBURST = 1, HPROT = 0, HADDR = 600000ce, HWDATA = 41, PREDICTOR_transaction_counter = 24, COMPARATOR_transaction_counter= 19
# my_predictor run phase
# UVM_INFO ../components/driver.svh(64) @ 395: uvm_test_top.env_h.active_agent_h.driver_h [uvm_test_top.env_h.active_agent_h.driver_h] DRIVEN_ITEM:-----------------------------------------------------------------------------------------------------------------------------------------
# 
#                     time: 395 HRESETn = 1, HSEL= 3, HWRITE = 1, HTRANS =  3, HSIZE = 0, HBURST = 1, HPROT = 0, HADDR = 600000ce, HWDATA = ab, PREDICTOR_transaction_counter = 24, COMPARATOR_transaction_counter= 19
# RECIEVING PHASE: TIME: 395 WAITING FOR CONTROL PHASE TO transaction_finished
# UVM_INFO ../components/comparator.svh(99) @ 396: uvm_test_top.env_h.scoreboard_h.comparator_h [COMPARATOR] ACTUAL_SEQ_ITEM RECEIVED: -----------------------------------------------------------------------------------------------------------------------------------------
# 
#                     time: 396 HSEL: 0  HRDATA: 0  HRESP: 0   HREADY: 1, PREDICTOR_transaction_counter = 24, COMPARATOR_transaction_counter= 19
# UVM_INFO ../components/comparator.svh(103) @ 396: uvm_test_top.env_h.scoreboard_h.comparator_h [SCOREBOARD] PASS
# UVM_INFO ../components/comparator.svh(87) @ 396: uvm_test_top.env_h.scoreboard_h.comparator_h [COMPARATOR] RUN PHASE
# UVM_INFO ../components/comparator.svh(91) @ 396: uvm_test_top.env_h.scoreboard_h.comparator_h [COMPARATOR] EXPECTED_SEQ_ITEM RECEIVED: -----------------------------------------------------------------------------------------------------------------------------------------
# 
#                      time: 396  HRESETn = 1, HSEL= 3, HWRITE = 1, HTRANS =  3, HSIZE = 0, HBURST = 1, HPROT = 0, HADDR = 600000ce, HWDATA = 1d, HRDATA = 0, HRESP = 0, HREADY = 1, PREDICTOR_transaction_counter = 24, COMPARATOR_transaction_counter= 20
# UVM_INFO ../components/outputs_monitor.svh(76) @ 405: uvm_test_top.env_h.passive_agent_h.outputs_monitor_h [uvm_test_top.env_h.passive_agent_h.outputs_monitor_h] OUTPUTS SENT TO THE COMPARATOR
# UVM_INFO ../components/predictor.svh(362) @ 405: uvm_test_top.env_h.scoreboard_h.predictor_h [PREDICTOR] WRITE_subordinate3:xab, ab, 600000e5
# UVM_INFO ../components/predictor.svh(196) @ 405: uvm_test_top.env_h.scoreboard_h.predictor_h [PREDICTOR] EXPECTED_DATA: -----------------------------------------------------------------------------------------------------------------------------------------
# 
#                     time: 405 HRESETn = 1, HSEL= 3, HWRITE = 1, HTRANS =  3, HSIZE = 0, HBURST = 1, HPROT = 0, HADDR = 600000ce, HWDATA = ab, PREDICTOR_transaction_counter = 25, COMPARATOR_transaction_counter= 20
# my_predictor run phase
# UVM_INFO ../components/driver.svh(64) @ 405: uvm_test_top.env_h.active_agent_h.driver_h [uvm_test_top.env_h.active_agent_h.driver_h] DRIVEN_ITEM:-----------------------------------------------------------------------------------------------------------------------------------------
# 
#                     time: 405 HRESETn = 1, HSEL= 3, HWRITE = 1, HTRANS =  3, HSIZE = 0, HBURST = 1, HPROT = 0, HADDR = 600000ce, HWDATA = 3e, PREDICTOR_transaction_counter = 25, COMPARATOR_transaction_counter= 20
# RECIEVING PHASE: TIME: 405 WAITING FOR CONTROL PHASE TO transaction_finished
# UVM_INFO ../components/comparator.svh(99) @ 406: uvm_test_top.env_h.scoreboard_h.comparator_h [COMPARATOR] ACTUAL_SEQ_ITEM RECEIVED: -----------------------------------------------------------------------------------------------------------------------------------------
# 
#                     time: 406 HSEL: 0  HRDATA: 0  HRESP: 0   HREADY: 1, PREDICTOR_transaction_counter = 25, COMPARATOR_transaction_counter= 20
# UVM_INFO ../components/comparator.svh(103) @ 406: uvm_test_top.env_h.scoreboard_h.comparator_h [SCOREBOARD] PASS
# UVM_INFO ../components/comparator.svh(87) @ 406: uvm_test_top.env_h.scoreboard_h.comparator_h [COMPARATOR] RUN PHASE
# UVM_INFO ../components/comparator.svh(91) @ 406: uvm_test_top.env_h.scoreboard_h.comparator_h [COMPARATOR] EXPECTED_SEQ_ITEM RECEIVED: -----------------------------------------------------------------------------------------------------------------------------------------
# 
#                      time: 406  HRESETn = 1, HSEL= 3, HWRITE = 1, HTRANS =  3, HSIZE = 0, HBURST = 1, HPROT = 0, HADDR = 600000ce, HWDATA = c3, HRDATA = 0, HRESP = 0, HREADY = 1, PREDICTOR_transaction_counter = 25, COMPARATOR_transaction_counter= 21
# UVM_INFO ../components/outputs_monitor.svh(76) @ 415: uvm_test_top.env_h.passive_agent_h.outputs_monitor_h [uvm_test_top.env_h.passive_agent_h.outputs_monitor_h] OUTPUTS SENT TO THE COMPARATOR
# UVM_INFO ../components/predictor.svh(362) @ 415: uvm_test_top.env_h.scoreboard_h.predictor_h [PREDICTOR] WRITE_subordinate3:x3e, 3e, 600000e6
# UVM_INFO ../components/predictor.svh(196) @ 415: uvm_test_top.env_h.scoreboard_h.predictor_h [PREDICTOR] EXPECTED_DATA: -----------------------------------------------------------------------------------------------------------------------------------------
# 
#                     time: 415 HRESETn = 1, HSEL= 3, HWRITE = 1, HTRANS =  3, HSIZE = 0, HBURST = 1, HPROT = 0, HADDR = 600000ce, HWDATA = 3e, PREDICTOR_transaction_counter = 26, COMPARATOR_transaction_counter= 21
# my_predictor run phase
# UVM_INFO ../components/driver.svh(64) @ 415: uvm_test_top.env_h.active_agent_h.driver_h [uvm_test_top.env_h.active_agent_h.driver_h] DRIVEN_ITEM:-----------------------------------------------------------------------------------------------------------------------------------------
# 
#                     time: 415 HRESETn = 1, HSEL= 3, HWRITE = 1, HTRANS =  3, HSIZE = 0, HBURST = 1, HPROT = 0, HADDR = 600000ce, HWDATA = 29, PREDICTOR_transaction_counter = 26, COMPARATOR_transaction_counter= 21
# RECIEVING PHASE: TIME: 415 WAITING FOR CONTROL PHASE TO transaction_finished
# UVM_INFO ../components/comparator.svh(99) @ 416: uvm_test_top.env_h.scoreboard_h.comparator_h [COMPARATOR] ACTUAL_SEQ_ITEM RECEIVED: -----------------------------------------------------------------------------------------------------------------------------------------
# 
#                     time: 416 HSEL: 0  HRDATA: 0  HRESP: 0   HREADY: 1, PREDICTOR_transaction_counter = 26, COMPARATOR_transaction_counter= 21
# UVM_INFO ../components/comparator.svh(103) @ 416: uvm_test_top.env_h.scoreboard_h.comparator_h [SCOREBOARD] PASS
# UVM_INFO ../components/comparator.svh(87) @ 416: uvm_test_top.env_h.scoreboard_h.comparator_h [COMPARATOR] RUN PHASE
# UVM_INFO ../components/comparator.svh(91) @ 416: uvm_test_top.env_h.scoreboard_h.comparator_h [COMPARATOR] EXPECTED_SEQ_ITEM RECEIVED: -----------------------------------------------------------------------------------------------------------------------------------------
# 
#                      time: 416  HRESETn = 1, HSEL= 3, HWRITE = 1, HTRANS =  3, HSIZE = 0, HBURST = 1, HPROT = 0, HADDR = 600000ce, HWDATA = 56, HRDATA = 0, HRESP = 0, HREADY = 1, PREDICTOR_transaction_counter = 26, COMPARATOR_transaction_counter= 22
# UVM_INFO ../components/outputs_monitor.svh(76) @ 425: uvm_test_top.env_h.passive_agent_h.outputs_monitor_h [uvm_test_top.env_h.passive_agent_h.outputs_monitor_h] OUTPUTS SENT TO THE COMPARATOR
# UVM_INFO ../components/predictor.svh(362) @ 425: uvm_test_top.env_h.scoreboard_h.predictor_h [PREDICTOR] WRITE_subordinate3:x29, 29, 600000e7
# UVM_INFO ../components/predictor.svh(196) @ 425: uvm_test_top.env_h.scoreboard_h.predictor_h [PREDICTOR] EXPECTED_DATA: -----------------------------------------------------------------------------------------------------------------------------------------
# 
#                     time: 425 HRESETn = 1, HSEL= 3, HWRITE = 1, HTRANS =  3, HSIZE = 0, HBURST = 1, HPROT = 0, HADDR = 600000ce, HWDATA = 29, PREDICTOR_transaction_counter = 27, COMPARATOR_transaction_counter= 22
# my_predictor run phase
# UVM_INFO ../components/driver.svh(64) @ 425: uvm_test_top.env_h.active_agent_h.driver_h [uvm_test_top.env_h.active_agent_h.driver_h] DRIVEN_ITEM:-----------------------------------------------------------------------------------------------------------------------------------------
# 
#                     time: 425 HRESETn = 1, HSEL= 3, HWRITE = 1, HTRANS =  3, HSIZE = 0, HBURST = 1, HPROT = 0, HADDR = 600000ce, HWDATA = fc, PREDICTOR_transaction_counter = 27, COMPARATOR_transaction_counter= 22
# RECIEVING PHASE: TIME: 425 WAITING FOR CONTROL PHASE TO transaction_finished
# UVM_INFO ../components/comparator.svh(99) @ 426: uvm_test_top.env_h.scoreboard_h.comparator_h [COMPARATOR] ACTUAL_SEQ_ITEM RECEIVED: -----------------------------------------------------------------------------------------------------------------------------------------
# 
#                     time: 426 HSEL: 0  HRDATA: 0  HRESP: 0   HREADY: 1, PREDICTOR_transaction_counter = 27, COMPARATOR_transaction_counter= 22
# UVM_INFO ../components/comparator.svh(103) @ 426: uvm_test_top.env_h.scoreboard_h.comparator_h [SCOREBOARD] PASS
# UVM_INFO ../components/comparator.svh(87) @ 426: uvm_test_top.env_h.scoreboard_h.comparator_h [COMPARATOR] RUN PHASE
# UVM_INFO ../components/comparator.svh(91) @ 426: uvm_test_top.env_h.scoreboard_h.comparator_h [COMPARATOR] EXPECTED_SEQ_ITEM RECEIVED: -----------------------------------------------------------------------------------------------------------------------------------------
# 
#                      time: 426  HRESETn = 1, HSEL= 3, HWRITE = 1, HTRANS =  3, HSIZE = 0, HBURST = 1, HPROT = 0, HADDR = 600000ce, HWDATA = 41, HRDATA = 0, HRESP = 0, HREADY = 1, PREDICTOR_transaction_counter = 27, COMPARATOR_transaction_counter= 23
# UVM_INFO ../components/outputs_monitor.svh(76) @ 435: uvm_test_top.env_h.passive_agent_h.outputs_monitor_h [uvm_test_top.env_h.passive_agent_h.outputs_monitor_h] OUTPUTS SENT TO THE COMPARATOR
# UVM_INFO ../components/predictor.svh(362) @ 435: uvm_test_top.env_h.scoreboard_h.predictor_h [PREDICTOR] WRITE_subordinate3:xfc, fc, 600000e8
# UVM_INFO ../components/predictor.svh(196) @ 435: uvm_test_top.env_h.scoreboard_h.predictor_h [PREDICTOR] EXPECTED_DATA: -----------------------------------------------------------------------------------------------------------------------------------------
# 
#                     time: 435 HRESETn = 1, HSEL= 3, HWRITE = 1, HTRANS =  3, HSIZE = 0, HBURST = 1, HPROT = 0, HADDR = 600000ce, HWDATA = fc, PREDICTOR_transaction_counter = 28, COMPARATOR_transaction_counter= 23
# my_predictor run phase
# UVM_INFO ../components/driver.svh(64) @ 435: uvm_test_top.env_h.active_agent_h.driver_h [uvm_test_top.env_h.active_agent_h.driver_h] DRIVEN_ITEM:-----------------------------------------------------------------------------------------------------------------------------------------
# 
#                     time: 435 HRESETn = 1, HSEL= 3, HWRITE = 1, HTRANS =  3, HSIZE = 0, HBURST = 1, HPROT = 0, HADDR = 600000ce, HWDATA = 62, PREDICTOR_transaction_counter = 28, COMPARATOR_transaction_counter= 23
# RECIEVING PHASE: TIME: 435 WAITING FOR CONTROL PHASE TO transaction_finished
# UVM_INFO ../components/comparator.svh(99) @ 436: uvm_test_top.env_h.scoreboard_h.comparator_h [COMPARATOR] ACTUAL_SEQ_ITEM RECEIVED: -----------------------------------------------------------------------------------------------------------------------------------------
# 
#                     time: 436 HSEL: 0  HRDATA: 0  HRESP: 0   HREADY: 1, PREDICTOR_transaction_counter = 28, COMPARATOR_transaction_counter= 23
# UVM_INFO ../components/comparator.svh(103) @ 436: uvm_test_top.env_h.scoreboard_h.comparator_h [SCOREBOARD] PASS
# UVM_INFO ../components/comparator.svh(87) @ 436: uvm_test_top.env_h.scoreboard_h.comparator_h [COMPARATOR] RUN PHASE
# UVM_INFO ../components/comparator.svh(91) @ 436: uvm_test_top.env_h.scoreboard_h.comparator_h [COMPARATOR] EXPECTED_SEQ_ITEM RECEIVED: -----------------------------------------------------------------------------------------------------------------------------------------
# 
#                      time: 436  HRESETn = 1, HSEL= 3, HWRITE = 1, HTRANS =  3, HSIZE = 0, HBURST = 1, HPROT = 0, HADDR = 600000ce, HWDATA = ab, HRDATA = 0, HRESP = 0, HREADY = 1, PREDICTOR_transaction_counter = 28, COMPARATOR_transaction_counter= 24
# UVM_INFO ../components/outputs_monitor.svh(76) @ 445: uvm_test_top.env_h.passive_agent_h.outputs_monitor_h [uvm_test_top.env_h.passive_agent_h.outputs_monitor_h] OUTPUTS SENT TO THE COMPARATOR
# UVM_INFO ../components/predictor.svh(362) @ 445: uvm_test_top.env_h.scoreboard_h.predictor_h [PREDICTOR] WRITE_subordinate3:x62, 62, 600000e9
# UVM_INFO ../components/predictor.svh(196) @ 445: uvm_test_top.env_h.scoreboard_h.predictor_h [PREDICTOR] EXPECTED_DATA: -----------------------------------------------------------------------------------------------------------------------------------------
# 
#                     time: 445 HRESETn = 1, HSEL= 3, HWRITE = 1, HTRANS =  3, HSIZE = 0, HBURST = 1, HPROT = 0, HADDR = 600000ce, HWDATA = 62, PREDICTOR_transaction_counter = 29, COMPARATOR_transaction_counter= 24
# my_predictor run phase
# UVM_INFO ../components/driver.svh(64) @ 445: uvm_test_top.env_h.active_agent_h.driver_h [uvm_test_top.env_h.active_agent_h.driver_h] DRIVEN_ITEM:-----------------------------------------------------------------------------------------------------------------------------------------
# 
#                     time: 445 HRESETn = 1, HSEL= 3, HWRITE = 1, HTRANS =  3, HSIZE = 0, HBURST = 1, HPROT = 0, HADDR = 600000ce, HWDATA = 7f, PREDICTOR_transaction_counter = 29, COMPARATOR_transaction_counter= 24
# RECIEVING PHASE: TIME: 445 WAITING FOR CONTROL PHASE TO transaction_finished
# UVM_INFO ../components/comparator.svh(99) @ 446: uvm_test_top.env_h.scoreboard_h.comparator_h [COMPARATOR] ACTUAL_SEQ_ITEM RECEIVED: -----------------------------------------------------------------------------------------------------------------------------------------
# 
#                     time: 446 HSEL: 0  HRDATA: 0  HRESP: 0   HREADY: 1, PREDICTOR_transaction_counter = 29, COMPARATOR_transaction_counter= 24
# UVM_INFO ../components/comparator.svh(103) @ 446: uvm_test_top.env_h.scoreboard_h.comparator_h [SCOREBOARD] PASS
# UVM_INFO ../components/comparator.svh(87) @ 446: uvm_test_top.env_h.scoreboard_h.comparator_h [COMPARATOR] RUN PHASE
# UVM_INFO ../components/comparator.svh(91) @ 446: uvm_test_top.env_h.scoreboard_h.comparator_h [COMPARATOR] EXPECTED_SEQ_ITEM RECEIVED: -----------------------------------------------------------------------------------------------------------------------------------------
# 
#                      time: 446  HRESETn = 1, HSEL= 3, HWRITE = 1, HTRANS =  3, HSIZE = 0, HBURST = 1, HPROT = 0, HADDR = 600000ce, HWDATA = 3e, HRDATA = 0, HRESP = 0, HREADY = 1, PREDICTOR_transaction_counter = 29, COMPARATOR_transaction_counter= 25
# UVM_INFO ../components/outputs_monitor.svh(76) @ 455: uvm_test_top.env_h.passive_agent_h.outputs_monitor_h [uvm_test_top.env_h.passive_agent_h.outputs_monitor_h] OUTPUTS SENT TO THE COMPARATOR
# UVM_INFO ../components/predictor.svh(362) @ 455: uvm_test_top.env_h.scoreboard_h.predictor_h [PREDICTOR] WRITE_subordinate3:x7f, 7f, 600000ea
# UVM_INFO ../components/predictor.svh(196) @ 455: uvm_test_top.env_h.scoreboard_h.predictor_h [PREDICTOR] EXPECTED_DATA: -----------------------------------------------------------------------------------------------------------------------------------------
# 
#                     time: 455 HRESETn = 1, HSEL= 3, HWRITE = 1, HTRANS =  3, HSIZE = 0, HBURST = 1, HPROT = 0, HADDR = 600000ce, HWDATA = 7f, PREDICTOR_transaction_counter = 30, COMPARATOR_transaction_counter= 25
# my_predictor run phase
# UVM_INFO ../components/driver.svh(64) @ 455: uvm_test_top.env_h.active_agent_h.driver_h [uvm_test_top.env_h.active_agent_h.driver_h] DRIVEN_ITEM:-----------------------------------------------------------------------------------------------------------------------------------------
# 
#                     time: 455 HRESETn = 1, HSEL= 3, HWRITE = 1, HTRANS =  3, HSIZE = 0, HBURST = 1, HPROT = 0, HADDR = 600000ce, HWDATA = 80, PREDICTOR_transaction_counter = 30, COMPARATOR_transaction_counter= 25
# RECIEVING PHASE: TIME: 455 WAITING FOR CONTROL PHASE TO transaction_finished
# UVM_INFO ../components/comparator.svh(99) @ 456: uvm_test_top.env_h.scoreboard_h.comparator_h [COMPARATOR] ACTUAL_SEQ_ITEM RECEIVED: -----------------------------------------------------------------------------------------------------------------------------------------
# 
#                     time: 456 HSEL: 0  HRDATA: 0  HRESP: 0   HREADY: 1, PREDICTOR_transaction_counter = 30, COMPARATOR_transaction_counter= 25
# UVM_INFO ../components/comparator.svh(103) @ 456: uvm_test_top.env_h.scoreboard_h.comparator_h [SCOREBOARD] PASS
# UVM_INFO ../components/comparator.svh(87) @ 456: uvm_test_top.env_h.scoreboard_h.comparator_h [COMPARATOR] RUN PHASE
# UVM_INFO ../components/comparator.svh(91) @ 456: uvm_test_top.env_h.scoreboard_h.comparator_h [COMPARATOR] EXPECTED_SEQ_ITEM RECEIVED: -----------------------------------------------------------------------------------------------------------------------------------------
# 
#                      time: 456  HRESETn = 1, HSEL= 3, HWRITE = 1, HTRANS =  3, HSIZE = 0, HBURST = 1, HPROT = 0, HADDR = 600000ce, HWDATA = 29, HRDATA = 0, HRESP = 0, HREADY = 1, PREDICTOR_transaction_counter = 30, COMPARATOR_transaction_counter= 26
# UVM_INFO ../components/outputs_monitor.svh(76) @ 465: uvm_test_top.env_h.passive_agent_h.outputs_monitor_h [uvm_test_top.env_h.passive_agent_h.outputs_monitor_h] OUTPUTS SENT TO THE COMPARATOR
# UVM_INFO ../components/predictor.svh(362) @ 465: uvm_test_top.env_h.scoreboard_h.predictor_h [PREDICTOR] WRITE_subordinate3:x80, 80, 600000eb
# UVM_INFO ../components/predictor.svh(196) @ 465: uvm_test_top.env_h.scoreboard_h.predictor_h [PREDICTOR] EXPECTED_DATA: -----------------------------------------------------------------------------------------------------------------------------------------
# 
#                     time: 465 HRESETn = 1, HSEL= 3, HWRITE = 1, HTRANS =  3, HSIZE = 0, HBURST = 1, HPROT = 0, HADDR = 600000ce, HWDATA = 80, PREDICTOR_transaction_counter = 31, COMPARATOR_transaction_counter= 26
# my_predictor run phase
# UVM_INFO ../components/driver.svh(64) @ 465: uvm_test_top.env_h.active_agent_h.driver_h [uvm_test_top.env_h.active_agent_h.driver_h] DRIVEN_ITEM:-----------------------------------------------------------------------------------------------------------------------------------------
# 
#                     time: 465 HRESETn = 1, HSEL= 3, HWRITE = 1, HTRANS =  3, HSIZE = 0, HBURST = 1, HPROT = 0, HADDR = 600000ce, HWDATA = 9d, PREDICTOR_transaction_counter = 31, COMPARATOR_transaction_counter= 26
# RECIEVING PHASE: TIME: 465 WAITING FOR CONTROL PHASE TO transaction_finished
# UVM_INFO ../components/comparator.svh(99) @ 466: uvm_test_top.env_h.scoreboard_h.comparator_h [COMPARATOR] ACTUAL_SEQ_ITEM RECEIVED: -----------------------------------------------------------------------------------------------------------------------------------------
# 
#                     time: 466 HSEL: 0  HRDATA: 0  HRESP: 0   HREADY: 1, PREDICTOR_transaction_counter = 31, COMPARATOR_transaction_counter= 26
# UVM_INFO ../components/comparator.svh(103) @ 466: uvm_test_top.env_h.scoreboard_h.comparator_h [SCOREBOARD] PASS
# UVM_INFO ../components/comparator.svh(87) @ 466: uvm_test_top.env_h.scoreboard_h.comparator_h [COMPARATOR] RUN PHASE
# UVM_INFO ../components/comparator.svh(91) @ 466: uvm_test_top.env_h.scoreboard_h.comparator_h [COMPARATOR] EXPECTED_SEQ_ITEM RECEIVED: -----------------------------------------------------------------------------------------------------------------------------------------
# 
#                      time: 466  HRESETn = 1, HSEL= 3, HWRITE = 1, HTRANS =  3, HSIZE = 0, HBURST = 1, HPROT = 0, HADDR = 600000ce, HWDATA = fc, HRDATA = 0, HRESP = 0, HREADY = 1, PREDICTOR_transaction_counter = 31, COMPARATOR_transaction_counter= 27
# UVM_INFO ../components/outputs_monitor.svh(76) @ 475: uvm_test_top.env_h.passive_agent_h.outputs_monitor_h [uvm_test_top.env_h.passive_agent_h.outputs_monitor_h] OUTPUTS SENT TO THE COMPARATOR
# UVM_INFO ../components/predictor.svh(362) @ 475: uvm_test_top.env_h.scoreboard_h.predictor_h [PREDICTOR] WRITE_subordinate3:x9d, 9d, 600000ec
# UVM_INFO ../components/predictor.svh(196) @ 475: uvm_test_top.env_h.scoreboard_h.predictor_h [PREDICTOR] EXPECTED_DATA: -----------------------------------------------------------------------------------------------------------------------------------------
# 
#                     time: 475 HRESETn = 1, HSEL= 3, HWRITE = 1, HTRANS =  3, HSIZE = 0, HBURST = 1, HPROT = 0, HADDR = 600000ce, HWDATA = 9d, PREDICTOR_transaction_counter = 32, COMPARATOR_transaction_counter= 27
# my_predictor run phase
# UVM_INFO ../components/driver.svh(64) @ 475: uvm_test_top.env_h.active_agent_h.driver_h [uvm_test_top.env_h.active_agent_h.driver_h] DRIVEN_ITEM:-----------------------------------------------------------------------------------------------------------------------------------------
# 
#                     time: 475 HRESETn = 1, HSEL= 3, HWRITE = 1, HTRANS =  3, HSIZE = 0, HBURST = 1, HPROT = 0, HADDR = 600000ce, HWDATA = 3, PREDICTOR_transaction_counter = 32, COMPARATOR_transaction_counter= 27
# RECIEVING PHASE: TIME: 475 WAITING FOR CONTROL PHASE TO transaction_finished
# UVM_INFO ../components/comparator.svh(99) @ 476: uvm_test_top.env_h.scoreboard_h.comparator_h [COMPARATOR] ACTUAL_SEQ_ITEM RECEIVED: -----------------------------------------------------------------------------------------------------------------------------------------
# 
#                     time: 476 HSEL: 0  HRDATA: 0  HRESP: 0   HREADY: 1, PREDICTOR_transaction_counter = 32, COMPARATOR_transaction_counter= 27
# UVM_INFO ../components/comparator.svh(103) @ 476: uvm_test_top.env_h.scoreboard_h.comparator_h [SCOREBOARD] PASS
# UVM_INFO ../components/comparator.svh(87) @ 476: uvm_test_top.env_h.scoreboard_h.comparator_h [COMPARATOR] RUN PHASE
# UVM_INFO ../components/comparator.svh(91) @ 476: uvm_test_top.env_h.scoreboard_h.comparator_h [COMPARATOR] EXPECTED_SEQ_ITEM RECEIVED: -----------------------------------------------------------------------------------------------------------------------------------------
# 
#                      time: 476  HRESETn = 1, HSEL= 3, HWRITE = 1, HTRANS =  3, HSIZE = 0, HBURST = 1, HPROT = 0, HADDR = 600000ce, HWDATA = 62, HRDATA = 0, HRESP = 0, HREADY = 1, PREDICTOR_transaction_counter = 32, COMPARATOR_transaction_counter= 28
# UVM_INFO ../components/outputs_monitor.svh(76) @ 485: uvm_test_top.env_h.passive_agent_h.outputs_monitor_h [uvm_test_top.env_h.passive_agent_h.outputs_monitor_h] OUTPUTS SENT TO THE COMPARATOR
# UVM_INFO ../components/predictor.svh(362) @ 485: uvm_test_top.env_h.scoreboard_h.predictor_h [PREDICTOR] WRITE_subordinate3:x03, 3, 600000ed
# UVM_INFO ../components/predictor.svh(196) @ 485: uvm_test_top.env_h.scoreboard_h.predictor_h [PREDICTOR] EXPECTED_DATA: -----------------------------------------------------------------------------------------------------------------------------------------
# 
#                     time: 485 HRESETn = 1, HSEL= 3, HWRITE = 1, HTRANS =  3, HSIZE = 0, HBURST = 1, HPROT = 0, HADDR = 600000ce, HWDATA = 3, PREDICTOR_transaction_counter = 33, COMPARATOR_transaction_counter= 28
# my_predictor run phase
# UVM_INFO ../components/driver.svh(64) @ 485: uvm_test_top.env_h.active_agent_h.driver_h [uvm_test_top.env_h.active_agent_h.driver_h] DRIVEN_ITEM:-----------------------------------------------------------------------------------------------------------------------------------------
# 
#                     time: 485 HRESETn = 1, HSEL= 3, HWRITE = 1, HTRANS =  3, HSIZE = 0, HBURST = 1, HPROT = 0, HADDR = 600000ce, HWDATA = d6, PREDICTOR_transaction_counter = 33, COMPARATOR_transaction_counter= 28
# RECIEVING PHASE: TIME: 485 WAITING FOR CONTROL PHASE TO transaction_finished
# UVM_INFO ../components/comparator.svh(99) @ 486: uvm_test_top.env_h.scoreboard_h.comparator_h [COMPARATOR] ACTUAL_SEQ_ITEM RECEIVED: -----------------------------------------------------------------------------------------------------------------------------------------
# 
#                     time: 486 HSEL: 0  HRDATA: 0  HRESP: 0   HREADY: 1, PREDICTOR_transaction_counter = 33, COMPARATOR_transaction_counter= 28
# UVM_INFO ../components/comparator.svh(103) @ 486: uvm_test_top.env_h.scoreboard_h.comparator_h [SCOREBOARD] PASS
# UVM_INFO ../components/comparator.svh(87) @ 486: uvm_test_top.env_h.scoreboard_h.comparator_h [COMPARATOR] RUN PHASE
# UVM_INFO ../components/comparator.svh(91) @ 486: uvm_test_top.env_h.scoreboard_h.comparator_h [COMPARATOR] EXPECTED_SEQ_ITEM RECEIVED: -----------------------------------------------------------------------------------------------------------------------------------------
# 
#                      time: 486  HRESETn = 1, HSEL= 3, HWRITE = 1, HTRANS =  3, HSIZE = 0, HBURST = 1, HPROT = 0, HADDR = 600000ce, HWDATA = 7f, HRDATA = 0, HRESP = 0, HREADY = 1, PREDICTOR_transaction_counter = 33, COMPARATOR_transaction_counter= 29
# UVM_INFO ../components/outputs_monitor.svh(76) @ 495: uvm_test_top.env_h.passive_agent_h.outputs_monitor_h [uvm_test_top.env_h.passive_agent_h.outputs_monitor_h] OUTPUTS SENT TO THE COMPARATOR
# UVM_INFO ../components/predictor.svh(362) @ 495: uvm_test_top.env_h.scoreboard_h.predictor_h [PREDICTOR] WRITE_subordinate3:xd6, d6, 600000ee
# UVM_INFO ../components/predictor.svh(196) @ 495: uvm_test_top.env_h.scoreboard_h.predictor_h [PREDICTOR] EXPECTED_DATA: -----------------------------------------------------------------------------------------------------------------------------------------
# 
#                     time: 495 HRESETn = 1, HSEL= 3, HWRITE = 1, HTRANS =  3, HSIZE = 0, HBURST = 1, HPROT = 0, HADDR = 600000ce, HWDATA = d6, PREDICTOR_transaction_counter = 34, COMPARATOR_transaction_counter= 29
# my_predictor run phase
# UVM_INFO ../components/driver.svh(64) @ 495: uvm_test_top.env_h.active_agent_h.driver_h [uvm_test_top.env_h.active_agent_h.driver_h] DRIVEN_ITEM:-----------------------------------------------------------------------------------------------------------------------------------------
# 
#                     time: 495 HRESETn = 1, HSEL= 3, HWRITE = 1, HTRANS =  3, HSIZE = 0, HBURST = 1, HPROT = 0, HADDR = 600000ce, HWDATA = c1, PREDICTOR_transaction_counter = 34, COMPARATOR_transaction_counter= 29
# RECIEVING PHASE: TIME: 495 WAITING FOR CONTROL PHASE TO transaction_finished
# UVM_INFO ../components/comparator.svh(99) @ 496: uvm_test_top.env_h.scoreboard_h.comparator_h [COMPARATOR] ACTUAL_SEQ_ITEM RECEIVED: -----------------------------------------------------------------------------------------------------------------------------------------
# 
#                     time: 496 HSEL: 0  HRDATA: 0  HRESP: 0   HREADY: 1, PREDICTOR_transaction_counter = 34, COMPARATOR_transaction_counter= 29
# UVM_INFO ../components/comparator.svh(103) @ 496: uvm_test_top.env_h.scoreboard_h.comparator_h [SCOREBOARD] PASS
# UVM_INFO ../components/comparator.svh(87) @ 496: uvm_test_top.env_h.scoreboard_h.comparator_h [COMPARATOR] RUN PHASE
# UVM_INFO ../components/comparator.svh(91) @ 496: uvm_test_top.env_h.scoreboard_h.comparator_h [COMPARATOR] EXPECTED_SEQ_ITEM RECEIVED: -----------------------------------------------------------------------------------------------------------------------------------------
# 
#                      time: 496  HRESETn = 1, HSEL= 3, HWRITE = 1, HTRANS =  3, HSIZE = 0, HBURST = 1, HPROT = 0, HADDR = 600000ce, HWDATA = 80, HRDATA = 0, HRESP = 0, HREADY = 1, PREDICTOR_transaction_counter = 34, COMPARATOR_transaction_counter= 30
# UVM_INFO ../components/outputs_monitor.svh(76) @ 505: uvm_test_top.env_h.passive_agent_h.outputs_monitor_h [uvm_test_top.env_h.passive_agent_h.outputs_monitor_h] OUTPUTS SENT TO THE COMPARATOR
# UVM_INFO ../components/predictor.svh(362) @ 505: uvm_test_top.env_h.scoreboard_h.predictor_h [PREDICTOR] WRITE_subordinate3:xc1, c1, 600000ef
# UVM_INFO ../components/predictor.svh(196) @ 505: uvm_test_top.env_h.scoreboard_h.predictor_h [PREDICTOR] EXPECTED_DATA: -----------------------------------------------------------------------------------------------------------------------------------------
# 
#                     time: 505 HRESETn = 1, HSEL= 3, HWRITE = 1, HTRANS =  3, HSIZE = 0, HBURST = 1, HPROT = 0, HADDR = 600000ce, HWDATA = c1, PREDICTOR_transaction_counter = 35, COMPARATOR_transaction_counter= 30
# my_predictor run phase
# UVM_INFO ../components/driver.svh(64) @ 505: uvm_test_top.env_h.active_agent_h.driver_h [uvm_test_top.env_h.active_agent_h.driver_h] DRIVEN_ITEM:-----------------------------------------------------------------------------------------------------------------------------------------
# 
#                     time: 505 HRESETn = 1, HSEL= 3, HWRITE = 1, HTRANS =  3, HSIZE = 0, HBURST = 1, HPROT = 0, HADDR = 600000ce, HWDATA = 54, PREDICTOR_transaction_counter = 35, COMPARATOR_transaction_counter= 30
# RECIEVING PHASE: TIME: 505 WAITING FOR CONTROL PHASE TO transaction_finished
# UVM_INFO ../components/comparator.svh(99) @ 506: uvm_test_top.env_h.scoreboard_h.comparator_h [COMPARATOR] ACTUAL_SEQ_ITEM RECEIVED: -----------------------------------------------------------------------------------------------------------------------------------------
# 
#                     time: 506 HSEL: 0  HRDATA: 0  HRESP: 0   HREADY: 1, PREDICTOR_transaction_counter = 35, COMPARATOR_transaction_counter= 30
# UVM_INFO ../components/comparator.svh(103) @ 506: uvm_test_top.env_h.scoreboard_h.comparator_h [SCOREBOARD] PASS
# UVM_INFO ../components/comparator.svh(87) @ 506: uvm_test_top.env_h.scoreboard_h.comparator_h [COMPARATOR] RUN PHASE
# UVM_INFO ../components/comparator.svh(91) @ 506: uvm_test_top.env_h.scoreboard_h.comparator_h [COMPARATOR] EXPECTED_SEQ_ITEM RECEIVED: -----------------------------------------------------------------------------------------------------------------------------------------
# 
#                      time: 506  HRESETn = 1, HSEL= 3, HWRITE = 1, HTRANS =  3, HSIZE = 0, HBURST = 1, HPROT = 0, HADDR = 600000ce, HWDATA = 9d, HRDATA = 0, HRESP = 0, HREADY = 1, PREDICTOR_transaction_counter = 35, COMPARATOR_transaction_counter= 31
# UVM_INFO ../components/outputs_monitor.svh(76) @ 515: uvm_test_top.env_h.passive_agent_h.outputs_monitor_h [uvm_test_top.env_h.passive_agent_h.outputs_monitor_h] OUTPUTS SENT TO THE COMPARATOR
# UVM_INFO ../components/predictor.svh(362) @ 515: uvm_test_top.env_h.scoreboard_h.predictor_h [PREDICTOR] WRITE_subordinate3:x54, 54, 600000f0
# UVM_INFO ../components/predictor.svh(196) @ 515: uvm_test_top.env_h.scoreboard_h.predictor_h [PREDICTOR] EXPECTED_DATA: -----------------------------------------------------------------------------------------------------------------------------------------
# 
#                     time: 515 HRESETn = 1, HSEL= 3, HWRITE = 1, HTRANS =  3, HSIZE = 0, HBURST = 1, HPROT = 0, HADDR = 600000ce, HWDATA = 54, PREDICTOR_transaction_counter = 36, COMPARATOR_transaction_counter= 31
# my_predictor run phase
# UVM_INFO ../components/driver.svh(64) @ 515: uvm_test_top.env_h.active_agent_h.driver_h [uvm_test_top.env_h.active_agent_h.driver_h] DRIVEN_ITEM:-----------------------------------------------------------------------------------------------------------------------------------------
# 
#                     time: 515 HRESETn = 1, HSEL= 3, HWRITE = 1, HTRANS =  3, HSIZE = 0, HBURST = 1, HPROT = 0, HADDR = 600000ce, HWDATA = be, PREDICTOR_transaction_counter = 36, COMPARATOR_transaction_counter= 31
# RECIEVING PHASE: TIME: 515 WAITING FOR CONTROL PHASE TO transaction_finished
# UVM_INFO ../components/comparator.svh(99) @ 516: uvm_test_top.env_h.scoreboard_h.comparator_h [COMPARATOR] ACTUAL_SEQ_ITEM RECEIVED: -----------------------------------------------------------------------------------------------------------------------------------------
# 
#                     time: 516 HSEL: 0  HRDATA: 0  HRESP: 0   HREADY: 1, PREDICTOR_transaction_counter = 36, COMPARATOR_transaction_counter= 31
# UVM_INFO ../components/comparator.svh(103) @ 516: uvm_test_top.env_h.scoreboard_h.comparator_h [SCOREBOARD] PASS
# UVM_INFO ../components/comparator.svh(87) @ 516: uvm_test_top.env_h.scoreboard_h.comparator_h [COMPARATOR] RUN PHASE
# UVM_INFO ../components/comparator.svh(91) @ 516: uvm_test_top.env_h.scoreboard_h.comparator_h [COMPARATOR] EXPECTED_SEQ_ITEM RECEIVED: -----------------------------------------------------------------------------------------------------------------------------------------
# 
