# //  Questa Sim-64
# //  Version 2021.1 win64 Jan 19 2021
# //
# //  Copyright 1991-2021 Mentor Graphics Corporation
# //  All Rights Reserved.
# //
# //  QuestaSim and its associated documentation contain trade
# //  secrets and commercial or financial information that are the property of
# //  Mentor Graphics Corporation and are privileged, confidential,
# //  and exempt from disclosure under the Freedom of Information Act,
# //  5 U.S.C. Section 552. Furthermore, this information
# //  is prohibited from disclosure under the Trade Secrets Act,
# //  18 U.S.C. Section 1905.
# //
# do run.do
# QuestaSim-64 vlog 2021.1 Compiler 2021.01 Jan 19 2021
# Start time: 23:50:07 on Oct 10,2024
# vlog -reportprogress 300 -f dut.f "+cover" -covercells 
# -- Compiling module ahb_default_slave
# -- Compiling module ahb_slave
# -- Compiling module ahb_mux
# -- Compiling module ahb_decoder
# -- Compiling module ahb_lite
# 
# Top level modules:
# 	ahb_lite
# End time: 23:50:07 on Oct 10,2024, Elapsed time: 0:00:00
# Errors: 0, Warnings: 0
# QuestaSim-64 vlog 2021.1 Compiler 2021.01 Jan 19 2021
# Start time: 23:50:07 on Oct 10,2024
# vlog -reportprogress 300 -f tb.f "+cover" -covercells 
# -- Compiling package AHB_pkg
# -- Importing package mtiUvm.uvm_pkg (uvm-1.1d Built-in)
# ** Note: (vlog-2286) AHB_lite_uvm_pkg.sv(4): Using implicit +incdir+F:/questasim/questasim64_2021.1/uvm-1.1d/../verilog_src/uvm-1.1d/src from import uvm_pkg
# -- Compiling interface inf
# -- Importing package AHB_pkg
# -- Compiling module top_test_uvm
# 
# Top level modules:
# 	top_test_uvm
# End time: 23:50:08 on Oct 10,2024, Elapsed time: 0:00:01
# Errors: 0, Warnings: 0
# QuestaSim-64 vopt 2021.1 Compiler 2021.01 Jan 19 2021
# Start time: 23:50:09 on Oct 10,2024
# vopt -reportprogress 300 top_test_uvm -o top_optimized "+acc" "+cover=bcefsx+ahb_lite(rtl)" 
# 
# Top level modules:
# 	top_test_uvm
# 
# Analyzing design...
# -- Loading module top_test_uvm
# -- Importing package mtiUvm.uvm_pkg (uvm-1.1d Built-in)
# -- Importing package AHB_pkg
# -- Loading package mtiUvm.questa_uvm_pkg
# -- Loading interface inf
# -- Loading module ahb_lite
# -- Loading module ahb_decoder
# -- Loading module ahb_mux
# -- Loading module ahb_default_slave
# -- Loading module ahb_slave
# Optimizing 11 design-units (inlining 0/9 module instances):
# -- Optimizing package mtiUvm.uvm_pkg (uvm-1.1d Built-in)(fast)
# -- Optimizing package mtiUvm.questa_uvm_pkg(fast)
# -- Optimizing package AHB_pkg(fast)
# -- Optimizing interface inf(fast__2)
# -- Optimizing module ahb_slave(fast)
# -- Optimizing module ahb_mux(fast)
# -- Optimizing module ahb_lite(fast)
# -- Optimizing module ahb_default_slave(fast)
# -- Optimizing module ahb_decoder(fast)
# -- Optimizing module top_test_uvm(fast)
# -- Optimizing interface inf(fast)
# Optimized design name is top_optimized
# End time: 23:50:12 on Oct 10,2024, Elapsed time: 0:00:03
# Errors: 0, Warnings: 0
# vsim top_optimized -coverage -solvefaildebug=2 "+UVM_TESTNAME=write_twice_test" 
# Start time: 23:50:14 on Oct 10,2024
# Loading sv_std.std
# Loading work.inf(fast)
# Loading mtiUvm.uvm_pkg(fast)
# Loading work.AHB_pkg(fast)
# Loading mtiUvm.questa_uvm_pkg(fast)
# Loading work.top_test_uvm(fast)
# Loading work.inf(fast__2)
# Loading work.ahb_lite(fast)
# Loading work.ahb_decoder(fast)
# Loading work.ahb_mux(fast)
# Loading work.ahb_default_slave(fast)
# Loading work.ahb_slave(fast)
# Loading F:/questasim/questasim64_2021.1/uvm-1.1d\win64\uvm_dpi.dll
# ----------------------------------------------------------------
# UVM-1.1d
# (C) 2007-2013 Mentor Graphics Corporation
# (C) 2007-2013 Cadence Design Systems, Inc.
# (C) 2006-2013 Synopsys, Inc.
# (C) 2011-2013 Cypress Semiconductor Corp.
# ----------------------------------------------------------------
# 
#   ***********       IMPORTANT RELEASE NOTES         ************
# 
#   You are using a version of the UVM library that has been compiled
#   with `UVM_NO_DEPRECATED undefined.
#   See http://www.eda.org/svdb/view.php?id=3313 for more details.
# 
#   You are using a version of the UVM library that has been compiled
#   with `UVM_OBJECT_MUST_HAVE_CONSTRUCTOR undefined.
#   See http://www.eda.org/svdb/view.php?id=3770 for more details.
# 
#       (Specify +UVM_NO_RELNOTES to turn off this notice)
# 
# UVM_INFO verilog_src/questa_uvm_pkg-1.2/src/questa_uvm_pkg.sv(277) @ 0: reporter [Questa UVM] QUESTA_UVM-1.2.3
# UVM_INFO verilog_src/questa_uvm_pkg-1.2/src/questa_uvm_pkg.sv(278) @ 0: reporter [Questa UVM]  questa_uvm::init(+struct)
# CREATEDDDDDDDDDDDDDDDDDDDDDDDDDDDDDDDDDDDDDDDDDDDDDDDD
# UVM_INFO @ 0: reporter [RNTST] Running test write_twice_test...
# base_test build phase
# my_test build phase
# env build phase
# my_active_agent build phase
# my_driver build phase
# Inputs monitor build phase complete.
# UVM_INFO components/sequencer.svh(24) @ 0: uvm_test_top.env_h.active_agent_h.sequencer_h [SEQUENCER] Build phase executed
# coverage build_phase
# Passive agent build phase complete.
# Outputs monitor build phase complete.
# UVM_INFO components/scoreboard.svh(48) @ 0: uvm_test_top.env_h.scoreboard_h [SCOREBOARD] Build phase completed
# my_comparator build phase
# my_predictor build phase
# my_driver connect phase
# Inputs monitor connect phase complete.
# UVM_INFO components/sequencer.svh(30) @ 0: uvm_test_top.env_h.active_agent_h.sequencer_h [SEQUENCER] Connect phase executed
# my_active_agent connect phase
# Outputs monitor connect phase complete.
# Passive agent connect phase complete.
# my_comparator connect phase
# my_predictor connect phase
# UVM_INFO components/scoreboard.svh(58) @ 0: uvm_test_top.env_h.scoreboard_h [SCOREBOARD] Connect phase completed
# env connect phase
# my_test connect phase
# my_test connect phase
# Inputs monitor end of elaboration phase complete.
# my_monitor end_of_elaboration_phase
# Outputs monitor end of elaboration phase complete.
# Passive agent end of elaboration phase complete.
# UVM_INFO components/env.svh(97) @ 0: uvm_test_top.env_h [env_h] '{"uvm_test_top.env_h.passive_agent_h.tlm_analysis_port_outputs":@uvm_port_component__5@15 }
# UVM_INFO components/env.svh(99) @ 0: uvm_test_top.env_h [env_h] '{"uvm_test_top.env_h.active_agent_h.tlm_analysis_port_inputs":@uvm_port_component__5@13 }
# UVM_INFO components/env.svh(101) @ 0: uvm_test_top.env_h [env_h] '{"uvm_test_top.env_h.passive_agent_h.tlm_analysis_port_outputs":@uvm_port_component__5@15 }
# FINISHED GET_PROVIDED_TO
# UVM_INFO components/env.svh(105) @ 0: uvm_test_top.env_h [env_h] '{ }
# UVM_INFO components/env.svh(107) @ 0: uvm_test_top.env_h [env_h] '{"uvm_test_top.env_h.scoreboard_h.predictor_h.analysis_imp":@uvm_port_component__5@19 }
# UVM_INFO components/env.svh(109) @ 0: uvm_test_top.env_h [env_h] '{"uvm_test_top.env_h.scoreboard_h.comparator_h.analysis_actual_outputs":@uvm_port_component__5@31 }
# my_monitor end_of_elaboration_phase
# env run phase
# my_predictor run phase
# UVM_INFO components/comparator.svh(70) @ 0: uvm_test_top.env_h.scoreboard_h.comparator_h [COMPARATOR] RUN PHASE
# Passive agent run phase complete.
# coverage run_phase
# my_active_agent run phase
# UVM_INFO components/sequencer.svh(36) @ 0: uvm_test_top.env_h.active_agent_h.sequencer_h [SEQUENCER] Run phase started
# start of pre_body task
# start of pre_body task
# start of pre_body task
# CREATEDDDDDDDDDDDDDDDDDDDDDDDDDDDDDDDDDDDDDDDDDDDDDDDD
# UVM_INFO components/driver.svh(64) @ 0: uvm_test_top.env_h.active_agent_h.driver_h [uvm_test_top.env_h.active_agent_h.driver_h] DRIVEN_ITEM: time: 0 HRESETn = 0, HSEL= 0, HWRITE = 0, HTRANS =  0, HSIZE = 0, HBURST = 0, HPROT = 0, HADDR = 0, HWDATA = 0, PREDICTOR_transaction_counter = 0, COMPARATOR_transaction_counter= 0
# HWRITE ========================================================== HWRITE = 0
#  RESET VALUE ----------> HRESETn = 1
# ASSSINGING RANDOMIZED VALUES
# RESETTTTTTTTTTTTTTTTTTTTT VALUE 0
# time:10 starting_reset_task
# time :10 resetting the interconnect
# UVM_INFO components/predictor.svh(98) @ 10: uvm_test_top.env_h.scoreboard_h.predictor_h [PREDICTOR] WRITTEN_DATA: HRESETn:0, HWRITE:0, HTRANS:0, HSIZE:0, HBURST:0, HPROT:0, HADDR:0, HWDATA:0
# UVM_INFO components/predictor.svh(103) @ 10: uvm_test_top.env_h.scoreboard_h.predictor_h [PREDICTOR] EXPECTED_DATA:  time: 10 HRESETn = 0, HSEL= 0, HWRITE = 0, HTRANS =  0, HSIZE = 0, HBURST = 0, HPROT = 0, HADDR = 0, HWDATA = 0, PREDICTOR_transaction_counter = 1, COMPARATOR_transaction_counter= 0
# my_predictor run phase
# UVM_INFO components/comparator.svh(74) @ 10: uvm_test_top.env_h.scoreboard_h.comparator_h [COMPARATOR] EXPECTED_SEQ_ITEM RECEIVED:  time: 10 HSEL: 0  HRDATA: 0  HRESP: 0   HREADY: 1, PREDICTOR_transaction_counter = 1, COMPARATOR_transaction_counter= 0
#  RESET VALUE ----------> HRESETn = 0
# time:160 HRESETn: 0 RESET DE-ASSERTED
# SENDING_OUTPUT_AFTER_RESET DE-ASSERTION
# UVM_INFO components/outputs_monitor.svh(75) @ 160: uvm_test_top.env_h.passive_agent_h.outputs_monitor_h [uvm_test_top.env_h.passive_agent_h.outputs_monitor_h] OUTPUTS SENT TO THE COMPARATOR
# UVM_INFO components/comparator.svh(78) @ 160: uvm_test_top.env_h.scoreboard_h.comparator_h [COMPARATOR] ACTUAL_SEQ_ITEM RECEIVED:  time: 160 HSEL: 0  HRDATA: 0  HRESP: 0   HREADY: 1, PREDICTOR_transaction_counter = 1, COMPARATOR_transaction_counter= 1
# UVM_INFO components/comparator.svh(83) @ 160: uvm_test_top.env_h.scoreboard_h.comparator_h [SCOREBOARD] PASS
# UVM_INFO components/comparator.svh(70) @ 160: uvm_test_top.env_h.scoreboard_h.comparator_h [COMPARATOR] RUN PHASE
# THE TEST SHOULD STOP NOW!!!!!!!!!!!!!!!!!!!!!!!!!!!!!!!!!!!!!
# start of pre_body task
# start of pre_body task
# CREATEDDDDDDDDDDDDDDDDDDDDDDDDDDDDDDDDDDDDDDDDDDDDDDDD
# UVM_INFO components/driver.svh(64) @ 160: uvm_test_top.env_h.active_agent_h.driver_h [uvm_test_top.env_h.active_agent_h.driver_h] DRIVEN_ITEM: time: 160 HRESETn = 1, HSEL= 0, HWRITE = 1, HTRANS =  2, HSIZE = 0, HBURST = 0, HPROT = 0, HADDR = 114, HWDATA = 122, PREDICTOR_transaction_counter = 1, COMPARATOR_transaction_counter= 1
# HWRITE ========================================================== HWRITE = 1
# ASSSINGING RANDOMIZED VALUES
# RESETTTTTTTTTTTTTTTTTTTTT VALUE 1
# UVM_INFO components/predictor.svh(98) @ 160: uvm_test_top.env_h.scoreboard_h.predictor_h [PREDICTOR] WRITTEN_DATA: HRESETn:1, HWRITE:1, HTRANS:2, HSIZE:0, HBURST:0, HPROT:0, HADDR:114, HWDATA:122
# UVM_INFO components/predictor.svh(103) @ 160: uvm_test_top.env_h.scoreboard_h.predictor_h [PREDICTOR] EXPECTED_DATA:  time: 160 HRESETn = 1, HSEL= 0, HWRITE = 1, HTRANS =  2, HSIZE = 0, HBURST = 0, HPROT = 0, HADDR = 114, HWDATA = 122, PREDICTOR_transaction_counter = 2, COMPARATOR_transaction_counter= 1
# my_predictor run phase
# UVM_INFO components/comparator.svh(74) @ 160: uvm_test_top.env_h.scoreboard_h.comparator_h [COMPARATOR] EXPECTED_SEQ_ITEM RECEIVED:  time: 160 HSEL: 0  HRDATA: 0  HRESP: 0   HREADY: 1, PREDICTOR_transaction_counter = 2, COMPARATOR_transaction_counter= 1
#  RESET VALUE ----------> HRESETn = 1
# time :170 AFTER EVENTSSSSSSSSS
# THE TEST SHOULD STOP NOW!!!!!!!!!!!!!!!!!!!!!!!!!!!!!!!!!!!!!
# start of pre_body task
# start of pre_body task
# CREATEDDDDDDDDDDDDDDDDDDDDDDDDDDDDDDDDDDDDDDDDDDDDDDDD
# UVM_INFO components/driver.svh(64) @ 170: uvm_test_top.env_h.active_agent_h.driver_h [uvm_test_top.env_h.active_agent_h.driver_h] DRIVEN_ITEM: time: 170 HRESETn = 1, HSEL= 1, HWRITE = 1, HTRANS =  2, HSIZE = 0, HBURST = 0, HPROT = 0, HADDR = 1073741824, HWDATA = 128, PREDICTOR_transaction_counter = 2, COMPARATOR_transaction_counter= 1
# HWRITE ========================================================== HWRITE = 1
# ASSSINGING RANDOMIZED VALUES
# RESETTTTTTTTTTTTTTTTTTTTT VALUE 1
# UVM_INFO components/predictor.svh(98) @ 170: uvm_test_top.env_h.scoreboard_h.predictor_h [PREDICTOR] WRITTEN_DATA: HRESETn:1, HWRITE:1, HTRANS:2, HSIZE:0, HBURST:0, HPROT:0, HADDR:1073741824, HWDATA:128
# UVM_INFO components/predictor.svh(103) @ 170: uvm_test_top.env_h.scoreboard_h.predictor_h [PREDICTOR] EXPECTED_DATA:  time: 170 HRESETn = 1, HSEL= 1, HWRITE = 1, HTRANS =  2, HSIZE = 0, HBURST = 0, HPROT = 0, HADDR = 1073741824, HWDATA = 128, PREDICTOR_transaction_counter = 3, COMPARATOR_transaction_counter= 1
# my_predictor run phase
# time :180 AFTER EVENTSSSSSSSSS
# time:180 send_outputs HWRITE = 1
# UVM_INFO components/outputs_monitor.svh(75) @ 180: uvm_test_top.env_h.passive_agent_h.outputs_monitor_h [uvm_test_top.env_h.passive_agent_h.outputs_monitor_h] OUTPUTS SENT TO THE COMPARATOR
# THE TEST SHOULD STOP NOW!!!!!!!!!!!!!!!!!!!!!!!!!!!!!!!!!!!!!
# UVM_INFO components/comparator.svh(78) @ 180: uvm_test_top.env_h.scoreboard_h.comparator_h [COMPARATOR] ACTUAL_SEQ_ITEM RECEIVED:  time: 180 HSEL: 0  HRDATA: 0  HRESP: 0   HREADY: 1, PREDICTOR_transaction_counter = 3, COMPARATOR_transaction_counter= 2
# UVM_INFO components/comparator.svh(83) @ 180: uvm_test_top.env_h.scoreboard_h.comparator_h [SCOREBOARD] PASS
# UVM_INFO components/comparator.svh(70) @ 180: uvm_test_top.env_h.scoreboard_h.comparator_h [COMPARATOR] RUN PHASE
# UVM_INFO components/comparator.svh(74) @ 180: uvm_test_top.env_h.scoreboard_h.comparator_h [COMPARATOR] EXPECTED_SEQ_ITEM RECEIVED:  time: 180 HSEL: 1  HRDATA: 0  HRESP: 0   HREADY: 1, PREDICTOR_transaction_counter = 3, COMPARATOR_transaction_counter= 2
# my_test run phase
# UVM_INFO verilog_src/uvm-1.1d/src/base/uvm_objection.svh(1267) @ 180: reporter [TEST_DONE] 'run' phase is ready to proceed to the 'extract' phase
# -------------------------------------------------------------------------------------------------------------------------------------------------------------
# INCORRECT FLAG ASSERTION/DEASSERTION COUNTER = 0
# CORRECT FLAG ASSERTION/DEASSERTION COUNTER = 0
# -------------------------------------------------------------------------------------------------------------------------------------------------------------
# UVM_INFO components/scoreboard.svh(63) @ 180: uvm_test_top.env_h.scoreboard_h [SCOREBOARD] Scoreboard is stopping.
# 
# --- UVM Report Summary ---
# 
# ** Report counts by severity
# UVM_INFO :   37
# UVM_WARNING :    0
# UVM_ERROR :    0
# UVM_FATAL :    0
# ** Report counts by id
# [COMPARATOR]     8
# [PREDICTOR]     6
# [Questa UVM]     2
# [RNTST]     1
# [SCOREBOARD]     5
# [SEQUENCER]     3
# [TEST_DONE]     1
# [env_h]     6
# [uvm_test_top.env_h.active_agent_h.driver_h]     3
# [uvm_test_top.env_h.passive_agent_h.outputs_monitor_h]     2
# ** Note: $finish    : F:/questasim/questasim64_2021.1/win64/../verilog_src/uvm-1.1d/src/base/uvm_root.svh(430)
#    Time: 180 ns  Iteration: 68  Instance: /top_test_uvm
# 1
# Break in Task uvm_pkg/uvm_root::run_test at F:/questasim/questasim64_2021.1/win64/../verilog_src/uvm-1.1d/src/base/uvm_root.svh line 430
do run.do
# Error 31: Unable to unlink file "F:/ic_design/repos/AHB_LITE/dv/work/top_optimized/_lib.qdb".
# Error 31: Unable to unlink file "F:/ic_design/repos/AHB_LITE/dv/work/top_optimized/_lib3_0.qdb".
# Error 31: Unable to unlink file "F:/ic_design/repos/AHB_LITE/dv/work/top_optimized/_lib3_0.qpg".
# Error 31: Unable to unlink file "F:/ic_design/repos/AHB_LITE/dv/work/top_optimized/_lib3_0.qtl".
# Error 133: Unable to remove directory "F:/ic_design/repos/AHB_LITE/dv/work/top_optimized".
# Error 133: Unable to remove directory "F:/ic_design/repos/AHB_LITE/dv/work".
# QuestaSim-64 vlog 2021.1 Compiler 2021.01 Jan 19 2021
# Start time: 11:04:51 on Oct 11,2024
# vlog -reportprogress 300 -f dut.f "+cover" -covercells 
# -- Compiling module ahb_default_slave
# -- Compiling module ahb_slave
# -- Compiling module ahb_mux
# -- Compiling module ahb_decoder
# -- Compiling module ahb_lite
# 
# Top level modules:
# 	ahb_lite
# End time: 11:04:51 on Oct 11,2024, Elapsed time: 0:00:00
# Errors: 0, Warnings: 0
# QuestaSim-64 vlog 2021.1 Compiler 2021.01 Jan 19 2021
# Start time: 11:04:51 on Oct 11,2024
# vlog -reportprogress 300 -f tb.f "+cover" -covercells 
# -- Compiling package AHB_pkg
# -- Importing package mtiUvm.uvm_pkg (uvm-1.1d Built-in)
# ** Note: (vlog-2286) AHB_lite_uvm_pkg.sv(4): Using implicit +incdir+F:/questasim/questasim64_2021.1/uvm-1.1d/../verilog_src/uvm-1.1d/src from import uvm_pkg
# -- Compiling interface inf
# -- Importing package AHB_pkg
# -- Compiling module top_test_uvm
# 
# Top level modules:
# 	top_test_uvm
# End time: 11:04:53 on Oct 11,2024, Elapsed time: 0:00:02
# Errors: 0, Warnings: 0
# QuestaSim-64 vopt 2021.1 Compiler 2021.01 Jan 19 2021
# Start time: 11:04:55 on Oct 11,2024
# vopt -reportprogress 300 top_test_uvm -o top_optimized "+acc" "+cover=bcefsx+ahb_lite(rtl)" 
# ** Warning: (vopt-31) Unable to unlink file "F:/ic_design/repos/AHB_LITE/dv/work/top_optimized/_lib.qdb".
# ** Warning: (vopt-31) Unable to unlink file "F:/ic_design/repos/AHB_LITE/dv/work/top_optimized/_lib3_0.qdb".
# The process cannot access the file because it is being used by another process. (GetLastError() = 32)
# ** Warning: (vopt-31) Unable to unlink file "F:/ic_design/repos/AHB_LITE/dv/work/top_optimized/_lib3_0.qpg".
# The process cannot access the file because it is being used by another process. (GetLastError() = 32)
# ** Warning: (vopt-31) Unable to unlink file "F:/ic_design/repos/AHB_LITE/dv/work/top_optimized/_lib3_0.qtl".
# The process cannot access the file because it is being used by another process. (GetLastError() = 32)
# ** Warning: (vopt-133) Unable to remove directory "F:/ic_design/repos/AHB_LITE/dv/work/top_optimized".
# 
# Top level modules:
# 	top_test_uvm
# 
# Analyzing design...
# -- Loading module top_test_uvm
# -- Importing package mtiUvm.uvm_pkg (uvm-1.1d Built-in)
# -- Importing package AHB_pkg
# -- Loading package mtiUvm.questa_uvm_pkg
# -- Loading interface inf
# -- Loading module ahb_lite
# -- Loading module ahb_decoder
# -- Loading module ahb_mux
# -- Loading module ahb_default_slave
# -- Loading module ahb_slave
# init_auxdbinfo(): INTERNAL ERROR: Cannot open page file "F:/ic_design/repos/AHB_LITE/dv/work/top_optimized/_lib1_0.qpg" in read mode
# Optimizing 11 design-units (inlining 0/9 module instances):
# -- Optimizing package mtiUvm.uvm_pkg (uvm-1.1d Built-in)(fast)
# -- Optimizing package mtiUvm.questa_uvm_pkg(fast)
# -- Optimizing package AHB_pkg(fast)
# -- Optimizing interface inf(fast__2)
# -- Optimizing module ahb_slave(fast)
# -- Optimizing module ahb_mux(fast)
# -- Optimizing module ahb_lite(fast)
# -- Optimizing module ahb_default_slave(fast)
# -- Optimizing module ahb_decoder(fast)
# -- Optimizing module top_test_uvm(fast)
# -- Optimizing interface inf(fast)
# Optimized design name is top_optimized
# End time: 11:05:00 on Oct 11,2024, Elapsed time: 0:00:05
# Errors: 0, Warnings: 5
# End time: 11:05:10 on Oct 11,2024, Elapsed time: 11:14:56
# Errors: 0, Warnings: 0
# vsim top_optimized -coverage -solvefaildebug=2 "+UVM_TESTNAME=write_twice_test" 
# Start time: 11:05:11 on Oct 11,2024
# Loading sv_std.std
# Loading work.inf(fast)
# Loading mtiUvm.uvm_pkg(fast)
# Loading work.AHB_pkg(fast)
# Loading mtiUvm.questa_uvm_pkg(fast)
# Loading work.top_test_uvm(fast)
# Loading work.inf(fast__2)
# Loading work.ahb_lite(fast)
# Loading work.ahb_decoder(fast)
# Loading work.ahb_mux(fast)
# Loading work.ahb_default_slave(fast)
# Loading work.ahb_slave(fast)
# Loading F:/questasim/questasim64_2021.1/uvm-1.1d\win64\uvm_dpi.dll
# ----------------------------------------------------------------
# UVM-1.1d
# (C) 2007-2013 Mentor Graphics Corporation
# (C) 2007-2013 Cadence Design Systems, Inc.
# (C) 2006-2013 Synopsys, Inc.
# (C) 2011-2013 Cypress Semiconductor Corp.
# ----------------------------------------------------------------
# 
#   ***********       IMPORTANT RELEASE NOTES         ************
# 
#   You are using a version of the UVM library that has been compiled
#   with `UVM_NO_DEPRECATED undefined.
#   See http://www.eda.org/svdb/view.php?id=3313 for more details.
# 
#   You are using a version of the UVM library that has been compiled
#   with `UVM_OBJECT_MUST_HAVE_CONSTRUCTOR undefined.
#   See http://www.eda.org/svdb/view.php?id=3770 for more details.
# 
#       (Specify +UVM_NO_RELNOTES to turn off this notice)
# 
# UVM_INFO verilog_src/questa_uvm_pkg-1.2/src/questa_uvm_pkg.sv(277) @ 0: reporter [Questa UVM] QUESTA_UVM-1.2.3
# UVM_INFO verilog_src/questa_uvm_pkg-1.2/src/questa_uvm_pkg.sv(278) @ 0: reporter [Questa UVM]  questa_uvm::init(+struct)
# CREATEDDDDDDDDDDDDDDDDDDDDDDDDDDDDDDDDDDDDDDDDDDDDDDDD
# UVM_INFO @ 0: reporter [RNTST] Running test write_twice_test...
# base_test build phase
# my_test build phase
# env build phase
# my_active_agent build phase
# my_driver build phase
# Inputs monitor build phase complete.
# UVM_INFO components/sequencer.svh(24) @ 0: uvm_test_top.env_h.active_agent_h.sequencer_h [SEQUENCER] Build phase executed
# coverage build_phase
# Passive agent build phase complete.
# Outputs monitor build phase complete.
# UVM_INFO components/scoreboard.svh(48) @ 0: uvm_test_top.env_h.scoreboard_h [SCOREBOARD] Build phase completed
# my_comparator build phase
# my_predictor build phase
# my_driver connect phase
# Inputs monitor connect phase complete.
# UVM_INFO components/sequencer.svh(30) @ 0: uvm_test_top.env_h.active_agent_h.sequencer_h [SEQUENCER] Connect phase executed
# my_active_agent connect phase
# Outputs monitor connect phase complete.
# Passive agent connect phase complete.
# my_comparator connect phase
# my_predictor connect phase
# UVM_INFO components/scoreboard.svh(58) @ 0: uvm_test_top.env_h.scoreboard_h [SCOREBOARD] Connect phase completed
# env connect phase
# my_test connect phase
# my_test connect phase
# Inputs monitor end of elaboration phase complete.
# my_monitor end_of_elaboration_phase
# Outputs monitor end of elaboration phase complete.
# Passive agent end of elaboration phase complete.
# UVM_INFO components/env.svh(97) @ 0: uvm_test_top.env_h [env_h] '{"uvm_test_top.env_h.passive_agent_h.tlm_analysis_port_outputs":@uvm_port_component__5@15 }
# UVM_INFO components/env.svh(99) @ 0: uvm_test_top.env_h [env_h] '{"uvm_test_top.env_h.active_agent_h.tlm_analysis_port_inputs":@uvm_port_component__5@13 }
# UVM_INFO components/env.svh(101) @ 0: uvm_test_top.env_h [env_h] '{"uvm_test_top.env_h.passive_agent_h.tlm_analysis_port_outputs":@uvm_port_component__5@15 }
# FINISHED GET_PROVIDED_TO
# UVM_INFO components/env.svh(105) @ 0: uvm_test_top.env_h [env_h] '{ }
# UVM_INFO components/env.svh(107) @ 0: uvm_test_top.env_h [env_h] '{"uvm_test_top.env_h.scoreboard_h.predictor_h.analysis_imp":@uvm_port_component__5@19 }
# UVM_INFO components/env.svh(109) @ 0: uvm_test_top.env_h [env_h] '{"uvm_test_top.env_h.scoreboard_h.comparator_h.analysis_actual_outputs":@uvm_port_component__5@31 }
# my_monitor end_of_elaboration_phase
# env run phase
# my_predictor run phase
# UVM_INFO components/comparator.svh(70) @ 0: uvm_test_top.env_h.scoreboard_h.comparator_h [COMPARATOR] RUN PHASE
# Passive agent run phase complete.
# coverage run_phase
# my_active_agent run phase
# UVM_INFO components/sequencer.svh(36) @ 0: uvm_test_top.env_h.active_agent_h.sequencer_h [SEQUENCER] Run phase started
# start of pre_body task
# start of pre_body task
# start of pre_body task
# CREATEDDDDDDDDDDDDDDDDDDDDDDDDDDDDDDDDDDDDDDDDDDDDDDDD
# UVM_INFO components/driver.svh(64) @ 0: uvm_test_top.env_h.active_agent_h.driver_h [uvm_test_top.env_h.active_agent_h.driver_h] DRIVEN_ITEM: time: 0 HRESETn = 0, HSEL= 0, HWRITE = 0, HTRANS =  0, HSIZE = 0, HBURST = 0, HPROT = 0, HADDR = 0, HWDATA = 0, PREDICTOR_transaction_counter = 0, COMPARATOR_transaction_counter= 0
# HWRITE ========================================================== HWRITE = 0
#  RESET VALUE ----------> HRESETn = 1
# ASSSINGING RANDOMIZED VALUES
# RESETTTTTTTTTTTTTTTTTTTTT VALUE 0
# time:10 starting_reset_task
# time :10 resetting the interconnect
# UVM_INFO components/predictor.svh(98) @ 10: uvm_test_top.env_h.scoreboard_h.predictor_h [PREDICTOR] WRITTEN_DATA: HRESETn:0, HWRITE:0, HTRANS:0, HSIZE:0, HBURST:0, HPROT:0, HADDR:0, HWDATA:0
# UVM_INFO components/predictor.svh(103) @ 10: uvm_test_top.env_h.scoreboard_h.predictor_h [PREDICTOR] EXPECTED_DATA:  time: 10 HRESETn = 0, HSEL= 0, HWRITE = 0, HTRANS =  0, HSIZE = 0, HBURST = 0, HPROT = 0, HADDR = 0, HWDATA = 0, PREDICTOR_transaction_counter = 1, COMPARATOR_transaction_counter= 0
# my_predictor run phase
# UVM_INFO components/comparator.svh(74) @ 10: uvm_test_top.env_h.scoreboard_h.comparator_h [COMPARATOR] EXPECTED_SEQ_ITEM RECEIVED:  time: 10 HSEL: 0  HRDATA: 0  HRESP: 0   HREADY: 1, PREDICTOR_transaction_counter = 1, COMPARATOR_transaction_counter= 0
#  RESET VALUE ----------> HRESETn = 0
# time:160 HRESETn: 0 RESET DE-ASSERTED
# SENDING_OUTPUT_AFTER_RESET DE-ASSERTION
# UVM_INFO components/outputs_monitor.svh(75) @ 160: uvm_test_top.env_h.passive_agent_h.outputs_monitor_h [uvm_test_top.env_h.passive_agent_h.outputs_monitor_h] OUTPUTS SENT TO THE COMPARATOR
# UVM_INFO components/comparator.svh(78) @ 160: uvm_test_top.env_h.scoreboard_h.comparator_h [COMPARATOR] ACTUAL_SEQ_ITEM RECEIVED:  time: 160 HSEL: 0  HRDATA: 0  HRESP: 0   HREADY: 1, PREDICTOR_transaction_counter = 1, COMPARATOR_transaction_counter= 1
# UVM_INFO components/comparator.svh(83) @ 160: uvm_test_top.env_h.scoreboard_h.comparator_h [SCOREBOARD] PASS
# UVM_INFO components/comparator.svh(70) @ 160: uvm_test_top.env_h.scoreboard_h.comparator_h [COMPARATOR] RUN PHASE
# THE TEST SHOULD STOP NOW!!!!!!!!!!!!!!!!!!!!!!!!!!!!!!!!!!!!!
# start of pre_body task
# start of pre_body task
# CREATEDDDDDDDDDDDDDDDDDDDDDDDDDDDDDDDDDDDDDDDDDDDDDDDD
# UVM_INFO components/driver.svh(64) @ 160: uvm_test_top.env_h.active_agent_h.driver_h [uvm_test_top.env_h.active_agent_h.driver_h] DRIVEN_ITEM: time: 160 HRESETn = 1, HSEL= 0, HWRITE = 1, HTRANS =  2, HSIZE = 0, HBURST = 0, HPROT = 0, HADDR = 114, HWDATA = 122, PREDICTOR_transaction_counter = 1, COMPARATOR_transaction_counter= 1
# HWRITE ========================================================== HWRITE = 1
# ASSSINGING RANDOMIZED VALUES
# RESETTTTTTTTTTTTTTTTTTTTT VALUE 1
# UVM_INFO components/predictor.svh(98) @ 160: uvm_test_top.env_h.scoreboard_h.predictor_h [PREDICTOR] WRITTEN_DATA: HRESETn:1, HWRITE:1, HTRANS:2, HSIZE:0, HBURST:0, HPROT:0, HADDR:114, HWDATA:122
# UVM_INFO components/predictor.svh(103) @ 160: uvm_test_top.env_h.scoreboard_h.predictor_h [PREDICTOR] EXPECTED_DATA:  time: 160 HRESETn = 1, HSEL= 0, HWRITE = 1, HTRANS =  2, HSIZE = 0, HBURST = 0, HPROT = 0, HADDR = 114, HWDATA = 122, PREDICTOR_transaction_counter = 2, COMPARATOR_transaction_counter= 1
# my_predictor run phase
# UVM_INFO components/comparator.svh(74) @ 160: uvm_test_top.env_h.scoreboard_h.comparator_h [COMPARATOR] EXPECTED_SEQ_ITEM RECEIVED:  time: 160 HSEL: 0  HRDATA: 0  HRESP: 0   HREADY: 1, PREDICTOR_transaction_counter = 2, COMPARATOR_transaction_counter= 1
#  RESET VALUE ----------> HRESETn = 1
# time :170 AFTER EVENTSSSSSSSSS
# THE TEST SHOULD STOP NOW!!!!!!!!!!!!!!!!!!!!!!!!!!!!!!!!!!!!!
# start of pre_body task
# start of pre_body task
# CREATEDDDDDDDDDDDDDDDDDDDDDDDDDDDDDDDDDDDDDDDDDDDDDDDD
# UVM_INFO components/driver.svh(64) @ 170: uvm_test_top.env_h.active_agent_h.driver_h [uvm_test_top.env_h.active_agent_h.driver_h] DRIVEN_ITEM: time: 170 HRESETn = 1, HSEL= 1, HWRITE = 1, HTRANS =  2, HSIZE = 0, HBURST = 0, HPROT = 0, HADDR = 1073741824, HWDATA = 128, PREDICTOR_transaction_counter = 2, COMPARATOR_transaction_counter= 1
# HWRITE ========================================================== HWRITE = 1
# ASSSINGING RANDOMIZED VALUES
# RESETTTTTTTTTTTTTTTTTTTTT VALUE 1
# UVM_INFO components/predictor.svh(98) @ 170: uvm_test_top.env_h.scoreboard_h.predictor_h [PREDICTOR] WRITTEN_DATA: HRESETn:1, HWRITE:1, HTRANS:2, HSIZE:0, HBURST:0, HPROT:0, HADDR:1073741824, HWDATA:128
# UVM_INFO components/predictor.svh(103) @ 170: uvm_test_top.env_h.scoreboard_h.predictor_h [PREDICTOR] EXPECTED_DATA:  time: 170 HRESETn = 1, HSEL= 1, HWRITE = 1, HTRANS =  2, HSIZE = 0, HBURST = 0, HPROT = 0, HADDR = 1073741824, HWDATA = 128, PREDICTOR_transaction_counter = 3, COMPARATOR_transaction_counter= 1
# my_predictor run phase
# time :180 AFTER EVENTSSSSSSSSS
# time:180 send_outputs HWRITE = 1
# UVM_INFO components/outputs_monitor.svh(75) @ 180: uvm_test_top.env_h.passive_agent_h.outputs_monitor_h [uvm_test_top.env_h.passive_agent_h.outputs_monitor_h] OUTPUTS SENT TO THE COMPARATOR
# THE TEST SHOULD STOP NOW!!!!!!!!!!!!!!!!!!!!!!!!!!!!!!!!!!!!!
# UVM_INFO components/comparator.svh(78) @ 180: uvm_test_top.env_h.scoreboard_h.comparator_h [COMPARATOR] ACTUAL_SEQ_ITEM RECEIVED:  time: 180 HSEL: 0  HRDATA: 0  HRESP: 0   HREADY: 1, PREDICTOR_transaction_counter = 3, COMPARATOR_transaction_counter= 2
# UVM_INFO components/comparator.svh(83) @ 180: uvm_test_top.env_h.scoreboard_h.comparator_h [SCOREBOARD] PASS
# UVM_INFO components/comparator.svh(70) @ 180: uvm_test_top.env_h.scoreboard_h.comparator_h [COMPARATOR] RUN PHASE
# UVM_INFO components/comparator.svh(74) @ 180: uvm_test_top.env_h.scoreboard_h.comparator_h [COMPARATOR] EXPECTED_SEQ_ITEM RECEIVED:  time: 180 HSEL: 1  HRDATA: 0  HRESP: 0   HREADY: 1, PREDICTOR_transaction_counter = 3, COMPARATOR_transaction_counter= 2
# my_test run phase
# UVM_INFO verilog_src/uvm-1.1d/src/base/uvm_objection.svh(1267) @ 180: reporter [TEST_DONE] 'run' phase is ready to proceed to the 'extract' phase
# -------------------------------------------------------------------------------------------------------------------------------------------------------------
# INCORRECT FLAG ASSERTION/DEASSERTION COUNTER = 0
# CORRECT FLAG ASSERTION/DEASSERTION COUNTER = 0
# -------------------------------------------------------------------------------------------------------------------------------------------------------------
# UVM_INFO components/scoreboard.svh(63) @ 180: uvm_test_top.env_h.scoreboard_h [SCOREBOARD] Scoreboard is stopping.
# 
# --- UVM Report Summary ---
# 
# ** Report counts by severity
# UVM_INFO :   37
# UVM_WARNING :    0
# UVM_ERROR :    0
# UVM_FATAL :    0
# ** Report counts by id
# [COMPARATOR]     8
# [PREDICTOR]     6
# [Questa UVM]     2
# [RNTST]     1
# [SCOREBOARD]     5
# [SEQUENCER]     3
# [TEST_DONE]     1
# [env_h]     6
# [uvm_test_top.env_h.active_agent_h.driver_h]     3
# [uvm_test_top.env_h.passive_agent_h.outputs_monitor_h]     2
# ** Note: $finish    : F:/questasim/questasim64_2021.1/win64/../verilog_src/uvm-1.1d/src/base/uvm_root.svh(430)
#    Time: 180 ns  Iteration: 68  Instance: /top_test_uvm
# 1
# Break in Task uvm_pkg/uvm_root::run_test at F:/questasim/questasim64_2021.1/win64/../verilog_src/uvm-1.1d/src/base/uvm_root.svh line 430
do run.do
# Error 31: Unable to unlink file "F:/ic_design/repos/AHB_LITE/dv/work/top_optimized/_lib.qdb".
# Error 31: Unable to unlink file "F:/ic_design/repos/AHB_LITE/dv/work/top_optimized/_lib3_0.qdb".
# Error 31: Unable to unlink file "F:/ic_design/repos/AHB_LITE/dv/work/top_optimized/_lib3_0.qpg".
# Error 31: Unable to unlink file "F:/ic_design/repos/AHB_LITE/dv/work/top_optimized/_lib3_0.qtl".
# Error 133: Unable to remove directory "F:/ic_design/repos/AHB_LITE/dv/work/top_optimized".
# Error 133: Unable to remove directory "F:/ic_design/repos/AHB_LITE/dv/work".
# QuestaSim-64 vlog 2021.1 Compiler 2021.01 Jan 19 2021
# Start time: 11:09:33 on Oct 11,2024
# vlog -reportprogress 300 -f dut.f "+cover" -covercells 
# -- Compiling module ahb_default_slave
# -- Compiling module ahb_slave
# -- Compiling module ahb_mux
# -- Compiling module ahb_decoder
# -- Compiling module ahb_lite
# 
# Top level modules:
# 	ahb_lite
# End time: 11:09:33 on Oct 11,2024, Elapsed time: 0:00:00
# Errors: 0, Warnings: 0
# QuestaSim-64 vlog 2021.1 Compiler 2021.01 Jan 19 2021
# Start time: 11:09:33 on Oct 11,2024
# vlog -reportprogress 300 -f tb.f "+cover" -covercells 
# -- Compiling package AHB_pkg
# -- Importing package mtiUvm.uvm_pkg (uvm-1.1d Built-in)
# ** Note: (vlog-2286) AHB_lite_uvm_pkg.sv(4): Using implicit +incdir+F:/questasim/questasim64_2021.1/uvm-1.1d/../verilog_src/uvm-1.1d/src from import uvm_pkg
# -- Compiling interface inf
# -- Importing package AHB_pkg
# -- Compiling module top_test_uvm
# 
# Top level modules:
# 	top_test_uvm
# End time: 11:09:33 on Oct 11,2024, Elapsed time: 0:00:00
# Errors: 0, Warnings: 0
# QuestaSim-64 vopt 2021.1 Compiler 2021.01 Jan 19 2021
# Start time: 11:09:34 on Oct 11,2024
# vopt -reportprogress 300 top_test_uvm -o top_optimized "+acc" "+cover=bcefsx+ahb_lite(rtl)" 
# ** Warning: (vopt-31) Unable to unlink file "F:/ic_design/repos/AHB_LITE/dv/work/top_optimized/_lib.qdb".
# ** Warning: (vopt-31) Unable to unlink file "F:/ic_design/repos/AHB_LITE/dv/work/top_optimized/_lib3_0.qdb".
# The process cannot access the file because it is being used by another process. (GetLastError() = 32)
# ** Warning: (vopt-31) Unable to unlink file "F:/ic_design/repos/AHB_LITE/dv/work/top_optimized/_lib3_0.qpg".
# The process cannot access the file because it is being used by another process. (GetLastError() = 32)
# ** Warning: (vopt-31) Unable to unlink file "F:/ic_design/repos/AHB_LITE/dv/work/top_optimized/_lib3_0.qtl".
# The process cannot access the file because it is being used by another process. (GetLastError() = 32)
# ** Warning: (vopt-133) Unable to remove directory "F:/ic_design/repos/AHB_LITE/dv/work/top_optimized".
# 
# Top level modules:
# 	top_test_uvm
# 
# Analyzing design...
# -- Loading module top_test_uvm
# -- Importing package mtiUvm.uvm_pkg (uvm-1.1d Built-in)
# -- Importing package AHB_pkg
# -- Loading package mtiUvm.questa_uvm_pkg
# -- Loading interface inf
# -- Loading module ahb_lite
# -- Loading module ahb_decoder
# -- Loading module ahb_mux
# -- Loading module ahb_default_slave
# -- Loading module ahb_slave
# Optimizing 11 design-units (inlining 0/9 module instances):
# -- Optimizing package mtiUvm.uvm_pkg (uvm-1.1d Built-in)(fast)
# -- Optimizing package mtiUvm.questa_uvm_pkg(fast)
# -- Optimizing package AHB_pkg(fast)
# -- Optimizing interface inf(fast__2)
# -- Optimizing module ahb_slave(fast)
# -- Optimizing module ahb_mux(fast)
# -- Optimizing module ahb_lite(fast)
# -- Optimizing module ahb_default_slave(fast)
# -- Optimizing module ahb_decoder(fast)
# -- Optimizing module top_test_uvm(fast)
# -- Optimizing interface inf(fast)
# Optimized design name is top_optimized
# End time: 11:09:38 on Oct 11,2024, Elapsed time: 0:00:04
# Errors: 0, Warnings: 5
# End time: 11:10:12 on Oct 11,2024, Elapsed time: 0:05:01
# Errors: 0, Warnings: 0
# vsim top_optimized -coverage -solvefaildebug=2 "+UVM_TESTNAME=write_twice_test" 
# Start time: 11:10:13 on Oct 11,2024
# Loading sv_std.std
# Loading work.inf(fast)
# Loading mtiUvm.uvm_pkg(fast)
# Loading work.AHB_pkg(fast)
# Loading mtiUvm.questa_uvm_pkg(fast)
# Loading work.top_test_uvm(fast)
# Loading work.inf(fast__2)
# Loading work.ahb_lite(fast)
# Loading work.ahb_decoder(fast)
# Loading work.ahb_mux(fast)
# Loading work.ahb_default_slave(fast)
# Loading work.ahb_slave(fast)
# Loading F:/questasim/questasim64_2021.1/uvm-1.1d\win64\uvm_dpi.dll
# ----------------------------------------------------------------
# UVM-1.1d
# (C) 2007-2013 Mentor Graphics Corporation
# (C) 2007-2013 Cadence Design Systems, Inc.
# (C) 2006-2013 Synopsys, Inc.
# (C) 2011-2013 Cypress Semiconductor Corp.
# ----------------------------------------------------------------
# 
#   ***********       IMPORTANT RELEASE NOTES         ************
# 
#   You are using a version of the UVM library that has been compiled
#   with `UVM_NO_DEPRECATED undefined.
#   See http://www.eda.org/svdb/view.php?id=3313 for more details.
# 
#   You are using a version of the UVM library that has been compiled
#   with `UVM_OBJECT_MUST_HAVE_CONSTRUCTOR undefined.
#   See http://www.eda.org/svdb/view.php?id=3770 for more details.
# 
#       (Specify +UVM_NO_RELNOTES to turn off this notice)
# 
# UVM_INFO verilog_src/questa_uvm_pkg-1.2/src/questa_uvm_pkg.sv(277) @ 0: reporter [Questa UVM] QUESTA_UVM-1.2.3
# UVM_INFO verilog_src/questa_uvm_pkg-1.2/src/questa_uvm_pkg.sv(278) @ 0: reporter [Questa UVM]  questa_uvm::init(+struct)
# CREATEDDDDDDDDDDDDDDDDDDDDDDDDDDDDDDDDDDDDDDDDDDDDDDDD
# UVM_INFO @ 0: reporter [RNTST] Running test write_twice_test...
# base_test build phase
# my_test build phase
# env build phase
# my_active_agent build phase
# my_driver build phase
# Inputs monitor build phase complete.
# UVM_INFO components/sequencer.svh(24) @ 0: uvm_test_top.env_h.active_agent_h.sequencer_h [SEQUENCER] Build phase executed
# coverage build_phase
# Passive agent build phase complete.
# Outputs monitor build phase complete.
# UVM_INFO components/scoreboard.svh(48) @ 0: uvm_test_top.env_h.scoreboard_h [SCOREBOARD] Build phase completed
# my_comparator build phase
# my_predictor build phase
# my_driver connect phase
# Inputs monitor connect phase complete.
# UVM_INFO components/sequencer.svh(30) @ 0: uvm_test_top.env_h.active_agent_h.sequencer_h [SEQUENCER] Connect phase executed
# my_active_agent connect phase
# Outputs monitor connect phase complete.
# Passive agent connect phase complete.
# my_comparator connect phase
# my_predictor connect phase
# UVM_INFO components/scoreboard.svh(58) @ 0: uvm_test_top.env_h.scoreboard_h [SCOREBOARD] Connect phase completed
# env connect phase
# my_test connect phase
# my_test connect phase
# Inputs monitor end of elaboration phase complete.
# my_monitor end_of_elaboration_phase
# Outputs monitor end of elaboration phase complete.
# Passive agent end of elaboration phase complete.
# UVM_INFO components/env.svh(97) @ 0: uvm_test_top.env_h [env_h] '{"uvm_test_top.env_h.passive_agent_h.tlm_analysis_port_outputs":@uvm_port_component__5@15 }
# UVM_INFO components/env.svh(99) @ 0: uvm_test_top.env_h [env_h] '{"uvm_test_top.env_h.active_agent_h.tlm_analysis_port_inputs":@uvm_port_component__5@13 }
# UVM_INFO components/env.svh(101) @ 0: uvm_test_top.env_h [env_h] '{"uvm_test_top.env_h.passive_agent_h.tlm_analysis_port_outputs":@uvm_port_component__5@15 }
# FINISHED GET_PROVIDED_TO
# UVM_INFO components/env.svh(105) @ 0: uvm_test_top.env_h [env_h] '{ }
# UVM_INFO components/env.svh(107) @ 0: uvm_test_top.env_h [env_h] '{"uvm_test_top.env_h.scoreboard_h.predictor_h.analysis_imp":@uvm_port_component__5@19 }
# UVM_INFO components/env.svh(109) @ 0: uvm_test_top.env_h [env_h] '{"uvm_test_top.env_h.scoreboard_h.comparator_h.analysis_actual_outputs":@uvm_port_component__5@31 }
# my_monitor end_of_elaboration_phase
# env run phase
# my_predictor run phase
# UVM_INFO components/comparator.svh(70) @ 0: uvm_test_top.env_h.scoreboard_h.comparator_h [COMPARATOR] RUN PHASE
# Passive agent run phase complete.
# coverage run_phase
# my_active_agent run phase
# UVM_INFO components/sequencer.svh(36) @ 0: uvm_test_top.env_h.active_agent_h.sequencer_h [SEQUENCER] Run phase started
# start of pre_body task
# start of pre_body task
# start of pre_body task
# CREATEDDDDDDDDDDDDDDDDDDDDDDDDDDDDDDDDDDDDDDDDDDDDDDDD
# UVM_INFO components/driver.svh(64) @ 0: uvm_test_top.env_h.active_agent_h.driver_h [uvm_test_top.env_h.active_agent_h.driver_h] DRIVEN_ITEM: time: 0 HRESETn = 0, HSEL= 0, HWRITE = 0, HTRANS =  0, HSIZE = 0, HBURST = 0, HPROT = 0, HADDR = 0, HWDATA = 0, PREDICTOR_transaction_counter = 0, COMPARATOR_transaction_counter= 0
# HWRITE ========================================================== HWRITE = 0
#  RESET VALUE ----------> HRESETn = 1
# ASSSINGING RANDOMIZED VALUES
# RESETTTTTTTTTTTTTTTTTTTTT VALUE 0
# time:10 starting_reset_task
# time :10 resetting the interconnect
# UVM_INFO components/predictor.svh(98) @ 10: uvm_test_top.env_h.scoreboard_h.predictor_h [PREDICTOR] WRITTEN_DATA: HRESETn:0, HWRITE:0, HTRANS:0, HSIZE:0, HBURST:0, HPROT:0, HADDR:0, HWDATA:0
# UVM_INFO components/predictor.svh(103) @ 10: uvm_test_top.env_h.scoreboard_h.predictor_h [PREDICTOR] EXPECTED_DATA:  time: 10 HRESETn = 0, HSEL= 0, HWRITE = 0, HTRANS =  0, HSIZE = 0, HBURST = 0, HPROT = 0, HADDR = 0, HWDATA = 0, PREDICTOR_transaction_counter = 1, COMPARATOR_transaction_counter= 0
# my_predictor run phase
# UVM_INFO components/comparator.svh(74) @ 10: uvm_test_top.env_h.scoreboard_h.comparator_h [COMPARATOR] EXPECTED_SEQ_ITEM RECEIVED:  time: 10 HSEL: 0  HRDATA: 0  HRESP: 0   HREADY: 1, PREDICTOR_transaction_counter = 1, COMPARATOR_transaction_counter= 0
#  RESET VALUE ----------> HRESETn = 0
# time:160 HRESETn: 0 RESET DE-ASSERTED
# SENDING_OUTPUT_AFTER_RESET DE-ASSERTION
# UVM_INFO components/outputs_monitor.svh(75) @ 160: uvm_test_top.env_h.passive_agent_h.outputs_monitor_h [uvm_test_top.env_h.passive_agent_h.outputs_monitor_h] OUTPUTS SENT TO THE COMPARATOR
# UVM_INFO components/comparator.svh(78) @ 160: uvm_test_top.env_h.scoreboard_h.comparator_h [COMPARATOR] ACTUAL_SEQ_ITEM RECEIVED:  time: 160 HSEL: 0  HRDATA: 0  HRESP: 0   HREADY: 1, PREDICTOR_transaction_counter = 1, COMPARATOR_transaction_counter= 1
# UVM_INFO components/comparator.svh(83) @ 160: uvm_test_top.env_h.scoreboard_h.comparator_h [SCOREBOARD] PASS
# UVM_INFO components/comparator.svh(70) @ 160: uvm_test_top.env_h.scoreboard_h.comparator_h [COMPARATOR] RUN PHASE
# THE TEST SHOULD STOP NOW!!!!!!!!!!!!!!!!!!!!!!!!!!!!!!!!!!!!!
# start of pre_body task
# start of pre_body task
# CREATEDDDDDDDDDDDDDDDDDDDDDDDDDDDDDDDDDDDDDDDDDDDDDDDD
# UVM_INFO components/driver.svh(64) @ 160: uvm_test_top.env_h.active_agent_h.driver_h [uvm_test_top.env_h.active_agent_h.driver_h] DRIVEN_ITEM: time: 160 HRESETn = 1, HSEL= 0, HWRITE = 1, HTRANS =  2, HSIZE = 0, HBURST = 0, HPROT = 0, HADDR = 114, HWDATA = 122, PREDICTOR_transaction_counter = 1, COMPARATOR_transaction_counter= 1
# HWRITE ========================================================== HWRITE = 1
# ASSSINGING RANDOMIZED VALUES
# RESETTTTTTTTTTTTTTTTTTTTT VALUE 1
# UVM_INFO components/predictor.svh(98) @ 160: uvm_test_top.env_h.scoreboard_h.predictor_h [PREDICTOR] WRITTEN_DATA: HRESETn:1, HWRITE:1, HTRANS:2, HSIZE:0, HBURST:0, HPROT:0, HADDR:114, HWDATA:122
# UVM_INFO components/predictor.svh(103) @ 160: uvm_test_top.env_h.scoreboard_h.predictor_h [PREDICTOR] EXPECTED_DATA:  time: 160 HRESETn = 1, HSEL= 0, HWRITE = 1, HTRANS =  2, HSIZE = 0, HBURST = 0, HPROT = 0, HADDR = 114, HWDATA = 122, PREDICTOR_transaction_counter = 2, COMPARATOR_transaction_counter= 1
# my_predictor run phase
# UVM_INFO components/comparator.svh(74) @ 160: uvm_test_top.env_h.scoreboard_h.comparator_h [COMPARATOR] EXPECTED_SEQ_ITEM RECEIVED:  time: 160 HSEL: 0  HRDATA: 0  HRESP: 0   HREADY: 1, PREDICTOR_transaction_counter = 2, COMPARATOR_transaction_counter= 1
#  RESET VALUE ----------> HRESETn = 1
# time :170 AFTER EVENTSSSSSSSSS
# THE TEST SHOULD STOP NOW!!!!!!!!!!!!!!!!!!!!!!!!!!!!!!!!!!!!!
# start of pre_body task
# start of pre_body task
# CREATEDDDDDDDDDDDDDDDDDDDDDDDDDDDDDDDDDDDDDDDDDDDDDDDD
# UVM_INFO components/driver.svh(64) @ 170: uvm_test_top.env_h.active_agent_h.driver_h [uvm_test_top.env_h.active_agent_h.driver_h] DRIVEN_ITEM: time: 170 HRESETn = 1, HSEL= 1, HWRITE = 1, HTRANS =  2, HSIZE = 0, HBURST = 0, HPROT = 0, HADDR = 1073741824, HWDATA = 128, PREDICTOR_transaction_counter = 2, COMPARATOR_transaction_counter= 1
# HWRITE ========================================================== HWRITE = 1
# ASSSINGING RANDOMIZED VALUES
# RESETTTTTTTTTTTTTTTTTTTTT VALUE 1
# UVM_INFO components/predictor.svh(98) @ 170: uvm_test_top.env_h.scoreboard_h.predictor_h [PREDICTOR] WRITTEN_DATA: HRESETn:1, HWRITE:1, HTRANS:2, HSIZE:0, HBURST:0, HPROT:0, HADDR:1073741824, HWDATA:128
# UVM_INFO components/predictor.svh(103) @ 170: uvm_test_top.env_h.scoreboard_h.predictor_h [PREDICTOR] EXPECTED_DATA:  time: 170 HRESETn = 1, HSEL= 1, HWRITE = 1, HTRANS =  2, HSIZE = 0, HBURST = 0, HPROT = 0, HADDR = 1073741824, HWDATA = 128, PREDICTOR_transaction_counter = 3, COMPARATOR_transaction_counter= 1
# my_predictor run phase
# time :180 AFTER EVENTSSSSSSSSS
# time:180 send_outputs HWRITE = 1
# UVM_INFO components/outputs_monitor.svh(75) @ 180: uvm_test_top.env_h.passive_agent_h.outputs_monitor_h [uvm_test_top.env_h.passive_agent_h.outputs_monitor_h] OUTPUTS SENT TO THE COMPARATOR
# THE TEST SHOULD STOP NOW!!!!!!!!!!!!!!!!!!!!!!!!!!!!!!!!!!!!!
# UVM_INFO components/comparator.svh(78) @ 180: uvm_test_top.env_h.scoreboard_h.comparator_h [COMPARATOR] ACTUAL_SEQ_ITEM RECEIVED:  time: 180 HSEL: 0  HRDATA: 0  HRESP: 0   HREADY: 1, PREDICTOR_transaction_counter = 3, COMPARATOR_transaction_counter= 2
# UVM_INFO components/comparator.svh(83) @ 180: uvm_test_top.env_h.scoreboard_h.comparator_h [SCOREBOARD] PASS
# UVM_INFO components/comparator.svh(70) @ 180: uvm_test_top.env_h.scoreboard_h.comparator_h [COMPARATOR] RUN PHASE
# UVM_INFO components/comparator.svh(74) @ 180: uvm_test_top.env_h.scoreboard_h.comparator_h [COMPARATOR] EXPECTED_SEQ_ITEM RECEIVED:  time: 180 HSEL: 1  HRDATA: 0  HRESP: 0   HREADY: 1, PREDICTOR_transaction_counter = 3, COMPARATOR_transaction_counter= 2
# my_test run phase
# UVM_INFO verilog_src/uvm-1.1d/src/base/uvm_objection.svh(1267) @ 180: reporter [TEST_DONE] 'run' phase is ready to proceed to the 'extract' phase
# -------------------------------------------------------------------------------------------------------------------------------------------------------------
# INCORRECT FLAG ASSERTION/DEASSERTION COUNTER = 0
# CORRECT FLAG ASSERTION/DEASSERTION COUNTER = 0
# -------------------------------------------------------------------------------------------------------------------------------------------------------------
# UVM_INFO components/scoreboard.svh(63) @ 180: uvm_test_top.env_h.scoreboard_h [SCOREBOARD] Scoreboard is stopping.
# 
# --- UVM Report Summary ---
# 
# ** Report counts by severity
# UVM_INFO :   37
# UVM_WARNING :    0
# UVM_ERROR :    0
# UVM_FATAL :    0
# ** Report counts by id
# [COMPARATOR]     8
# [PREDICTOR]     6
# [Questa UVM]     2
# [RNTST]     1
# [SCOREBOARD]     5
# [SEQUENCER]     3
# [TEST_DONE]     1
# [env_h]     6
# [uvm_test_top.env_h.active_agent_h.driver_h]     3
# [uvm_test_top.env_h.passive_agent_h.outputs_monitor_h]     2
# ** Note: $finish    : F:/questasim/questasim64_2021.1/win64/../verilog_src/uvm-1.1d/src/base/uvm_root.svh(430)
#    Time: 180 ns  Iteration: 68  Instance: /top_test_uvm
# 1
# Break in Task uvm_pkg/uvm_root::run_test at F:/questasim/questasim64_2021.1/win64/../verilog_src/uvm-1.1d/src/base/uvm_root.svh line 430
do run.do
# Error 31: Unable to unlink file "F:/ic_design/repos/AHB_LITE/dv/work/top_optimized/_lib.qdb".
# Error 31: Unable to unlink file "F:/ic_design/repos/AHB_LITE/dv/work/top_optimized/_lib3_0.qdb".
# Error 31: Unable to unlink file "F:/ic_design/repos/AHB_LITE/dv/work/top_optimized/_lib3_0.qpg".
# Error 31: Unable to unlink file "F:/ic_design/repos/AHB_LITE/dv/work/top_optimized/_lib3_0.qtl".
# Error 133: Unable to remove directory "F:/ic_design/repos/AHB_LITE/dv/work/top_optimized".
# Error 133: Unable to remove directory "F:/ic_design/repos/AHB_LITE/dv/work".
# QuestaSim-64 vlog 2021.1 Compiler 2021.01 Jan 19 2021
# Start time: 11:12:01 on Oct 11,2024
# vlog -reportprogress 300 -f dut.f "+cover" -covercells 
# -- Compiling module ahb_default_slave
# -- Compiling module ahb_slave
# -- Compiling module ahb_mux
# -- Compiling module ahb_decoder
# -- Compiling module ahb_lite
# 
# Top level modules:
# 	ahb_lite
# End time: 11:12:01 on Oct 11,2024, Elapsed time: 0:00:00
# Errors: 0, Warnings: 0
# QuestaSim-64 vlog 2021.1 Compiler 2021.01 Jan 19 2021
# Start time: 11:12:01 on Oct 11,2024
# vlog -reportprogress 300 -f tb.f "+cover" -covercells 
# -- Compiling package AHB_pkg
# -- Importing package mtiUvm.uvm_pkg (uvm-1.1d Built-in)
# ** Note: (vlog-2286) AHB_lite_uvm_pkg.sv(4): Using implicit +incdir+F:/questasim/questasim64_2021.1/uvm-1.1d/../verilog_src/uvm-1.1d/src from import uvm_pkg
# -- Compiling interface inf
# -- Importing package AHB_pkg
# -- Compiling module top_test_uvm
# 
# Top level modules:
# 	top_test_uvm
# End time: 11:12:02 on Oct 11,2024, Elapsed time: 0:00:01
# Errors: 0, Warnings: 0
# QuestaSim-64 vopt 2021.1 Compiler 2021.01 Jan 19 2021
# Start time: 11:12:03 on Oct 11,2024
# vopt -reportprogress 300 top_test_uvm -o top_optimized "+acc" "+cover=bcefsx+ahb_lite(rtl)" 
# ** Warning: (vopt-31) Unable to unlink file "F:/ic_design/repos/AHB_LITE/dv/work/top_optimized/_lib.qdb".
# ** Warning: (vopt-31) Unable to unlink file "F:/ic_design/repos/AHB_LITE/dv/work/top_optimized/_lib3_0.qdb".
# The process cannot access the file because it is being used by another process. (GetLastError() = 32)
# ** Warning: (vopt-31) Unable to unlink file "F:/ic_design/repos/AHB_LITE/dv/work/top_optimized/_lib3_0.qpg".
# The process cannot access the file because it is being used by another process. (GetLastError() = 32)
# ** Warning: (vopt-31) Unable to unlink file "F:/ic_design/repos/AHB_LITE/dv/work/top_optimized/_lib3_0.qtl".
# The process cannot access the file because it is being used by another process. (GetLastError() = 32)
# ** Warning: (vopt-133) Unable to remove directory "F:/ic_design/repos/AHB_LITE/dv/work/top_optimized".
# 
# Top level modules:
# 	top_test_uvm
# 
# Analyzing design...
# -- Loading module top_test_uvm
# -- Importing package mtiUvm.uvm_pkg (uvm-1.1d Built-in)
# -- Importing package AHB_pkg
# -- Loading package mtiUvm.questa_uvm_pkg
# -- Loading interface inf
# -- Loading module ahb_lite
# -- Loading module ahb_decoder
# -- Loading module ahb_mux
# -- Loading module ahb_default_slave
# -- Loading module ahb_slave
# init_auxdbinfo(): INTERNAL ERROR: Cannot open page file "F:/ic_design/repos/AHB_LITE/dv/work/top_optimized/_lib1_0.qpg" in read mode
# Optimizing 11 design-units (inlining 0/9 module instances):
# -- Optimizing package mtiUvm.uvm_pkg (uvm-1.1d Built-in)(fast)
# -- Optimizing package mtiUvm.questa_uvm_pkg(fast)
# -- Optimizing package AHB_pkg(fast)
# -- Optimizing interface inf(fast__2)
# -- Optimizing module ahb_slave(fast)
# -- Optimizing module ahb_mux(fast)
# -- Optimizing module ahb_lite(fast)
# -- Optimizing module ahb_default_slave(fast)
# -- Optimizing module ahb_decoder(fast)
# -- Optimizing module top_test_uvm(fast)
# -- Optimizing interface inf(fast)
# Optimized design name is top_optimized
# End time: 11:12:06 on Oct 11,2024, Elapsed time: 0:00:03
# Errors: 0, Warnings: 5
# End time: 11:12:59 on Oct 11,2024, Elapsed time: 0:02:46
# Errors: 0, Warnings: 0
# vsim top_optimized -coverage -solvefaildebug=2 "+UVM_TESTNAME=write_twice_test" 
# Start time: 11:13:01 on Oct 11,2024
# Loading sv_std.std
# Loading work.inf(fast)
# Loading mtiUvm.uvm_pkg(fast)
# Loading work.AHB_pkg(fast)
# Loading mtiUvm.questa_uvm_pkg(fast)
# Loading work.top_test_uvm(fast)
# Loading work.inf(fast__2)
# Loading work.ahb_lite(fast)
# Loading work.ahb_decoder(fast)
# Loading work.ahb_mux(fast)
# Loading work.ahb_default_slave(fast)
# Loading work.ahb_slave(fast)
# Loading F:/questasim/questasim64_2021.1/uvm-1.1d\win64\uvm_dpi.dll
# ----------------------------------------------------------------
# UVM-1.1d
# (C) 2007-2013 Mentor Graphics Corporation
# (C) 2007-2013 Cadence Design Systems, Inc.
# (C) 2006-2013 Synopsys, Inc.
# (C) 2011-2013 Cypress Semiconductor Corp.
# ----------------------------------------------------------------
# 
#   ***********       IMPORTANT RELEASE NOTES         ************
# 
#   You are using a version of the UVM library that has been compiled
#   with `UVM_NO_DEPRECATED undefined.
#   See http://www.eda.org/svdb/view.php?id=3313 for more details.
# 
#   You are using a version of the UVM library that has been compiled
#   with `UVM_OBJECT_MUST_HAVE_CONSTRUCTOR undefined.
#   See http://www.eda.org/svdb/view.php?id=3770 for more details.
# 
#       (Specify +UVM_NO_RELNOTES to turn off this notice)
# 
# UVM_INFO verilog_src/questa_uvm_pkg-1.2/src/questa_uvm_pkg.sv(277) @ 0: reporter [Questa UVM] QUESTA_UVM-1.2.3
# UVM_INFO verilog_src/questa_uvm_pkg-1.2/src/questa_uvm_pkg.sv(278) @ 0: reporter [Questa UVM]  questa_uvm::init(+struct)
# CREATEDDDDDDDDDDDDDDDDDDDDDDDDDDDDDDDDDDDDDDDDDDDDDDDD
# UVM_INFO @ 0: reporter [RNTST] Running test write_twice_test...
# base_test build phase
# my_test build phase
# env build phase
# my_active_agent build phase
# my_driver build phase
# Inputs monitor build phase complete.
# UVM_INFO components/sequencer.svh(24) @ 0: uvm_test_top.env_h.active_agent_h.sequencer_h [SEQUENCER] Build phase executed
# coverage build_phase
# Passive agent build phase complete.
# Outputs monitor build phase complete.
# UVM_INFO components/scoreboard.svh(48) @ 0: uvm_test_top.env_h.scoreboard_h [SCOREBOARD] Build phase completed
# my_comparator build phase
# my_predictor build phase
# my_driver connect phase
# Inputs monitor connect phase complete.
# UVM_INFO components/sequencer.svh(30) @ 0: uvm_test_top.env_h.active_agent_h.sequencer_h [SEQUENCER] Connect phase executed
# my_active_agent connect phase
# Outputs monitor connect phase complete.
# Passive agent connect phase complete.
# my_comparator connect phase
# my_predictor connect phase
# UVM_INFO components/scoreboard.svh(58) @ 0: uvm_test_top.env_h.scoreboard_h [SCOREBOARD] Connect phase completed
# env connect phase
# my_test connect phase
# my_test connect phase
# Inputs monitor end of elaboration phase complete.
# my_monitor end_of_elaboration_phase
# Outputs monitor end of elaboration phase complete.
# Passive agent end of elaboration phase complete.
# UVM_INFO components/env.svh(97) @ 0: uvm_test_top.env_h [env_h] '{"uvm_test_top.env_h.passive_agent_h.tlm_analysis_port_outputs":@uvm_port_component__5@15 }
# UVM_INFO components/env.svh(99) @ 0: uvm_test_top.env_h [env_h] '{"uvm_test_top.env_h.active_agent_h.tlm_analysis_port_inputs":@uvm_port_component__5@13 }
# UVM_INFO components/env.svh(101) @ 0: uvm_test_top.env_h [env_h] '{"uvm_test_top.env_h.passive_agent_h.tlm_analysis_port_outputs":@uvm_port_component__5@15 }
# FINISHED GET_PROVIDED_TO
# UVM_INFO components/env.svh(105) @ 0: uvm_test_top.env_h [env_h] '{ }
# UVM_INFO components/env.svh(107) @ 0: uvm_test_top.env_h [env_h] '{"uvm_test_top.env_h.scoreboard_h.predictor_h.analysis_imp":@uvm_port_component__5@19 }
# UVM_INFO components/env.svh(109) @ 0: uvm_test_top.env_h [env_h] '{"uvm_test_top.env_h.scoreboard_h.comparator_h.analysis_actual_outputs":@uvm_port_component__5@31 }
# my_monitor end_of_elaboration_phase
# env run phase
# my_predictor run phase
# UVM_INFO components/comparator.svh(70) @ 0: uvm_test_top.env_h.scoreboard_h.comparator_h [COMPARATOR] RUN PHASE
# Passive agent run phase complete.
# coverage run_phase
# my_active_agent run phase
# UVM_INFO components/sequencer.svh(36) @ 0: uvm_test_top.env_h.active_agent_h.sequencer_h [SEQUENCER] Run phase started
# start of pre_body task
# start of pre_body task
# start of pre_body task
# CREATEDDDDDDDDDDDDDDDDDDDDDDDDDDDDDDDDDDDDDDDDDDDDDDDD
# UVM_INFO components/driver.svh(64) @ 0: uvm_test_top.env_h.active_agent_h.driver_h [uvm_test_top.env_h.active_agent_h.driver_h] DRIVEN_ITEM: time: 0 HRESETn = 0, HSEL= 0, HWRITE = 0, HTRANS =  0, HSIZE = 0, HBURST = 0, HPROT = 0, HADDR = 0, HWDATA = 0, PREDICTOR_transaction_counter = 0, COMPARATOR_transaction_counter= 0
# HWRITE ========================================================== HWRITE = 0
#  RESET VALUE ----------> HRESETn = 1
# ASSSINGING RANDOMIZED VALUES
# RESETTTTTTTTTTTTTTTTTTTTT VALUE 0
# time:10 starting_reset_task
# time :10 resetting the interconnect
# UVM_INFO components/predictor.svh(98) @ 10: uvm_test_top.env_h.scoreboard_h.predictor_h [PREDICTOR] WRITTEN_DATA: HRESETn:0, HWRITE:0, HTRANS:0, HSIZE:0, HBURST:0, HPROT:0, HADDR:0, HWDATA:0
# UVM_INFO components/predictor.svh(103) @ 10: uvm_test_top.env_h.scoreboard_h.predictor_h [PREDICTOR] EXPECTED_DATA:  time: 10 HRESETn = 0, HSEL= 0, HWRITE = 0, HTRANS =  0, HSIZE = 0, HBURST = 0, HPROT = 0, HADDR = 0, HWDATA = 0, PREDICTOR_transaction_counter = 1, COMPARATOR_transaction_counter= 0
# my_predictor run phase
# UVM_INFO components/comparator.svh(74) @ 10: uvm_test_top.env_h.scoreboard_h.comparator_h [COMPARATOR] EXPECTED_SEQ_ITEM RECEIVED:  time: 10 HSEL: 0  HRDATA: 0  HRESP: 0   HREADY: 1, PREDICTOR_transaction_counter = 1, COMPARATOR_transaction_counter= 0
#  RESET VALUE ----------> HRESETn = 0
# time:160 HRESETn: 0 RESET DE-ASSERTED
# SENDING_OUTPUT_AFTER_RESET DE-ASSERTION
# UVM_INFO components/outputs_monitor.svh(75) @ 160: uvm_test_top.env_h.passive_agent_h.outputs_monitor_h [uvm_test_top.env_h.passive_agent_h.outputs_monitor_h] OUTPUTS SENT TO THE COMPARATOR
# UVM_INFO components/comparator.svh(78) @ 160: uvm_test_top.env_h.scoreboard_h.comparator_h [COMPARATOR] ACTUAL_SEQ_ITEM RECEIVED:  time: 160 HSEL: 0  HRDATA: 0  HRESP: 0   HREADY: 1, PREDICTOR_transaction_counter = 1, COMPARATOR_transaction_counter= 1
# UVM_INFO components/comparator.svh(83) @ 160: uvm_test_top.env_h.scoreboard_h.comparator_h [SCOREBOARD] PASS
# UVM_INFO components/comparator.svh(70) @ 160: uvm_test_top.env_h.scoreboard_h.comparator_h [COMPARATOR] RUN PHASE
# THE TEST SHOULD STOP NOW!!!!!!!!!!!!!!!!!!!!!!!!!!!!!!!!!!!!!
# start of pre_body task
# start of pre_body task
# CREATEDDDDDDDDDDDDDDDDDDDDDDDDDDDDDDDDDDDDDDDDDDDDDDDD
# UVM_INFO components/driver.svh(64) @ 160: uvm_test_top.env_h.active_agent_h.driver_h [uvm_test_top.env_h.active_agent_h.driver_h] DRIVEN_ITEM: time: 160 HRESETn = 1, HSEL= 0, HWRITE = 1, HTRANS =  2, HSIZE = 0, HBURST = 0, HPROT = 0, HADDR = 114, HWDATA = 122, PREDICTOR_transaction_counter = 1, COMPARATOR_transaction_counter= 1
# HWRITE ========================================================== HWRITE = 1
# ASSSINGING RANDOMIZED VALUES
# RESETTTTTTTTTTTTTTTTTTTTT VALUE 1
# UVM_INFO components/predictor.svh(98) @ 160: uvm_test_top.env_h.scoreboard_h.predictor_h [PREDICTOR] WRITTEN_DATA: HRESETn:1, HWRITE:1, HTRANS:2, HSIZE:0, HBURST:0, HPROT:0, HADDR:114, HWDATA:122
# UVM_INFO components/predictor.svh(103) @ 160: uvm_test_top.env_h.scoreboard_h.predictor_h [PREDICTOR] EXPECTED_DATA:  time: 160 HRESETn = 1, HSEL= 0, HWRITE = 1, HTRANS =  2, HSIZE = 0, HBURST = 0, HPROT = 0, HADDR = 114, HWDATA = 122, PREDICTOR_transaction_counter = 2, COMPARATOR_transaction_counter= 1
# my_predictor run phase
# UVM_INFO components/comparator.svh(74) @ 160: uvm_test_top.env_h.scoreboard_h.comparator_h [COMPARATOR] EXPECTED_SEQ_ITEM RECEIVED:  time: 160 HSEL: 0  HRDATA: 0  HRESP: 0   HREADY: 1, PREDICTOR_transaction_counter = 2, COMPARATOR_transaction_counter= 1
#  RESET VALUE ----------> HRESETn = 1
# time :170 AFTER EVENTSSSSSSSSS
# THE TEST SHOULD STOP NOW!!!!!!!!!!!!!!!!!!!!!!!!!!!!!!!!!!!!!
# start of pre_body task
# start of pre_body task
# CREATEDDDDDDDDDDDDDDDDDDDDDDDDDDDDDDDDDDDDDDDDDDDDDDDD
# UVM_INFO components/driver.svh(64) @ 170: uvm_test_top.env_h.active_agent_h.driver_h [uvm_test_top.env_h.active_agent_h.driver_h] DRIVEN_ITEM: time: 170 HRESETn = 1, HSEL= 1, HWRITE = 1, HTRANS =  2, HSIZE = 0, HBURST = 0, HPROT = 0, HADDR = 1073741824, HWDATA = 128, PREDICTOR_transaction_counter = 2, COMPARATOR_transaction_counter= 1
# HWRITE ========================================================== HWRITE = 1
# ASSSINGING RANDOMIZED VALUES
# RESETTTTTTTTTTTTTTTTTTTTT VALUE 1
# UVM_INFO components/predictor.svh(98) @ 170: uvm_test_top.env_h.scoreboard_h.predictor_h [PREDICTOR] WRITTEN_DATA: HRESETn:1, HWRITE:1, HTRANS:2, HSIZE:0, HBURST:0, HPROT:0, HADDR:1073741824, HWDATA:128
# UVM_INFO components/predictor.svh(103) @ 170: uvm_test_top.env_h.scoreboard_h.predictor_h [PREDICTOR] EXPECTED_DATA:  time: 170 HRESETn = 1, HSEL= 1, HWRITE = 1, HTRANS =  2, HSIZE = 0, HBURST = 0, HPROT = 0, HADDR = 1073741824, HWDATA = 128, PREDICTOR_transaction_counter = 3, COMPARATOR_transaction_counter= 1
# my_predictor run phase
# time :180 AFTER EVENTSSSSSSSSS
# time:180 send_outputs HWRITE = 1
# UVM_INFO components/outputs_monitor.svh(75) @ 180: uvm_test_top.env_h.passive_agent_h.outputs_monitor_h [uvm_test_top.env_h.passive_agent_h.outputs_monitor_h] OUTPUTS SENT TO THE COMPARATOR
# THE TEST SHOULD STOP NOW!!!!!!!!!!!!!!!!!!!!!!!!!!!!!!!!!!!!!
# UVM_INFO components/comparator.svh(78) @ 180: uvm_test_top.env_h.scoreboard_h.comparator_h [COMPARATOR] ACTUAL_SEQ_ITEM RECEIVED:  time: 180 HSEL: 0  HRDATA: 0  HRESP: 0   HREADY: 1, PREDICTOR_transaction_counter = 3, COMPARATOR_transaction_counter= 2
# UVM_INFO components/comparator.svh(83) @ 180: uvm_test_top.env_h.scoreboard_h.comparator_h [SCOREBOARD] PASS
# UVM_INFO components/comparator.svh(70) @ 180: uvm_test_top.env_h.scoreboard_h.comparator_h [COMPARATOR] RUN PHASE
# UVM_INFO components/comparator.svh(74) @ 180: uvm_test_top.env_h.scoreboard_h.comparator_h [COMPARATOR] EXPECTED_SEQ_ITEM RECEIVED:  time: 180 HSEL: 1  HRDATA: 0  HRESP: 0   HREADY: 1, PREDICTOR_transaction_counter = 3, COMPARATOR_transaction_counter= 2
# my_test run phase
# UVM_INFO verilog_src/uvm-1.1d/src/base/uvm_objection.svh(1267) @ 180: reporter [TEST_DONE] 'run' phase is ready to proceed to the 'extract' phase
# -------------------------------------------------------------------------------------------------------------------------------------------------------------
# INCORRECT FLAG ASSERTION/DEASSERTION COUNTER = 0
# CORRECT FLAG ASSERTION/DEASSERTION COUNTER = 0
# -------------------------------------------------------------------------------------------------------------------------------------------------------------
# UVM_INFO components/scoreboard.svh(63) @ 180: uvm_test_top.env_h.scoreboard_h [SCOREBOARD] Scoreboard is stopping.
# 
# --- UVM Report Summary ---
# 
# ** Report counts by severity
# UVM_INFO :   37
# UVM_WARNING :    0
# UVM_ERROR :    0
# UVM_FATAL :    0
# ** Report counts by id
# [COMPARATOR]     8
# [PREDICTOR]     6
# [Questa UVM]     2
# [RNTST]     1
# [SCOREBOARD]     5
# [SEQUENCER]     3
# [TEST_DONE]     1
# [env_h]     6
# [uvm_test_top.env_h.active_agent_h.driver_h]     3
# [uvm_test_top.env_h.passive_agent_h.outputs_monitor_h]     2
# ** Note: $finish    : F:/questasim/questasim64_2021.1/win64/../verilog_src/uvm-1.1d/src/base/uvm_root.svh(430)
#    Time: 180 ns  Iteration: 68  Instance: /top_test_uvm
# 1
# Break in Task uvm_pkg/uvm_root::run_test at F:/questasim/questasim64_2021.1/win64/../verilog_src/uvm-1.1d/src/base/uvm_root.svh line 430
do run.do
# Error 31: Unable to unlink file "F:/ic_design/repos/AHB_LITE/dv/work/top_optimized/_lib.qdb".
# Error 31: Unable to unlink file "F:/ic_design/repos/AHB_LITE/dv/work/top_optimized/_lib3_0.qdb".
# Error 31: Unable to unlink file "F:/ic_design/repos/AHB_LITE/dv/work/top_optimized/_lib3_0.qpg".
# Error 31: Unable to unlink file "F:/ic_design/repos/AHB_LITE/dv/work/top_optimized/_lib3_0.qtl".
# Error 133: Unable to remove directory "F:/ic_design/repos/AHB_LITE/dv/work/top_optimized".
# Error 133: Unable to remove directory "F:/ic_design/repos/AHB_LITE/dv/work".
# QuestaSim-64 vlog 2021.1 Compiler 2021.01 Jan 19 2021
# Start time: 11:15:06 on Oct 11,2024
# vlog -reportprogress 300 -f dut.f "+cover" -covercells 
# -- Compiling module ahb_default_slave
# -- Compiling module ahb_slave
# -- Compiling module ahb_mux
# -- Compiling module ahb_decoder
# -- Compiling module ahb_lite
# 
# Top level modules:
# 	ahb_lite
# End time: 11:15:07 on Oct 11,2024, Elapsed time: 0:00:01
# Errors: 0, Warnings: 0
# QuestaSim-64 vlog 2021.1 Compiler 2021.01 Jan 19 2021
# Start time: 11:15:07 on Oct 11,2024
# vlog -reportprogress 300 -f tb.f "+cover" -covercells 
# -- Compiling package AHB_pkg
# -- Importing package mtiUvm.uvm_pkg (uvm-1.1d Built-in)
# ** Note: (vlog-2286) AHB_lite_uvm_pkg.sv(4): Using implicit +incdir+F:/questasim/questasim64_2021.1/uvm-1.1d/../verilog_src/uvm-1.1d/src from import uvm_pkg
# -- Compiling interface inf
# -- Importing package AHB_pkg
# -- Compiling module top_test_uvm
# 
# Top level modules:
# 	top_test_uvm
# End time: 11:15:07 on Oct 11,2024, Elapsed time: 0:00:00
# Errors: 0, Warnings: 0
# QuestaSim-64 vopt 2021.1 Compiler 2021.01 Jan 19 2021
# Start time: 11:15:08 on Oct 11,2024
# vopt -reportprogress 300 top_test_uvm -o top_optimized "+acc" "+cover=bcefsx+ahb_lite(rtl)" 
# ** Warning: (vopt-31) Unable to unlink file "F:/ic_design/repos/AHB_LITE/dv/work/top_optimized/_lib.qdb".
# ** Warning: (vopt-31) Unable to unlink file "F:/ic_design/repos/AHB_LITE/dv/work/top_optimized/_lib3_0.qdb".
# The process cannot access the file because it is being used by another process. (GetLastError() = 32)
# ** Warning: (vopt-31) Unable to unlink file "F:/ic_design/repos/AHB_LITE/dv/work/top_optimized/_lib3_0.qpg".
# The process cannot access the file because it is being used by another process. (GetLastError() = 32)
# ** Warning: (vopt-31) Unable to unlink file "F:/ic_design/repos/AHB_LITE/dv/work/top_optimized/_lib3_0.qtl".
# The process cannot access the file because it is being used by another process. (GetLastError() = 32)
# ** Warning: (vopt-133) Unable to remove directory "F:/ic_design/repos/AHB_LITE/dv/work/top_optimized".
# 
# Top level modules:
# 	top_test_uvm
# 
# Analyzing design...
# -- Loading module top_test_uvm
# -- Importing package mtiUvm.uvm_pkg (uvm-1.1d Built-in)
# -- Importing package AHB_pkg
# -- Loading package mtiUvm.questa_uvm_pkg
# -- Loading interface inf
# -- Loading module ahb_lite
# -- Loading module ahb_decoder
# -- Loading module ahb_mux
# -- Loading module ahb_default_slave
# -- Loading module ahb_slave
# Optimizing 11 design-units (inlining 0/9 module instances):
# -- Optimizing package mtiUvm.uvm_pkg (uvm-1.1d Built-in)(fast)
# -- Optimizing package mtiUvm.questa_uvm_pkg(fast)
# -- Optimizing package AHB_pkg(fast)
# -- Optimizing interface inf(fast__2)
# -- Optimizing module ahb_slave(fast)
# -- Optimizing module ahb_mux(fast)
# -- Optimizing module ahb_lite(fast)
# -- Optimizing module ahb_default_slave(fast)
# -- Optimizing module ahb_decoder(fast)
# -- Optimizing module top_test_uvm(fast)
# -- Optimizing interface inf(fast)
# Optimized design name is top_optimized
# End time: 11:15:11 on Oct 11,2024, Elapsed time: 0:00:03
# Errors: 0, Warnings: 5
# End time: 11:15:45 on Oct 11,2024, Elapsed time: 0:02:44
# Errors: 0, Warnings: 0
# vsim top_optimized -coverage -solvefaildebug=2 "+UVM_TESTNAME=write_twice_test" 
# Start time: 11:15:46 on Oct 11,2024
# Loading sv_std.std
# Loading work.inf(fast)
# Loading mtiUvm.uvm_pkg(fast)
# Loading work.AHB_pkg(fast)
# Loading mtiUvm.questa_uvm_pkg(fast)
# Loading work.top_test_uvm(fast)
# Loading work.inf(fast__2)
# Loading work.ahb_lite(fast)
# Loading work.ahb_decoder(fast)
# Loading work.ahb_mux(fast)
# Loading work.ahb_default_slave(fast)
# Loading work.ahb_slave(fast)
# Loading F:/questasim/questasim64_2021.1/uvm-1.1d\win64\uvm_dpi.dll
# ----------------------------------------------------------------
# UVM-1.1d
# (C) 2007-2013 Mentor Graphics Corporation
# (C) 2007-2013 Cadence Design Systems, Inc.
# (C) 2006-2013 Synopsys, Inc.
# (C) 2011-2013 Cypress Semiconductor Corp.
# ----------------------------------------------------------------
# 
#   ***********       IMPORTANT RELEASE NOTES         ************
# 
#   You are using a version of the UVM library that has been compiled
#   with `UVM_NO_DEPRECATED undefined.
#   See http://www.eda.org/svdb/view.php?id=3313 for more details.
# 
#   You are using a version of the UVM library that has been compiled
#   with `UVM_OBJECT_MUST_HAVE_CONSTRUCTOR undefined.
#   See http://www.eda.org/svdb/view.php?id=3770 for more details.
# 
#       (Specify +UVM_NO_RELNOTES to turn off this notice)
# 
# UVM_INFO verilog_src/questa_uvm_pkg-1.2/src/questa_uvm_pkg.sv(277) @ 0: reporter [Questa UVM] QUESTA_UVM-1.2.3
# UVM_INFO verilog_src/questa_uvm_pkg-1.2/src/questa_uvm_pkg.sv(278) @ 0: reporter [Questa UVM]  questa_uvm::init(+struct)
# CREATEDDDDDDDDDDDDDDDDDDDDDDDDDDDDDDDDDDDDDDDDDDDDDDDD
# UVM_INFO @ 0: reporter [RNTST] Running test write_twice_test...
# base_test build phase
# my_test build phase
# env build phase
# my_active_agent build phase
# my_driver build phase
# Inputs monitor build phase complete.
# UVM_INFO components/sequencer.svh(24) @ 0: uvm_test_top.env_h.active_agent_h.sequencer_h [SEQUENCER] Build phase executed
# coverage build_phase
# Passive agent build phase complete.
# Outputs monitor build phase complete.
# UVM_INFO components/scoreboard.svh(48) @ 0: uvm_test_top.env_h.scoreboard_h [SCOREBOARD] Build phase completed
# my_comparator build phase
# my_predictor build phase
# my_driver connect phase
# Inputs monitor connect phase complete.
# UVM_INFO components/sequencer.svh(30) @ 0: uvm_test_top.env_h.active_agent_h.sequencer_h [SEQUENCER] Connect phase executed
# my_active_agent connect phase
# Outputs monitor connect phase complete.
# Passive agent connect phase complete.
# my_comparator connect phase
# my_predictor connect phase
# UVM_INFO components/scoreboard.svh(58) @ 0: uvm_test_top.env_h.scoreboard_h [SCOREBOARD] Connect phase completed
# env connect phase
# my_test connect phase
# my_test connect phase
# Inputs monitor end of elaboration phase complete.
# my_monitor end_of_elaboration_phase
# Outputs monitor end of elaboration phase complete.
# Passive agent end of elaboration phase complete.
# UVM_INFO components/env.svh(97) @ 0: uvm_test_top.env_h [env_h] '{"uvm_test_top.env_h.passive_agent_h.tlm_analysis_port_outputs":@uvm_port_component__5@15 }
# UVM_INFO components/env.svh(99) @ 0: uvm_test_top.env_h [env_h] '{"uvm_test_top.env_h.active_agent_h.tlm_analysis_port_inputs":@uvm_port_component__5@13 }
# UVM_INFO components/env.svh(101) @ 0: uvm_test_top.env_h [env_h] '{"uvm_test_top.env_h.passive_agent_h.tlm_analysis_port_outputs":@uvm_port_component__5@15 }
# FINISHED GET_PROVIDED_TO
# UVM_INFO components/env.svh(105) @ 0: uvm_test_top.env_h [env_h] '{ }
# UVM_INFO components/env.svh(107) @ 0: uvm_test_top.env_h [env_h] '{"uvm_test_top.env_h.scoreboard_h.predictor_h.analysis_imp":@uvm_port_component__5@19 }
# UVM_INFO components/env.svh(109) @ 0: uvm_test_top.env_h [env_h] '{"uvm_test_top.env_h.scoreboard_h.comparator_h.analysis_actual_outputs":@uvm_port_component__5@31 }
# my_monitor end_of_elaboration_phase
# env run phase
# my_predictor run phase
# UVM_INFO components/comparator.svh(70) @ 0: uvm_test_top.env_h.scoreboard_h.comparator_h [COMPARATOR] RUN PHASE
# Passive agent run phase complete.
# coverage run_phase
# my_active_agent run phase
# UVM_INFO components/sequencer.svh(36) @ 0: uvm_test_top.env_h.active_agent_h.sequencer_h [SEQUENCER] Run phase started
# start of pre_body task
# start of pre_body task
# start of pre_body task
# CREATEDDDDDDDDDDDDDDDDDDDDDDDDDDDDDDDDDDDDDDDDDDDDDDDD
# UVM_INFO components/driver.svh(64) @ 0: uvm_test_top.env_h.active_agent_h.driver_h [uvm_test_top.env_h.active_agent_h.driver_h] DRIVEN_ITEM: time: 0 HRESETn = 0, HSEL= 0, HWRITE = 0, HTRANS =  0, HSIZE = 0, HBURST = 0, HPROT = 0, HADDR = 0, HWDATA = 0, PREDICTOR_transaction_counter = 0, COMPARATOR_transaction_counter= 0
# HWRITE ========================================================== HWRITE = 0
#  RESET VALUE ----------> HRESETn = 1
# ASSSINGING RANDOMIZED VALUES
# RESETTTTTTTTTTTTTTTTTTTTT VALUE 0
# time:10 starting_reset_task
# time :10 resetting the interconnect
# UVM_INFO components/predictor.svh(98) @ 10: uvm_test_top.env_h.scoreboard_h.predictor_h [PREDICTOR] WRITTEN_DATA: HRESETn:0, HWRITE:0, HTRANS:0, HSIZE:0, HBURST:0, HPROT:0, HADDR:0, HWDATA:0
# UVM_INFO components/predictor.svh(103) @ 10: uvm_test_top.env_h.scoreboard_h.predictor_h [PREDICTOR] EXPECTED_DATA:  time: 10 HRESETn = 0, HSEL= 0, HWRITE = 0, HTRANS =  0, HSIZE = 0, HBURST = 0, HPROT = 0, HADDR = 0, HWDATA = 0, PREDICTOR_transaction_counter = 1, COMPARATOR_transaction_counter= 0
# my_predictor run phase
# UVM_INFO components/comparator.svh(74) @ 10: uvm_test_top.env_h.scoreboard_h.comparator_h [COMPARATOR] EXPECTED_SEQ_ITEM RECEIVED:  time: 10 HSEL: 0  HRDATA: 0  HRESP: 0   HREADY: 1, PREDICTOR_transaction_counter = 1, COMPARATOR_transaction_counter= 0
#  RESET VALUE ----------> HRESETn = 0
# time:160 HRESETn: 0 RESET DE-ASSERTED
# SENDING_OUTPUT_AFTER_RESET DE-ASSERTION
# UVM_INFO components/outputs_monitor.svh(75) @ 160: uvm_test_top.env_h.passive_agent_h.outputs_monitor_h [uvm_test_top.env_h.passive_agent_h.outputs_monitor_h] OUTPUTS SENT TO THE COMPARATOR
# UVM_INFO components/comparator.svh(78) @ 160: uvm_test_top.env_h.scoreboard_h.comparator_h [COMPARATOR] ACTUAL_SEQ_ITEM RECEIVED:  time: 160 HSEL: 0  HRDATA: 0  HRESP: 0   HREADY: 1, PREDICTOR_transaction_counter = 1, COMPARATOR_transaction_counter= 1
# UVM_INFO components/comparator.svh(83) @ 160: uvm_test_top.env_h.scoreboard_h.comparator_h [SCOREBOARD] PASS
# UVM_INFO components/comparator.svh(70) @ 160: uvm_test_top.env_h.scoreboard_h.comparator_h [COMPARATOR] RUN PHASE
# THE TEST SHOULD STOP NOW!!!!!!!!!!!!!!!!!!!!!!!!!!!!!!!!!!!!!
# start of pre_body task
# start of pre_body task
# CREATEDDDDDDDDDDDDDDDDDDDDDDDDDDDDDDDDDDDDDDDDDDDDDDDD
# UVM_INFO components/driver.svh(64) @ 160: uvm_test_top.env_h.active_agent_h.driver_h [uvm_test_top.env_h.active_agent_h.driver_h] DRIVEN_ITEM: time: 160 HRESETn = 1, HSEL= 0, HWRITE = 1, HTRANS =  2, HSIZE = 0, HBURST = 0, HPROT = 0, HADDR = 114, HWDATA = 122, PREDICTOR_transaction_counter = 1, COMPARATOR_transaction_counter= 1
# HWRITE ========================================================== HWRITE = 1
# ASSSINGING RANDOMIZED VALUES
# RESETTTTTTTTTTTTTTTTTTTTT VALUE 1
# UVM_INFO components/predictor.svh(98) @ 160: uvm_test_top.env_h.scoreboard_h.predictor_h [PREDICTOR] WRITTEN_DATA: HRESETn:1, HWRITE:1, HTRANS:2, HSIZE:0, HBURST:0, HPROT:0, HADDR:114, HWDATA:122
# UVM_INFO components/predictor.svh(103) @ 160: uvm_test_top.env_h.scoreboard_h.predictor_h [PREDICTOR] EXPECTED_DATA:  time: 160 HRESETn = 1, HSEL= 0, HWRITE = 1, HTRANS =  2, HSIZE = 0, HBURST = 0, HPROT = 0, HADDR = 114, HWDATA = 122, PREDICTOR_transaction_counter = 2, COMPARATOR_transaction_counter= 1
# my_predictor run phase
# UVM_INFO components/comparator.svh(74) @ 160: uvm_test_top.env_h.scoreboard_h.comparator_h [COMPARATOR] EXPECTED_SEQ_ITEM RECEIVED:  time: 160 HSEL: 0  HRDATA: 0  HRESP: 0   HREADY: 1, PREDICTOR_transaction_counter = 2, COMPARATOR_transaction_counter= 1
#  RESET VALUE ----------> HRESETn = 1
# time :170 AFTER EVENTSSSSSSSSS
# THE TEST SHOULD STOP NOW!!!!!!!!!!!!!!!!!!!!!!!!!!!!!!!!!!!!!
# start of pre_body task
# start of pre_body task
# CREATEDDDDDDDDDDDDDDDDDDDDDDDDDDDDDDDDDDDDDDDDDDDDDDDD
# UVM_INFO components/driver.svh(64) @ 170: uvm_test_top.env_h.active_agent_h.driver_h [uvm_test_top.env_h.active_agent_h.driver_h] DRIVEN_ITEM: time: 170 HRESETn = 1, HSEL= 1, HWRITE = 1, HTRANS =  2, HSIZE = 0, HBURST = 0, HPROT = 0, HADDR = 1073741824, HWDATA = 128, PREDICTOR_transaction_counter = 2, COMPARATOR_transaction_counter= 1
# HWRITE ========================================================== HWRITE = 1
# ASSSINGING RANDOMIZED VALUES
# RESETTTTTTTTTTTTTTTTTTTTT VALUE 1
# WAITING FOR COUNTERS ~~~~~~~~~~~~~~~~~~~~~~~~~~~~~~~~~~~~~~~~~~~~~~~~~~~~~~~
# UVM_INFO components/predictor.svh(98) @ 170: uvm_test_top.env_h.scoreboard_h.predictor_h [PREDICTOR] WRITTEN_DATA: HRESETn:1, HWRITE:1, HTRANS:2, HSIZE:0, HBURST:0, HPROT:0, HADDR:1073741824, HWDATA:128
# UVM_INFO components/predictor.svh(103) @ 170: uvm_test_top.env_h.scoreboard_h.predictor_h [PREDICTOR] EXPECTED_DATA:  time: 170 HRESETn = 1, HSEL= 1, HWRITE = 1, HTRANS =  2, HSIZE = 0, HBURST = 0, HPROT = 0, HADDR = 1073741824, HWDATA = 128, PREDICTOR_transaction_counter = 3, COMPARATOR_transaction_counter= 1
# my_predictor run phase
# time :180 AFTER EVENTSSSSSSSSS
# time:180 send_outputs HWRITE = 1
# UVM_INFO components/outputs_monitor.svh(75) @ 180: uvm_test_top.env_h.passive_agent_h.outputs_monitor_h [uvm_test_top.env_h.passive_agent_h.outputs_monitor_h] OUTPUTS SENT TO THE COMPARATOR
# UVM_INFO components/comparator.svh(78) @ 180: uvm_test_top.env_h.scoreboard_h.comparator_h [COMPARATOR] ACTUAL_SEQ_ITEM RECEIVED:  time: 180 HSEL: 0  HRDATA: 0  HRESP: 0   HREADY: 1, PREDICTOR_transaction_counter = 3, COMPARATOR_transaction_counter= 2
# UVM_INFO components/comparator.svh(83) @ 180: uvm_test_top.env_h.scoreboard_h.comparator_h [SCOREBOARD] PASS
# UVM_INFO components/comparator.svh(70) @ 180: uvm_test_top.env_h.scoreboard_h.comparator_h [COMPARATOR] RUN PHASE
# UVM_INFO components/comparator.svh(74) @ 180: uvm_test_top.env_h.scoreboard_h.comparator_h [COMPARATOR] EXPECTED_SEQ_ITEM RECEIVED:  time: 180 HSEL: 1  HRDATA: 0  HRESP: 0   HREADY: 1, PREDICTOR_transaction_counter = 3, COMPARATOR_transaction_counter= 2
# time:190 send_outputs HWRITE = 1
# time:200 send_outputs HWRITE = 1
# time:210 send_outputs HWRITE = 1
# time:220 send_outputs HWRITE = 1
# time:230 send_outputs HWRITE = 1
# time:240 send_outputs HWRITE = 1
# time:250 send_outputs HWRITE = 1
# time:260 send_outputs HWRITE = 1
# time:270 send_outputs HWRITE = 1
# time:280 send_outputs HWRITE = 1
# time:290 send_outputs HWRITE = 1
# time:300 send_outputs HWRITE = 1
do run.do
# Error 31: Unable to unlink file "F:/ic_design/repos/AHB_LITE/dv/work/top_optimized/_lib.qdb".
# Error 31: Unable to unlink file "F:/ic_design/repos/AHB_LITE/dv/work/top_optimized/_lib3_0.qdb".
# Error 31: Unable to unlink file "F:/ic_design/repos/AHB_LITE/dv/work/top_optimized/_lib3_0.qpg".
# Error 31: Unable to unlink file "F:/ic_design/repos/AHB_LITE/dv/work/top_optimized/_lib3_0.qtl".
# Error 133: Unable to remove directory "F:/ic_design/repos/AHB_LITE/dv/work/top_optimized".
# Error 133: Unable to remove directory "F:/ic_design/repos/AHB_LITE/dv/work".
# QuestaSim-64 vlog 2021.1 Compiler 2021.01 Jan 19 2021
# Start time: 12:24:54 on Oct 11,2024
# vlog -reportprogress 300 -f dut.f "+cover" -covercells 
# -- Compiling module ahb_default_slave
# -- Compiling module ahb_slave
# -- Compiling module ahb_mux
# -- Compiling module ahb_decoder
# -- Compiling module ahb_lite
# 
# Top level modules:
# 	ahb_lite
# End time: 12:24:54 on Oct 11,2024, Elapsed time: 0:00:00
# Errors: 0, Warnings: 0
# QuestaSim-64 vlog 2021.1 Compiler 2021.01 Jan 19 2021
# Start time: 12:24:54 on Oct 11,2024
# vlog -reportprogress 300 -f tb.f "+cover" -covercells 
# -- Compiling package AHB_pkg
# -- Importing package mtiUvm.uvm_pkg (uvm-1.1d Built-in)
# ** Note: (vlog-2286) AHB_lite_uvm_pkg.sv(4): Using implicit +incdir+F:/questasim/questasim64_2021.1/uvm-1.1d/../verilog_src/uvm-1.1d/src from import uvm_pkg
# -- Compiling interface inf
# -- Importing package AHB_pkg
# -- Compiling module top_test_uvm
# 
# Top level modules:
# 	top_test_uvm
# End time: 12:24:55 on Oct 11,2024, Elapsed time: 0:00:01
# Errors: 0, Warnings: 0
# QuestaSim-64 vopt 2021.1 Compiler 2021.01 Jan 19 2021
# Start time: 12:24:58 on Oct 11,2024
# vopt -reportprogress 300 top_test_uvm -o top_optimized "+acc" "+cover=bcefsx+ahb_lite(rtl)" 
# ** Warning: (vopt-31) Unable to unlink file "F:/ic_design/repos/AHB_LITE/dv/work/top_optimized/_lib.qdb".
# ** Warning: (vopt-31) Unable to unlink file "F:/ic_design/repos/AHB_LITE/dv/work/top_optimized/_lib3_0.qdb".
# The process cannot access the file because it is being used by another process. (GetLastError() = 32)
# ** Warning: (vopt-31) Unable to unlink file "F:/ic_design/repos/AHB_LITE/dv/work/top_optimized/_lib3_0.qpg".
# The process cannot access the file because it is being used by another process. (GetLastError() = 32)
# ** Warning: (vopt-31) Unable to unlink file "F:/ic_design/repos/AHB_LITE/dv/work/top_optimized/_lib3_0.qtl".
# The process cannot access the file because it is being used by another process. (GetLastError() = 32)
# ** Warning: (vopt-133) Unable to remove directory "F:/ic_design/repos/AHB_LITE/dv/work/top_optimized".
# 
# Top level modules:
# 	top_test_uvm
# 
# Analyzing design...
# -- Loading module top_test_uvm
# -- Importing package mtiUvm.uvm_pkg (uvm-1.1d Built-in)
# -- Importing package AHB_pkg
# -- Loading package mtiUvm.questa_uvm_pkg
# -- Loading interface inf
# -- Loading module ahb_lite
# -- Loading module ahb_decoder
# -- Loading module ahb_mux
# -- Loading module ahb_default_slave
# -- Loading module ahb_slave
# init_auxdbinfo(): INTERNAL ERROR: Cannot open page file "F:/ic_design/repos/AHB_LITE/dv/work/top_optimized/_lib1_0.qpg" in read mode
# Optimizing 11 design-units (inlining 0/9 module instances):
# -- Optimizing package mtiUvm.uvm_pkg (uvm-1.1d Built-in)(fast)
# -- Optimizing package mtiUvm.questa_uvm_pkg(fast)
# -- Optimizing package AHB_pkg(fast)
# -- Optimizing interface inf(fast__2)
# -- Optimizing module ahb_slave(fast)
# -- Optimizing module ahb_mux(fast)
# -- Optimizing module ahb_lite(fast)
# -- Optimizing module ahb_default_slave(fast)
# -- Optimizing module ahb_decoder(fast)
# -- Optimizing module top_test_uvm(fast)
# -- Optimizing interface inf(fast)
# Optimized design name is top_optimized
# End time: 12:25:01 on Oct 11,2024, Elapsed time: 0:00:03
# Errors: 0, Warnings: 5
# End time: 12:25:32 on Oct 11,2024, Elapsed time: 1:09:46
# Errors: 0, Warnings: 0
# vsim top_optimized -coverage -solvefaildebug=2 "+UVM_TESTNAME=write_twice_test" 
# Start time: 12:25:34 on Oct 11,2024
# Loading sv_std.std
# Loading work.inf(fast)
# Loading mtiUvm.uvm_pkg(fast)
# Loading work.AHB_pkg(fast)
# Loading mtiUvm.questa_uvm_pkg(fast)
# Loading work.top_test_uvm(fast)
# Loading work.inf(fast__2)
# Loading work.ahb_lite(fast)
# Loading work.ahb_decoder(fast)
# Loading work.ahb_mux(fast)
# Loading work.ahb_default_slave(fast)
# Loading work.ahb_slave(fast)
# Loading F:/questasim/questasim64_2021.1/uvm-1.1d\win64\uvm_dpi.dll
# ----------------------------------------------------------------
# UVM-1.1d
# (C) 2007-2013 Mentor Graphics Corporation
# (C) 2007-2013 Cadence Design Systems, Inc.
# (C) 2006-2013 Synopsys, Inc.
# (C) 2011-2013 Cypress Semiconductor Corp.
# ----------------------------------------------------------------
# 
#   ***********       IMPORTANT RELEASE NOTES         ************
# 
#   You are using a version of the UVM library that has been compiled
#   with `UVM_NO_DEPRECATED undefined.
#   See http://www.eda.org/svdb/view.php?id=3313 for more details.
# 
#   You are using a version of the UVM library that has been compiled
#   with `UVM_OBJECT_MUST_HAVE_CONSTRUCTOR undefined.
#   See http://www.eda.org/svdb/view.php?id=3770 for more details.
# 
#       (Specify +UVM_NO_RELNOTES to turn off this notice)
# 
# UVM_INFO verilog_src/questa_uvm_pkg-1.2/src/questa_uvm_pkg.sv(277) @ 0: reporter [Questa UVM] QUESTA_UVM-1.2.3
# UVM_INFO verilog_src/questa_uvm_pkg-1.2/src/questa_uvm_pkg.sv(278) @ 0: reporter [Questa UVM]  questa_uvm::init(+struct)
# CREATEDDDDDDDDDDDDDDDDDDDDDDDDDDDDDDDDDDDDDDDDDDDDDDDD
# UVM_INFO @ 0: reporter [RNTST] Running test write_twice_test...
# base_test build phase
# my_test build phase
# env build phase
# my_active_agent build phase
# my_driver build phase
# Inputs monitor build phase complete.
# UVM_INFO components/sequencer.svh(24) @ 0: uvm_test_top.env_h.active_agent_h.sequencer_h [SEQUENCER] Build phase executed
# coverage build_phase
# Passive agent build phase complete.
# Outputs monitor build phase complete.
# UVM_INFO components/scoreboard.svh(48) @ 0: uvm_test_top.env_h.scoreboard_h [SCOREBOARD] Build phase completed
# my_comparator build phase
# my_predictor build phase
# my_driver connect phase
# Inputs monitor connect phase complete.
# UVM_INFO components/sequencer.svh(30) @ 0: uvm_test_top.env_h.active_agent_h.sequencer_h [SEQUENCER] Connect phase executed
# my_active_agent connect phase
# Outputs monitor connect phase complete.
# Passive agent connect phase complete.
# my_comparator connect phase
# my_predictor connect phase
# UVM_INFO components/scoreboard.svh(58) @ 0: uvm_test_top.env_h.scoreboard_h [SCOREBOARD] Connect phase completed
# env connect phase
# my_test connect phase
# my_test connect phase
# Inputs monitor end of elaboration phase complete.
# my_monitor end_of_elaboration_phase
# Outputs monitor end of elaboration phase complete.
# Passive agent end of elaboration phase complete.
# UVM_INFO components/env.svh(97) @ 0: uvm_test_top.env_h [env_h] '{"uvm_test_top.env_h.passive_agent_h.tlm_analysis_port_outputs":@uvm_port_component__5@15 }
# UVM_INFO components/env.svh(99) @ 0: uvm_test_top.env_h [env_h] '{"uvm_test_top.env_h.active_agent_h.tlm_analysis_port_inputs":@uvm_port_component__5@13 }
# UVM_INFO components/env.svh(101) @ 0: uvm_test_top.env_h [env_h] '{"uvm_test_top.env_h.passive_agent_h.tlm_analysis_port_outputs":@uvm_port_component__5@15 }
# FINISHED GET_PROVIDED_TO
# UVM_INFO components/env.svh(105) @ 0: uvm_test_top.env_h [env_h] '{ }
# UVM_INFO components/env.svh(107) @ 0: uvm_test_top.env_h [env_h] '{"uvm_test_top.env_h.scoreboard_h.predictor_h.analysis_imp":@uvm_port_component__5@19 }
# UVM_INFO components/env.svh(109) @ 0: uvm_test_top.env_h [env_h] '{"uvm_test_top.env_h.scoreboard_h.comparator_h.analysis_actual_outputs":@uvm_port_component__5@31 }
# my_monitor end_of_elaboration_phase
# env run phase
# my_predictor run phase
# UVM_INFO components/comparator.svh(70) @ 0: uvm_test_top.env_h.scoreboard_h.comparator_h [COMPARATOR] RUN PHASE
# Passive agent run phase complete.
# coverage run_phase
# my_active_agent run phase
# UVM_INFO components/sequencer.svh(36) @ 0: uvm_test_top.env_h.active_agent_h.sequencer_h [SEQUENCER] Run phase started
# start of pre_body task
# start of pre_body task
# start of pre_body task
# CREATEDDDDDDDDDDDDDDDDDDDDDDDDDDDDDDDDDDDDDDDDDDDDDDDD
# UVM_INFO components/driver.svh(64) @ 0: uvm_test_top.env_h.active_agent_h.driver_h [uvm_test_top.env_h.active_agent_h.driver_h] DRIVEN_ITEM: time: 0 HRESETn = 0, HSEL= 0, HWRITE = 0, HTRANS =  0, HSIZE = 0, HBURST = 0, HPROT = 0, HADDR = 0, HWDATA = 0, PREDICTOR_transaction_counter = 0, COMPARATOR_transaction_counter= 0
# HWRITE ========================================================== HWRITE = 0
#  RESET VALUE ----------> HRESETn = 1
# ASSSINGING RANDOMIZED VALUES
# RESETTTTTTTTTTTTTTTTTTTTT VALUE 0
# time:10 starting_reset_task
# time :10 resetting the interconnect
# UVM_INFO components/predictor.svh(98) @ 10: uvm_test_top.env_h.scoreboard_h.predictor_h [PREDICTOR] WRITTEN_DATA: HRESETn:0, HWRITE:0, HTRANS:0, HSIZE:0, HBURST:0, HPROT:0, HADDR:0, HWDATA:0
# UVM_INFO components/predictor.svh(103) @ 10: uvm_test_top.env_h.scoreboard_h.predictor_h [PREDICTOR] EXPECTED_DATA:  time: 10 HRESETn = 0, HSEL= 0, HWRITE = 0, HTRANS =  0, HSIZE = 0, HBURST = 0, HPROT = 0, HADDR = 0, HWDATA = 0, PREDICTOR_transaction_counter = 1, COMPARATOR_transaction_counter= 0
# my_predictor run phase
# UVM_INFO components/comparator.svh(74) @ 10: uvm_test_top.env_h.scoreboard_h.comparator_h [COMPARATOR] EXPECTED_SEQ_ITEM RECEIVED:  time: 10 HSEL: 0  HRDATA: 0  HRESP: 0   HREADY: 1, PREDICTOR_transaction_counter = 1, COMPARATOR_transaction_counter= 0
#  RESET VALUE ----------> HRESETn = 0
# time:160 HRESETn: 0 RESET DE-ASSERTED
# SENDING_OUTPUT_AFTER_RESET DE-ASSERTION
# UVM_INFO components/outputs_monitor.svh(75) @ 160: uvm_test_top.env_h.passive_agent_h.outputs_monitor_h [uvm_test_top.env_h.passive_agent_h.outputs_monitor_h] OUTPUTS SENT TO THE COMPARATOR
# UVM_INFO components/comparator.svh(77) @ 160: uvm_test_top.env_h.scoreboard_h.comparator_h [COMPARATOR] ACTUAL_SEQ_ITEM RECEIVED:  time: 160 HSEL: 0  HRDATA: 0  HRESP: 0   HREADY: 1, PREDICTOR_transaction_counter = 1, COMPARATOR_transaction_counter= 0
# UVM_INFO components/comparator.svh(82) @ 160: uvm_test_top.env_h.scoreboard_h.comparator_h [SCOREBOARD] PASS
# UVM_INFO components/comparator.svh(70) @ 160: uvm_test_top.env_h.scoreboard_h.comparator_h [COMPARATOR] RUN PHASE
# THE TEST SHOULD STOP NOW!!!!!!!!!!!!!!!!!!!!!!!!!!!!!!!!!!!!!
# start of pre_body task
# start of pre_body task
# CREATEDDDDDDDDDDDDDDDDDDDDDDDDDDDDDDDDDDDDDDDDDDDDDDDD
# UVM_INFO components/driver.svh(64) @ 160: uvm_test_top.env_h.active_agent_h.driver_h [uvm_test_top.env_h.active_agent_h.driver_h] DRIVEN_ITEM: time: 160 HRESETn = 1, HSEL= 0, HWRITE = 1, HTRANS =  2, HSIZE = 0, HBURST = 0, HPROT = 0, HADDR = 114, HWDATA = 122, PREDICTOR_transaction_counter = 1, COMPARATOR_transaction_counter= 1
# HWRITE ========================================================== HWRITE = 1
# ASSSINGING RANDOMIZED VALUES
# RESETTTTTTTTTTTTTTTTTTTTT VALUE 1
# UVM_INFO components/predictor.svh(98) @ 160: uvm_test_top.env_h.scoreboard_h.predictor_h [PREDICTOR] WRITTEN_DATA: HRESETn:1, HWRITE:1, HTRANS:2, HSIZE:0, HBURST:0, HPROT:0, HADDR:114, HWDATA:122
# UVM_INFO components/predictor.svh(103) @ 160: uvm_test_top.env_h.scoreboard_h.predictor_h [PREDICTOR] EXPECTED_DATA:  time: 160 HRESETn = 1, HSEL= 0, HWRITE = 1, HTRANS =  2, HSIZE = 0, HBURST = 0, HPROT = 0, HADDR = 114, HWDATA = 122, PREDICTOR_transaction_counter = 2, COMPARATOR_transaction_counter= 1
# my_predictor run phase
# UVM_INFO components/comparator.svh(74) @ 160: uvm_test_top.env_h.scoreboard_h.comparator_h [COMPARATOR] EXPECTED_SEQ_ITEM RECEIVED:  time: 160 HSEL: 0  HRDATA: 0  HRESP: 0   HREADY: 1, PREDICTOR_transaction_counter = 2, COMPARATOR_transaction_counter= 1
#  RESET VALUE ----------> HRESETn = 1
# time :170 AFTER EVENTSSSSSSSSS
# THE TEST SHOULD STOP NOW!!!!!!!!!!!!!!!!!!!!!!!!!!!!!!!!!!!!!
# start of pre_body task
# start of pre_body task
# CREATEDDDDDDDDDDDDDDDDDDDDDDDDDDDDDDDDDDDDDDDDDDDDDDDD
# UVM_INFO components/driver.svh(64) @ 170: uvm_test_top.env_h.active_agent_h.driver_h [uvm_test_top.env_h.active_agent_h.driver_h] DRIVEN_ITEM: time: 170 HRESETn = 1, HSEL= 1, HWRITE = 1, HTRANS =  2, HSIZE = 0, HBURST = 0, HPROT = 0, HADDR = 1073741824, HWDATA = 128, PREDICTOR_transaction_counter = 2, COMPARATOR_transaction_counter= 1
# HWRITE ========================================================== HWRITE = 1
# ASSSINGING RANDOMIZED VALUES
# RESETTTTTTTTTTTTTTTTTTTTT VALUE 1
# WAITING FOR COUNTERS ~~~~~~~~~~~~~~~~~~~~~~~~~~~~~~~~~~~~~~~~~~~~~~~~~~~~~~~
# UVM_INFO components/predictor.svh(98) @ 170: uvm_test_top.env_h.scoreboard_h.predictor_h [PREDICTOR] WRITTEN_DATA: HRESETn:1, HWRITE:1, HTRANS:2, HSIZE:0, HBURST:0, HPROT:0, HADDR:1073741824, HWDATA:128
# UVM_INFO components/predictor.svh(103) @ 170: uvm_test_top.env_h.scoreboard_h.predictor_h [PREDICTOR] EXPECTED_DATA:  time: 170 HRESETn = 1, HSEL= 1, HWRITE = 1, HTRANS =  2, HSIZE = 0, HBURST = 0, HPROT = 0, HADDR = 1073741824, HWDATA = 128, PREDICTOR_transaction_counter = 3, COMPARATOR_transaction_counter= 1
# my_predictor run phase
# time :180 AFTER EVENTSSSSSSSSS
# time:180 send_outputs HWRITE = 1
# UVM_INFO components/outputs_monitor.svh(75) @ 180: uvm_test_top.env_h.passive_agent_h.outputs_monitor_h [uvm_test_top.env_h.passive_agent_h.outputs_monitor_h] OUTPUTS SENT TO THE COMPARATOR
# UVM_INFO components/comparator.svh(77) @ 180: uvm_test_top.env_h.scoreboard_h.comparator_h [COMPARATOR] ACTUAL_SEQ_ITEM RECEIVED:  time: 180 HSEL: 0  HRDATA: 0  HRESP: 0   HREADY: 1, PREDICTOR_transaction_counter = 3, COMPARATOR_transaction_counter= 1
# UVM_INFO components/comparator.svh(82) @ 180: uvm_test_top.env_h.scoreboard_h.comparator_h [SCOREBOARD] PASS
# UVM_INFO components/comparator.svh(70) @ 180: uvm_test_top.env_h.scoreboard_h.comparator_h [COMPARATOR] RUN PHASE
# UVM_INFO components/comparator.svh(74) @ 180: uvm_test_top.env_h.scoreboard_h.comparator_h [COMPARATOR] EXPECTED_SEQ_ITEM RECEIVED:  time: 180 HSEL: 1  HRDATA: 0  HRESP: 0   HREADY: 1, PREDICTOR_transaction_counter = 3, COMPARATOR_transaction_counter= 2
# time:190 send_outputs HWRITE = 1
# time:200 send_outputs HWRITE = 1
# time:210 send_outputs HWRITE = 1
# time:220 send_outputs HWRITE = 1
# time:230 send_outputs HWRITE = 1
# time:240 send_outputs HWRITE = 1
# time:250 send_outputs HWRITE = 1
# time:260 send_outputs HWRITE = 1
# time:270 send_outputs HWRITE = 1
# time:280 send_outputs HWRITE = 1
# time:290 send_outputs HWRITE = 1
# time:300 send_outputs HWRITE = 1
run 10
# time:310 send_outputs HWRITE = 1
add wave -position insertpoint sim:/top_test_uvm/f_if/*
run
# time:320 send_outputs HWRITE = 1
# time:330 send_outputs HWRITE = 1
# time:340 send_outputs HWRITE = 1
# time:350 send_outputs HWRITE = 1
# time:360 send_outputs HWRITE = 1
# time:370 send_outputs HWRITE = 1
# time:380 send_outputs HWRITE = 1
# time:390 send_outputs HWRITE = 1
# time:400 send_outputs HWRITE = 1
# time:410 send_outputs HWRITE = 1
run
# time:420 send_outputs HWRITE = 1
# time:430 send_outputs HWRITE = 1
# time:440 send_outputs HWRITE = 1
# time:450 send_outputs HWRITE = 1
# time:460 send_outputs HWRITE = 1
# time:470 send_outputs HWRITE = 1
# time:480 send_outputs HWRITE = 1
# time:490 send_outputs HWRITE = 1
# time:500 send_outputs HWRITE = 1
# time:510 send_outputs HWRITE = 1
run
# time:520 send_outputs HWRITE = 1
# time:530 send_outputs HWRITE = 1
# time:540 send_outputs HWRITE = 1
# time:550 send_outputs HWRITE = 1
# time:560 send_outputs HWRITE = 1
# time:570 send_outputs HWRITE = 1
# time:580 send_outputs HWRITE = 1
# time:590 send_outputs HWRITE = 1
# time:600 send_outputs HWRITE = 1
# time:610 send_outputs HWRITE = 1
run
# time:620 send_outputs HWRITE = 1
# time:630 send_outputs HWRITE = 1
# time:640 send_outputs HWRITE = 1
# time:650 send_outputs HWRITE = 1
# time:660 send_outputs HWRITE = 1
# time:670 send_outputs HWRITE = 1
# time:680 send_outputs HWRITE = 1
# time:690 send_outputs HWRITE = 1
# time:700 send_outputs HWRITE = 1
# time:710 send_outputs HWRITE = 1
restart
# Loading sv_std.std
# Loading work.inf(fast)
# Loading mtiUvm.uvm_pkg(fast)
# Loading work.AHB_pkg(fast)
# Loading mtiUvm.questa_uvm_pkg(fast)
# Loading work.top_test_uvm(fast)
# Loading work.inf(fast__2)
# Loading work.ahb_lite(fast)
# Loading work.ahb_decoder(fast)
# Loading work.ahb_mux(fast)
# Loading work.ahb_default_slave(fast)
# Loading work.ahb_slave(fast)
# Loading F:/questasim/questasim64_2021.1/uvm-1.1d\win64\uvm_dpi.dll
run -all
# ----------------------------------------------------------------
# UVM-1.1d
# (C) 2007-2013 Mentor Graphics Corporation
# (C) 2007-2013 Cadence Design Systems, Inc.
# (C) 2006-2013 Synopsys, Inc.
# (C) 2011-2013 Cypress Semiconductor Corp.
# ----------------------------------------------------------------
# 
#   ***********       IMPORTANT RELEASE NOTES         ************
# 
#   You are using a version of the UVM library that has been compiled
#   with `UVM_NO_DEPRECATED undefined.
#   See http://www.eda.org/svdb/view.php?id=3313 for more details.
# 
#   You are using a version of the UVM library that has been compiled
#   with `UVM_OBJECT_MUST_HAVE_CONSTRUCTOR undefined.
#   See http://www.eda.org/svdb/view.php?id=3770 for more details.
# 
#       (Specify +UVM_NO_RELNOTES to turn off this notice)
# 
# UVM_INFO verilog_src/questa_uvm_pkg-1.2/src/questa_uvm_pkg.sv(277) @ 0: reporter [Questa UVM] QUESTA_UVM-1.2.3
# UVM_INFO verilog_src/questa_uvm_pkg-1.2/src/questa_uvm_pkg.sv(278) @ 0: reporter [Questa UVM]  questa_uvm::init(+struct)
# CREATEDDDDDDDDDDDDDDDDDDDDDDDDDDDDDDDDDDDDDDDDDDDDDDDD
# UVM_INFO @ 0: reporter [RNTST] Running test write_twice_test...
# base_test build phase
# my_test build phase
# env build phase
# my_active_agent build phase
# my_driver build phase
# Inputs monitor build phase complete.
# UVM_INFO components/sequencer.svh(24) @ 0: uvm_test_top.env_h.active_agent_h.sequencer_h [SEQUENCER] Build phase executed
# coverage build_phase
# Passive agent build phase complete.
# Outputs monitor build phase complete.
# UVM_INFO components/scoreboard.svh(48) @ 0: uvm_test_top.env_h.scoreboard_h [SCOREBOARD] Build phase completed
# my_comparator build phase
# my_predictor build phase
# my_driver connect phase
# Inputs monitor connect phase complete.
# UVM_INFO components/sequencer.svh(30) @ 0: uvm_test_top.env_h.active_agent_h.sequencer_h [SEQUENCER] Connect phase executed
# my_active_agent connect phase
# Outputs monitor connect phase complete.
# Passive agent connect phase complete.
# my_comparator connect phase
# my_predictor connect phase
# UVM_INFO components/scoreboard.svh(58) @ 0: uvm_test_top.env_h.scoreboard_h [SCOREBOARD] Connect phase completed
# env connect phase
# my_test connect phase
# my_test connect phase
# Inputs monitor end of elaboration phase complete.
# my_monitor end_of_elaboration_phase
# Outputs monitor end of elaboration phase complete.
# Passive agent end of elaboration phase complete.
# UVM_INFO components/env.svh(97) @ 0: uvm_test_top.env_h [env_h] '{"uvm_test_top.env_h.passive_agent_h.tlm_analysis_port_outputs":@uvm_port_component__6@15 }
# UVM_INFO components/env.svh(99) @ 0: uvm_test_top.env_h [env_h] '{"uvm_test_top.env_h.active_agent_h.tlm_analysis_port_inputs":@uvm_port_component__6@13 }
# UVM_INFO components/env.svh(101) @ 0: uvm_test_top.env_h [env_h] '{"uvm_test_top.env_h.passive_agent_h.tlm_analysis_port_outputs":@uvm_port_component__6@15 }
# FINISHED GET_PROVIDED_TO
# UVM_INFO components/env.svh(105) @ 0: uvm_test_top.env_h [env_h] '{ }
# UVM_INFO components/env.svh(107) @ 0: uvm_test_top.env_h [env_h] '{"uvm_test_top.env_h.scoreboard_h.predictor_h.analysis_imp":@uvm_port_component__6@19 }
# UVM_INFO components/env.svh(109) @ 0: uvm_test_top.env_h [env_h] '{"uvm_test_top.env_h.scoreboard_h.comparator_h.analysis_actual_outputs":@uvm_port_component__6@31 }
# my_monitor end_of_elaboration_phase
# env run phase
# my_predictor run phase
# UVM_INFO components/comparator.svh(70) @ 0: uvm_test_top.env_h.scoreboard_h.comparator_h [COMPARATOR] RUN PHASE
# Passive agent run phase complete.
# coverage run_phase
# my_active_agent run phase
# UVM_INFO components/sequencer.svh(36) @ 0: uvm_test_top.env_h.active_agent_h.sequencer_h [SEQUENCER] Run phase started
# start of pre_body task
# start of pre_body task
# start of pre_body task
# CREATEDDDDDDDDDDDDDDDDDDDDDDDDDDDDDDDDDDDDDDDDDDDDDDDD
# UVM_INFO components/driver.svh(64) @ 0: uvm_test_top.env_h.active_agent_h.driver_h [uvm_test_top.env_h.active_agent_h.driver_h] DRIVEN_ITEM: time: 0 HRESETn = 0, HSEL= 0, HWRITE = 0, HTRANS =  0, HSIZE = 0, HBURST = 0, HPROT = 0, HADDR = 0, HWDATA = 0, PREDICTOR_transaction_counter = 0, COMPARATOR_transaction_counter= 0
# HWRITE ========================================================== HWRITE = 0
#  RESET VALUE ----------> HRESETn = 1
# ASSSINGING RANDOMIZED VALUES
# RESETTTTTTTTTTTTTTTTTTTTT VALUE 0
# time:10 starting_reset_task
# time :10 resetting the interconnect
# UVM_INFO components/predictor.svh(98) @ 10: uvm_test_top.env_h.scoreboard_h.predictor_h [PREDICTOR] WRITTEN_DATA: HRESETn:0, HWRITE:0, HTRANS:0, HSIZE:0, HBURST:0, HPROT:0, HADDR:0, HWDATA:0
# UVM_INFO components/predictor.svh(103) @ 10: uvm_test_top.env_h.scoreboard_h.predictor_h [PREDICTOR] EXPECTED_DATA:  time: 10 HRESETn = 0, HSEL= 0, HWRITE = 0, HTRANS =  0, HSIZE = 0, HBURST = 0, HPROT = 0, HADDR = 0, HWDATA = 0, PREDICTOR_transaction_counter = 1, COMPARATOR_transaction_counter= 0
# my_predictor run phase
# UVM_INFO components/comparator.svh(74) @ 10: uvm_test_top.env_h.scoreboard_h.comparator_h [COMPARATOR] EXPECTED_SEQ_ITEM RECEIVED:  time: 10 HSEL: 0  HRDATA: 0  HRESP: 0   HREADY: 1, PREDICTOR_transaction_counter = 1, COMPARATOR_transaction_counter= 0
#  RESET VALUE ----------> HRESETn = 0
# time:160 HRESETn: 0 RESET DE-ASSERTED
# SENDING_OUTPUT_AFTER_RESET DE-ASSERTION
# UVM_INFO components/outputs_monitor.svh(75) @ 160: uvm_test_top.env_h.passive_agent_h.outputs_monitor_h [uvm_test_top.env_h.passive_agent_h.outputs_monitor_h] OUTPUTS SENT TO THE COMPARATOR
# UVM_INFO components/comparator.svh(77) @ 160: uvm_test_top.env_h.scoreboard_h.comparator_h [COMPARATOR] ACTUAL_SEQ_ITEM RECEIVED:  time: 160 HSEL: 0  HRDATA: 0  HRESP: 0   HREADY: 1, PREDICTOR_transaction_counter = 1, COMPARATOR_transaction_counter= 0
# UVM_INFO components/comparator.svh(82) @ 160: uvm_test_top.env_h.scoreboard_h.comparator_h [SCOREBOARD] PASS
# UVM_INFO components/comparator.svh(70) @ 160: uvm_test_top.env_h.scoreboard_h.comparator_h [COMPARATOR] RUN PHASE
# THE TEST SHOULD STOP NOW!!!!!!!!!!!!!!!!!!!!!!!!!!!!!!!!!!!!!
# start of pre_body task
# start of pre_body task
# CREATEDDDDDDDDDDDDDDDDDDDDDDDDDDDDDDDDDDDDDDDDDDDDDDDD
# UVM_INFO components/driver.svh(64) @ 160: uvm_test_top.env_h.active_agent_h.driver_h [uvm_test_top.env_h.active_agent_h.driver_h] DRIVEN_ITEM: time: 160 HRESETn = 1, HSEL= 0, HWRITE = 1, HTRANS =  2, HSIZE = 0, HBURST = 0, HPROT = 0, HADDR = 114, HWDATA = 122, PREDICTOR_transaction_counter = 1, COMPARATOR_transaction_counter= 1
