# //  Questa Sim-64
# //  Version 2021.1 win64 Jan 19 2021
# //
# //  Copyright 1991-2021 Mentor Graphics Corporation
# //  All Rights Reserved.
# //
# //  QuestaSim and its associated documentation contain trade
# //  secrets and commercial or financial information that are the property of
# //  Mentor Graphics Corporation and are privileged, confidential,
# //  and exempt from disclosure under the Freedom of Information Act,
# //  5 U.S.C. Section 552. Furthermore, this information
# //  is prohibited from disclosure under the Trade Secrets Act,
# //  18 U.S.C. Section 1905.
# //
# do run.do
# QuestaSim-64 vlog 2021.1 Compiler 2021.01 Jan 19 2021
# Start time: 04:41:16 on Oct 20,2024
# vlog -reportprogress 300 -f dut.f "+cover" -covercells 
# -- Compiling module ahb_default_slave
# -- Compiling module ahb_slave
# -- Compiling module ahb_mux
# -- Compiling module ahb_decoder
# -- Compiling module ahb_lite
# 
# Top level modules:
# 	ahb_lite
# End time: 04:41:16 on Oct 20,2024, Elapsed time: 0:00:00
# Errors: 0, Warnings: 0
# QuestaSim-64 vlog 2021.1 Compiler 2021.01 Jan 19 2021
# Start time: 04:41:16 on Oct 20,2024
# vlog -reportprogress 300 -f tb.f "+cover" -covercells 
# -- Compiling package AHB_pkg
# -- Importing package mtiUvm.uvm_pkg (uvm-1.1d Built-in)
# ** Note: (vlog-2286) AHB_lite_uvm_pkg.sv(4): Using implicit +incdir+F:/questasim/questasim64_2021.1/uvm-1.1d/../verilog_src/uvm-1.1d/src from import uvm_pkg
# ** Warning: ** while parsing file included at AHB_lite_uvm_pkg.sv(116)
# ** at sequence_item/sequence_item.svh(160): (vlog-2643) Unterminated string literal continues onto next line.
# ** Warning: ** while parsing file included at AHB_lite_uvm_pkg.sv(116)
# ** at sequence_item/sequence_item.svh(169): (vlog-2643) Unterminated string literal continues onto next line.
# ** Warning: ** while parsing file included at AHB_lite_uvm_pkg.sv(116)
# ** at sequence_item/sequence_item.svh(177): (vlog-2643) Unterminated string literal continues onto next line.
# -- Compiling interface inf
# -- Importing package AHB_pkg
# -- Compiling module top_test_uvm
# 
# Top level modules:
# 	top_test_uvm
# End time: 04:41:19 on Oct 20,2024, Elapsed time: 0:00:03
# Errors: 0, Warnings: 3
# QuestaSim-64 vopt 2021.1 Compiler 2021.01 Jan 19 2021
# Start time: 04:41:24 on Oct 20,2024
# vopt -reportprogress 300 top_test_uvm -o top_optimized "+acc" "+cover=bcefsx+ahb_lite(rtl)" 
# 
# Top level modules:
# 	top_test_uvm
# 
# Analyzing design...
# -- Loading module top_test_uvm
# -- Importing package mtiUvm.uvm_pkg (uvm-1.1d Built-in)
# -- Importing package AHB_pkg
# -- Loading package mtiUvm.questa_uvm_pkg
# -- Loading interface inf
# -- Loading module ahb_lite
# -- Loading module ahb_decoder
# -- Loading module ahb_mux
# -- Loading module ahb_default_slave
# -- Loading module ahb_slave
# Optimizing 11 design-units (inlining 0/9 module instances):
# -- Optimizing package mtiUvm.uvm_pkg (uvm-1.1d Built-in)(fast)
# -- Optimizing package mtiUvm.questa_uvm_pkg(fast)
# -- Optimizing package AHB_pkg(fast)
# -- Optimizing interface inf(fast__2)
# -- Optimizing module ahb_slave(fast)
# -- Optimizing module ahb_mux(fast)
# -- Optimizing module ahb_lite(fast)
# -- Optimizing module ahb_default_slave(fast)
# -- Optimizing module ahb_decoder(fast)
# -- Optimizing module top_test_uvm(fast)
# -- Optimizing interface inf(fast)
# Optimized design name is top_optimized
# End time: 04:41:29 on Oct 20,2024, Elapsed time: 0:00:05
# Errors: 0, Warnings: 0
# vsim top_optimized -coverage -solvefaildebug=2 "+UVM_TESTNAME=write_twice_test" 
# Start time: 04:41:33 on Oct 20,2024
# Loading sv_std.std
# Loading work.inf(fast)
# Loading mtiUvm.uvm_pkg(fast)
# Loading work.AHB_pkg(fast)
# Loading mtiUvm.questa_uvm_pkg(fast)
# Loading work.top_test_uvm(fast)
# Loading work.inf(fast__2)
# Loading work.ahb_lite(fast)
# Loading work.ahb_decoder(fast)
# Loading work.ahb_mux(fast)
# Loading work.ahb_default_slave(fast)
# Loading work.ahb_slave(fast)
# Loading F:/questasim/questasim64_2021.1/uvm-1.1d\win64\uvm_dpi.dll
# ----------------------------------------------------------------
# UVM-1.1d
# (C) 2007-2013 Mentor Graphics Corporation
# (C) 2007-2013 Cadence Design Systems, Inc.
# (C) 2006-2013 Synopsys, Inc.
# (C) 2011-2013 Cypress Semiconductor Corp.
# ----------------------------------------------------------------
# 
#   ***********       IMPORTANT RELEASE NOTES         ************
# 
#   You are using a version of the UVM library that has been compiled
#   with `UVM_NO_DEPRECATED undefined.
#   See http://www.eda.org/svdb/view.php?id=3313 for more details.
# 
#   You are using a version of the UVM library that has been compiled
#   with `UVM_OBJECT_MUST_HAVE_CONSTRUCTOR undefined.
#   See http://www.eda.org/svdb/view.php?id=3770 for more details.
# 
#       (Specify +UVM_NO_RELNOTES to turn off this notice)
# 
# UVM_INFO verilog_src/questa_uvm_pkg-1.2/src/questa_uvm_pkg.sv(277) @ 0: reporter [Questa UVM] QUESTA_UVM-1.2.3
# UVM_INFO verilog_src/questa_uvm_pkg-1.2/src/questa_uvm_pkg.sv(278) @ 0: reporter [Questa UVM]  questa_uvm::init(+struct)
# UVM_INFO @ 0: reporter [RNTST] Running test write_twice_test...
# base_test build phase
# my_test build phase
# env build phase
# my_active_agent build phase
# my_driver build phase
# Inputs monitor build phase complete.
# UVM_INFO components/sequencer.svh(24) @ 0: uvm_test_top.env_h.active_agent_h.sequencer_h [SEQUENCER] Build phase executed
# coverage build_phase
# Passive agent build phase complete.
# Outputs monitor build phase complete.
# UVM_INFO components/scoreboard.svh(48) @ 0: uvm_test_top.env_h.scoreboard_h [SCOREBOARD] Build phase completed
# my_comparator build phase
# my_predictor build phase
# my_driver connect phase
# Inputs monitor connect phase complete.
# UVM_INFO components/sequencer.svh(30) @ 0: uvm_test_top.env_h.active_agent_h.sequencer_h [SEQUENCER] Connect phase executed
# my_active_agent connect phase
# Outputs monitor connect phase complete.
# Passive agent connect phase complete.
# my_comparator connect phase
# my_predictor connect phase
# UVM_INFO components/scoreboard.svh(58) @ 0: uvm_test_top.env_h.scoreboard_h [SCOREBOARD] Connect phase completed
# env connect phase
# my_test connect phase
# my_test connect phase
# Inputs monitor end of elaboration phase complete.
# my_monitor end_of_elaboration_phase
# Outputs monitor end of elaboration phase complete.
# Passive agent end of elaboration phase complete.
# UVM_INFO components/env.svh(97) @ 0: uvm_test_top.env_h [env_h] '{"uvm_test_top.env_h.passive_agent_h.tlm_analysis_port_outputs":@uvm_port_component__5@15 }
# UVM_INFO components/env.svh(99) @ 0: uvm_test_top.env_h [env_h] '{"uvm_test_top.env_h.active_agent_h.tlm_analysis_port_inputs":@uvm_port_component__5@13 }
# UVM_INFO components/env.svh(101) @ 0: uvm_test_top.env_h [env_h] '{"uvm_test_top.env_h.passive_agent_h.tlm_analysis_port_outputs":@uvm_port_component__5@15 }
# FINISHED GET_PROVIDED_TO
# UVM_INFO components/env.svh(105) @ 0: uvm_test_top.env_h [env_h] '{ }
# UVM_INFO components/env.svh(107) @ 0: uvm_test_top.env_h [env_h] '{"uvm_test_top.env_h.scoreboard_h.predictor_h.analysis_imp":@uvm_port_component__5@19 }
# UVM_INFO components/env.svh(109) @ 0: uvm_test_top.env_h [env_h] '{"uvm_test_top.env_h.scoreboard_h.comparator_h.analysis_actual_outputs":@uvm_port_component__5@31 }
# my_monitor end_of_elaboration_phase
# env run phase
# my_predictor run phase
# UVM_INFO components/comparator.svh(73) @ 0: uvm_test_top.env_h.scoreboard_h.comparator_h [COMPARATOR] RUN PHASE
# Passive agent run phase complete.
# coverage run_phase
# my_active_agent run phase
# UVM_INFO components/sequencer.svh(36) @ 0: uvm_test_top.env_h.active_agent_h.sequencer_h [SEQUENCER] Run phase started
# start of pre_body task
# start of pre_body task
# start of pre_body task
# UVM_INFO components/driver.svh(64) @ 0: uvm_test_top.env_h.active_agent_h.driver_h [uvm_test_top.env_h.active_agent_h.driver_h] DRIVEN_ITEM:-----------------------------------------------------------------------------------------------------------------------------------------
# 
#                     time: 0 HRESETn = 0, HSEL= 0, HWRITE = 0, HTRANS =  0, HSIZE = 0, HBURST = 0, HPROT = 0, HADDR = 0, HWDATA = 0, PREDICTOR_transaction_counter = 0, COMPARATOR_transaction_counter= 0
# UVM_INFO components/predictor.svh(107) @ 10: uvm_test_top.env_h.scoreboard_h.predictor_h [PREDICTOR] EXPECTED_DATA: -----------------------------------------------------------------------------------------------------------------------------------------
# 
#                     time: 10 HRESETn = 0, HSEL= 0, HWRITE = 0, HTRANS =  0, HSIZE = 0, HBURST = 0, HPROT = 0, HADDR = 0, HWDATA = 0, PREDICTOR_transaction_counter = 1, COMPARATOR_transaction_counter= 0
# my_predictor run phase
# UVM_INFO components/comparator.svh(77) @ 10: uvm_test_top.env_h.scoreboard_h.comparator_h [COMPARATOR] EXPECTED_SEQ_ITEM RECEIVED: -----------------------------------------------------------------------------------------------------------------------------------------
# 
#                      time: 10  HRESETn = 0, HSEL= 0, HWRITE = 0, HTRANS =  0, HSIZE = 0, HBURST = 0, HPROT = 0, HADDR = 0, HWDATA = 0, HRDATA = 0, HRESP = 0, HREADY = 1, PREDICTOR_transaction_counter = 1, COMPARATOR_transaction_counter= 0
# UVM_INFO components/outputs_monitor.svh(75) @ 160: uvm_test_top.env_h.passive_agent_h.outputs_monitor_h [uvm_test_top.env_h.passive_agent_h.outputs_monitor_h] OUTPUTS SENT TO THE COMPARATOR
# UVM_INFO components/comparator.svh(82) @ 160: uvm_test_top.env_h.scoreboard_h.comparator_h [COMPARATOR] ACTUAL_SEQ_ITEM RECEIVED: -----------------------------------------------------------------------------------------------------------------------------------------
# 
#                     time: 160 HSEL: 0  HRDATA: 0  HRESP: 0   HREADY: 1, PREDICTOR_transaction_counter = 1, COMPARATOR_transaction_counter= 0
# UVM_INFO components/comparator.svh(87) @ 160: uvm_test_top.env_h.scoreboard_h.comparator_h [SCOREBOARD] PASS
# UVM_INFO components/comparator.svh(73) @ 160: uvm_test_top.env_h.scoreboard_h.comparator_h [COMPARATOR] RUN PHASE
# start of pre_body task
# start of pre_body task
# UVM_INFO components/driver.svh(64) @ 160: uvm_test_top.env_h.active_agent_h.driver_h [uvm_test_top.env_h.active_agent_h.driver_h] DRIVEN_ITEM:-----------------------------------------------------------------------------------------------------------------------------------------
# 
#                     time: 160 HRESETn = 1, HSEL= 2, HWRITE = 1, HTRANS =  2, HSIZE = 0, HBURST = 0, HPROT = 0, HADDR = 80000002, HWDATA = 7a, PREDICTOR_transaction_counter = 1, COMPARATOR_transaction_counter= 1
# UVM_INFO components/predictor.svh(236) @ 160: uvm_test_top.env_h.scoreboard_h.predictor_h [PREDICTOR] WRITE_SLAVE2:7a, 7a, 80000002
# UVM_INFO components/predictor.svh(107) @ 160: uvm_test_top.env_h.scoreboard_h.predictor_h [PREDICTOR] EXPECTED_DATA: -----------------------------------------------------------------------------------------------------------------------------------------
# 
#                     time: 160 HRESETn = 1, HSEL= 2, HWRITE = 1, HTRANS =  2, HSIZE = 0, HBURST = 0, HPROT = 0, HADDR = 80000002, HWDATA = 7a, PREDICTOR_transaction_counter = 2, COMPARATOR_transaction_counter= 1
# my_predictor run phase
# UVM_INFO components/comparator.svh(77) @ 160: uvm_test_top.env_h.scoreboard_h.comparator_h [COMPARATOR] EXPECTED_SEQ_ITEM RECEIVED: -----------------------------------------------------------------------------------------------------------------------------------------
# 
#                      time: 160  HRESETn = 1, HSEL= 2, HWRITE = 1, HTRANS =  2, HSIZE = 0, HBURST = 0, HPROT = 0, HADDR = 80000002, HWDATA = 7a, HRDATA = 0, HRESP = 0, HREADY = 1, PREDICTOR_transaction_counter = 2, COMPARATOR_transaction_counter= 1
# CONTROL PHASE: TIME:170 ASSIGINING SIGNALS
# start of pre_body task
# start of pre_body task
# UVM_INFO components/driver.svh(64) @ 170: uvm_test_top.env_h.active_agent_h.driver_h [uvm_test_top.env_h.active_agent_h.driver_h] DRIVEN_ITEM:-----------------------------------------------------------------------------------------------------------------------------------------
# 
#                     time: 170 HRESETn = 1, HSEL= 1, HWRITE = 1, HTRANS =  2, HSIZE = 0, HBURST = 0, HPROT = 0, HADDR = 40000000, HWDATA = 80, PREDICTOR_transaction_counter = 2, COMPARATOR_transaction_counter= 1
# UVM_INFO components/predictor.svh(231) @ 170: uvm_test_top.env_h.scoreboard_h.predictor_h [PREDICTOR] WRITE_SLAVE1:80, 80, 40000000
# UVM_INFO components/predictor.svh(107) @ 170: uvm_test_top.env_h.scoreboard_h.predictor_h [PREDICTOR] EXPECTED_DATA: -----------------------------------------------------------------------------------------------------------------------------------------
# 
#                     time: 170 HRESETn = 1, HSEL= 1, HWRITE = 1, HTRANS =  2, HSIZE = 0, HBURST = 0, HPROT = 0, HADDR = 40000000, HWDATA = 80, PREDICTOR_transaction_counter = 3, COMPARATOR_transaction_counter= 1
# my_predictor run phase
# CONTROL PHASE: TIME:180 ASSIGINING SIGNALS
# start of pre_body task
# start of pre_body task
# UVM_INFO components/driver.svh(64) @ 180: uvm_test_top.env_h.active_agent_h.driver_h [uvm_test_top.env_h.active_agent_h.driver_h] DRIVEN_ITEM:-----------------------------------------------------------------------------------------------------------------------------------------
# 
#                     time: 180 HRESETn = 1, HSEL= 0, HWRITE = 1, HTRANS =  2, HSIZE = 0, HBURST = 0, HPROT = 0, HADDR = b, HWDATA = 21, PREDICTOR_transaction_counter = 3, COMPARATOR_transaction_counter= 1
# UVM_INFO components/predictor.svh(227) @ 180: uvm_test_top.env_h.scoreboard_h.predictor_h [PREDICTOR] WRITE_SLAVE0:21, 21, b
# UVM_INFO components/predictor.svh(107) @ 180: uvm_test_top.env_h.scoreboard_h.predictor_h [PREDICTOR] EXPECTED_DATA: -----------------------------------------------------------------------------------------------------------------------------------------
# 
#                     time: 180 HRESETn = 1, HSEL= 0, HWRITE = 1, HTRANS =  2, HSIZE = 0, HBURST = 0, HPROT = 0, HADDR = b, HWDATA = 21, PREDICTOR_transaction_counter = 4, COMPARATOR_transaction_counter= 1
# my_predictor run phase
# OUTPUT_1_PHASE_SIGNALS: TIME:190 SENDING OUTPUTS
# CONTROL PHASE: TIME:190 ASSIGINING SIGNALS
# start of pre_body task
# start of pre_body task
# UVM_INFO components/driver.svh(64) @ 190: uvm_test_top.env_h.active_agent_h.driver_h [uvm_test_top.env_h.active_agent_h.driver_h] DRIVEN_ITEM:-----------------------------------------------------------------------------------------------------------------------------------------
# 
#                     time: 190 HRESETn = 1, HSEL= 2, HWRITE = 1, HTRANS =  2, HSIZE = 0, HBURST = 0, HPROT = 0, HADDR = 8000000a, HWDATA = 6b, PREDICTOR_transaction_counter = 4, COMPARATOR_transaction_counter= 1
# UVM_INFO components/predictor.svh(236) @ 190: uvm_test_top.env_h.scoreboard_h.predictor_h [PREDICTOR] WRITE_SLAVE2:6b, 6b, 8000000a
# UVM_INFO components/predictor.svh(107) @ 190: uvm_test_top.env_h.scoreboard_h.predictor_h [PREDICTOR] EXPECTED_DATA: -----------------------------------------------------------------------------------------------------------------------------------------
# 
#                     time: 190 HRESETn = 1, HSEL= 2, HWRITE = 1, HTRANS =  2, HSIZE = 0, HBURST = 0, HPROT = 0, HADDR = 8000000a, HWDATA = 6b, PREDICTOR_transaction_counter = 5, COMPARATOR_transaction_counter= 1
# my_predictor run phase
# OUTPUT_2_PHASE_SIGNALS: TIME:195 SENDING OUTPUTS
# UVM_INFO components/outputs_monitor.svh(75) @ 195: uvm_test_top.env_h.passive_agent_h.outputs_monitor_h [uvm_test_top.env_h.passive_agent_h.outputs_monitor_h] OUTPUTS SENT TO THE COMPARATOR
# UVM_INFO components/comparator.svh(82) @ 195: uvm_test_top.env_h.scoreboard_h.comparator_h [COMPARATOR] ACTUAL_SEQ_ITEM RECEIVED: -----------------------------------------------------------------------------------------------------------------------------------------
# 
#                     time: 195 HSEL: 0  HRDATA: 0  HRESP: 0   HREADY: 1, PREDICTOR_transaction_counter = 5, COMPARATOR_transaction_counter= 1
# UVM_INFO components/comparator.svh(87) @ 195: uvm_test_top.env_h.scoreboard_h.comparator_h [SCOREBOARD] PASS
# UVM_INFO components/comparator.svh(73) @ 195: uvm_test_top.env_h.scoreboard_h.comparator_h [COMPARATOR] RUN PHASE
# UVM_INFO components/comparator.svh(77) @ 195: uvm_test_top.env_h.scoreboard_h.comparator_h [COMPARATOR] EXPECTED_SEQ_ITEM RECEIVED: -----------------------------------------------------------------------------------------------------------------------------------------
# 
#                      time: 195  HRESETn = 1, HSEL= 1, HWRITE = 1, HTRANS =  2, HSIZE = 0, HBURST = 0, HPROT = 0, HADDR = 40000000, HWDATA = 80, HRDATA = 0, HRESP = 0, HREADY = 1, PREDICTOR_transaction_counter = 5, COMPARATOR_transaction_counter= 2
# OUTPUT_1_PHASE_SIGNALS: TIME:200 SENDING OUTPUTS
# CONTROL PHASE: TIME:200 ASSIGINING SIGNALS
# start of pre_body task
# start of pre_body task
# UVM_INFO components/driver.svh(64) @ 200: uvm_test_top.env_h.active_agent_h.driver_h [uvm_test_top.env_h.active_agent_h.driver_h] DRIVEN_ITEM:-----------------------------------------------------------------------------------------------------------------------------------------
# 
#                     time: 200 HRESETn = 1, HSEL= 0, HWRITE = 1, HTRANS =  2, HSIZE = 0, HBURST = 0, HPROT = 0, HADDR = 9, HWDATA = 67, PREDICTOR_transaction_counter = 5, COMPARATOR_transaction_counter= 2
# UVM_INFO components/predictor.svh(227) @ 200: uvm_test_top.env_h.scoreboard_h.predictor_h [PREDICTOR] WRITE_SLAVE0:67, 67, 9
# UVM_INFO components/predictor.svh(107) @ 200: uvm_test_top.env_h.scoreboard_h.predictor_h [PREDICTOR] EXPECTED_DATA: -----------------------------------------------------------------------------------------------------------------------------------------
# 
#                     time: 200 HRESETn = 1, HSEL= 0, HWRITE = 1, HTRANS =  2, HSIZE = 0, HBURST = 0, HPROT = 0, HADDR = 9, HWDATA = 67, PREDICTOR_transaction_counter = 6, COMPARATOR_transaction_counter= 2
# my_predictor run phase
# OUTPUT_2_PHASE_SIGNALS: TIME:205 SENDING OUTPUTS
# UVM_INFO components/outputs_monitor.svh(75) @ 205: uvm_test_top.env_h.passive_agent_h.outputs_monitor_h [uvm_test_top.env_h.passive_agent_h.outputs_monitor_h] OUTPUTS SENT TO THE COMPARATOR
# UVM_INFO components/comparator.svh(82) @ 205: uvm_test_top.env_h.scoreboard_h.comparator_h [COMPARATOR] ACTUAL_SEQ_ITEM RECEIVED: -----------------------------------------------------------------------------------------------------------------------------------------
# 
#                     time: 205 HSEL: 0  HRDATA: 0  HRESP: 0   HREADY: 1, PREDICTOR_transaction_counter = 6, COMPARATOR_transaction_counter= 2
# UVM_INFO components/comparator.svh(87) @ 205: uvm_test_top.env_h.scoreboard_h.comparator_h [SCOREBOARD] PASS
# UVM_INFO components/comparator.svh(73) @ 205: uvm_test_top.env_h.scoreboard_h.comparator_h [COMPARATOR] RUN PHASE
# UVM_INFO components/comparator.svh(77) @ 205: uvm_test_top.env_h.scoreboard_h.comparator_h [COMPARATOR] EXPECTED_SEQ_ITEM RECEIVED: -----------------------------------------------------------------------------------------------------------------------------------------
# 
#                      time: 205  HRESETn = 1, HSEL= 0, HWRITE = 1, HTRANS =  2, HSIZE = 0, HBURST = 0, HPROT = 0, HADDR = b, HWDATA = 21, HRDATA = 0, HRESP = 0, HREADY = 1, PREDICTOR_transaction_counter = 6, COMPARATOR_transaction_counter= 3
# OUTPUT_1_PHASE_SIGNALS: TIME:210 SENDING OUTPUTS
# CONTROL PHASE: TIME:210 ASSIGINING SIGNALS
# start of pre_body task
# start of pre_body task
# UVM_INFO components/driver.svh(64) @ 210: uvm_test_top.env_h.active_agent_h.driver_h [uvm_test_top.env_h.active_agent_h.driver_h] DRIVEN_ITEM:-----------------------------------------------------------------------------------------------------------------------------------------
# 
#                     time: 210 HRESETn = 1, HSEL= 3, HWRITE = 1, HTRANS =  2, HSIZE = 0, HBURST = 0, HPROT = 0, HADDR = c000000d, HWDATA = 13, PREDICTOR_transaction_counter = 6, COMPARATOR_transaction_counter= 3
# UVM_INFO components/predictor.svh(107) @ 210: uvm_test_top.env_h.scoreboard_h.predictor_h [PREDICTOR] EXPECTED_DATA: -----------------------------------------------------------------------------------------------------------------------------------------
# 
#                     time: 210 HRESETn = 1, HSEL= 3, HWRITE = 1, HTRANS =  2, HSIZE = 0, HBURST = 0, HPROT = 0, HADDR = c000000d, HWDATA = 13, PREDICTOR_transaction_counter = 7, COMPARATOR_transaction_counter= 3
# my_predictor run phase
# OUTPUT_2_PHASE_SIGNALS: TIME:215 SENDING OUTPUTS
# UVM_INFO components/outputs_monitor.svh(75) @ 215: uvm_test_top.env_h.passive_agent_h.outputs_monitor_h [uvm_test_top.env_h.passive_agent_h.outputs_monitor_h] OUTPUTS SENT TO THE COMPARATOR
# UVM_INFO components/comparator.svh(82) @ 215: uvm_test_top.env_h.scoreboard_h.comparator_h [COMPARATOR] ACTUAL_SEQ_ITEM RECEIVED: -----------------------------------------------------------------------------------------------------------------------------------------
# 
#                     time: 215 HSEL: 0  HRDATA: 0  HRESP: 0   HREADY: 1, PREDICTOR_transaction_counter = 7, COMPARATOR_transaction_counter= 3
# UVM_INFO components/comparator.svh(87) @ 215: uvm_test_top.env_h.scoreboard_h.comparator_h [SCOREBOARD] PASS
# UVM_INFO components/comparator.svh(73) @ 215: uvm_test_top.env_h.scoreboard_h.comparator_h [COMPARATOR] RUN PHASE
# UVM_INFO components/comparator.svh(77) @ 215: uvm_test_top.env_h.scoreboard_h.comparator_h [COMPARATOR] EXPECTED_SEQ_ITEM RECEIVED: -----------------------------------------------------------------------------------------------------------------------------------------
# 
#                      time: 215  HRESETn = 1, HSEL= 2, HWRITE = 1, HTRANS =  2, HSIZE = 0, HBURST = 0, HPROT = 0, HADDR = 8000000a, HWDATA = 6b, HRDATA = 0, HRESP = 0, HREADY = 1, PREDICTOR_transaction_counter = 7, COMPARATOR_transaction_counter= 4
# OUTPUT_1_PHASE_SIGNALS: TIME:220 SENDING OUTPUTS
# CONTROL PHASE: TIME:220 ASSIGINING SIGNALS
# start of pre_body task
# start of pre_body task
# UVM_INFO components/driver.svh(64) @ 220: uvm_test_top.env_h.active_agent_h.driver_h [uvm_test_top.env_h.active_agent_h.driver_h] DRIVEN_ITEM:-----------------------------------------------------------------------------------------------------------------------------------------
# 
#                     time: 220 HRESETn = 1, HSEL= 1, HWRITE = 1, HTRANS =  2, HSIZE = 0, HBURST = 0, HPROT = 0, HADDR = 40000008, HWDATA = 71, PREDICTOR_transaction_counter = 7, COMPARATOR_transaction_counter= 4
# UVM_INFO components/predictor.svh(231) @ 220: uvm_test_top.env_h.scoreboard_h.predictor_h [PREDICTOR] WRITE_SLAVE1:71, 71, 40000008
# UVM_INFO components/predictor.svh(107) @ 220: uvm_test_top.env_h.scoreboard_h.predictor_h [PREDICTOR] EXPECTED_DATA: -----------------------------------------------------------------------------------------------------------------------------------------
# 
#                     time: 220 HRESETn = 1, HSEL= 1, HWRITE = 1, HTRANS =  2, HSIZE = 0, HBURST = 0, HPROT = 0, HADDR = 40000008, HWDATA = 71, PREDICTOR_transaction_counter = 8, COMPARATOR_transaction_counter= 4
# my_predictor run phase
# OUTPUT_2_PHASE_SIGNALS: TIME:225 SENDING OUTPUTS
# UVM_INFO components/outputs_monitor.svh(75) @ 225: uvm_test_top.env_h.passive_agent_h.outputs_monitor_h [uvm_test_top.env_h.passive_agent_h.outputs_monitor_h] OUTPUTS SENT TO THE COMPARATOR
# UVM_INFO components/comparator.svh(82) @ 225: uvm_test_top.env_h.scoreboard_h.comparator_h [COMPARATOR] ACTUAL_SEQ_ITEM RECEIVED: -----------------------------------------------------------------------------------------------------------------------------------------
# 
#                     time: 225 HSEL: 0  HRDATA: 0  HRESP: 0   HREADY: 1, PREDICTOR_transaction_counter = 8, COMPARATOR_transaction_counter= 4
# UVM_INFO components/comparator.svh(87) @ 225: uvm_test_top.env_h.scoreboard_h.comparator_h [SCOREBOARD] PASS
# UVM_INFO components/comparator.svh(73) @ 225: uvm_test_top.env_h.scoreboard_h.comparator_h [COMPARATOR] RUN PHASE
# UVM_INFO components/comparator.svh(77) @ 225: uvm_test_top.env_h.scoreboard_h.comparator_h [COMPARATOR] EXPECTED_SEQ_ITEM RECEIVED: -----------------------------------------------------------------------------------------------------------------------------------------
# 
#                      time: 225  HRESETn = 1, HSEL= 0, HWRITE = 1, HTRANS =  2, HSIZE = 0, HBURST = 0, HPROT = 0, HADDR = 9, HWDATA = 67, HRDATA = 0, HRESP = 0, HREADY = 1, PREDICTOR_transaction_counter = 8, COMPARATOR_transaction_counter= 5
# OUTPUT_1_PHASE_SIGNALS: TIME:230 SENDING OUTPUTS
# CONTROL PHASE: TIME:230 ASSIGINING SIGNALS
# start of pre_body task
# start of pre_body task
# UVM_INFO components/driver.svh(64) @ 230: uvm_test_top.env_h.active_agent_h.driver_h [uvm_test_top.env_h.active_agent_h.driver_h] DRIVEN_ITEM:-----------------------------------------------------------------------------------------------------------------------------------------
# 
#                     time: 230 HRESETn = 1, HSEL= 2, HWRITE = 1, HTRANS =  2, HSIZE = 0, HBURST = 0, HPROT = 0, HADDR = 80000005, HWDATA = 57, PREDICTOR_transaction_counter = 8, COMPARATOR_transaction_counter= 5
# UVM_INFO components/predictor.svh(236) @ 230: uvm_test_top.env_h.scoreboard_h.predictor_h [PREDICTOR] WRITE_SLAVE2:57, 57, 80000005
# UVM_INFO components/predictor.svh(107) @ 230: uvm_test_top.env_h.scoreboard_h.predictor_h [PREDICTOR] EXPECTED_DATA: -----------------------------------------------------------------------------------------------------------------------------------------
# 
#                     time: 230 HRESETn = 1, HSEL= 2, HWRITE = 1, HTRANS =  2, HSIZE = 0, HBURST = 0, HPROT = 0, HADDR = 80000005, HWDATA = 57, PREDICTOR_transaction_counter = 9, COMPARATOR_transaction_counter= 5
# my_predictor run phase
# OUTPUT_2_PHASE_SIGNALS: TIME:235 SENDING OUTPUTS
# UVM_INFO components/outputs_monitor.svh(75) @ 235: uvm_test_top.env_h.passive_agent_h.outputs_monitor_h [uvm_test_top.env_h.passive_agent_h.outputs_monitor_h] OUTPUTS SENT TO THE COMPARATOR
# UVM_INFO components/comparator.svh(82) @ 235: uvm_test_top.env_h.scoreboard_h.comparator_h [COMPARATOR] ACTUAL_SEQ_ITEM RECEIVED: -----------------------------------------------------------------------------------------------------------------------------------------
# 
#                     time: 235 HSEL: 0  HRDATA: 0  HRESP: 0   HREADY: 1, PREDICTOR_transaction_counter = 9, COMPARATOR_transaction_counter= 5
# UVM_INFO components/comparator.svh(87) @ 235: uvm_test_top.env_h.scoreboard_h.comparator_h [SCOREBOARD] PASS
# UVM_INFO components/comparator.svh(73) @ 235: uvm_test_top.env_h.scoreboard_h.comparator_h [COMPARATOR] RUN PHASE
# UVM_INFO components/comparator.svh(77) @ 235: uvm_test_top.env_h.scoreboard_h.comparator_h [COMPARATOR] EXPECTED_SEQ_ITEM RECEIVED: -----------------------------------------------------------------------------------------------------------------------------------------
# 
#                      time: 235  HRESETn = 1, HSEL= 3, HWRITE = 1, HTRANS =  2, HSIZE = 0, HBURST = 0, HPROT = 0, HADDR = c000000d, HWDATA = 13, HRDATA = 0, HRESP = 1, HREADY = 1, PREDICTOR_transaction_counter = 9, COMPARATOR_transaction_counter= 6
# OUTPUT_1_PHASE_SIGNALS: TIME:240 SENDING OUTPUTS
# CONTROL PHASE: TIME:240 ASSIGINING SIGNALS
# start of pre_body task
# start of pre_body task
# UVM_INFO components/driver.svh(64) @ 240: uvm_test_top.env_h.active_agent_h.driver_h [uvm_test_top.env_h.active_agent_h.driver_h] DRIVEN_ITEM:-----------------------------------------------------------------------------------------------------------------------------------------
# 
#                     time: 240 HRESETn = 1, HSEL= 3, HWRITE = 1, HTRANS =  2, HSIZE = 0, HBURST = 0, HPROT = 0, HADDR = c0000006, HWDATA = 9f, PREDICTOR_transaction_counter = 9, COMPARATOR_transaction_counter= 6
# UVM_INFO components/predictor.svh(107) @ 240: uvm_test_top.env_h.scoreboard_h.predictor_h [PREDICTOR] EXPECTED_DATA: -----------------------------------------------------------------------------------------------------------------------------------------
# 
#                     time: 240 HRESETn = 1, HSEL= 3, HWRITE = 1, HTRANS =  2, HSIZE = 0, HBURST = 0, HPROT = 0, HADDR = c0000006, HWDATA = 9f, PREDICTOR_transaction_counter = 10, COMPARATOR_transaction_counter= 6
# my_predictor run phase
# OUTPUT_2_PHASE_SIGNALS: TIME:245 SENDING OUTPUTS
# UVM_INFO components/outputs_monitor.svh(75) @ 245: uvm_test_top.env_h.passive_agent_h.outputs_monitor_h [uvm_test_top.env_h.passive_agent_h.outputs_monitor_h] OUTPUTS SENT TO THE COMPARATOR
# UVM_INFO components/comparator.svh(82) @ 245: uvm_test_top.env_h.scoreboard_h.comparator_h [COMPARATOR] ACTUAL_SEQ_ITEM RECEIVED: -----------------------------------------------------------------------------------------------------------------------------------------
# 
#                     time: 245 HSEL: 0  HRDATA: 0  HRESP: 1   HREADY: 1, PREDICTOR_transaction_counter = 10, COMPARATOR_transaction_counter= 6
# UVM_INFO components/comparator.svh(87) @ 245: uvm_test_top.env_h.scoreboard_h.comparator_h [SCOREBOARD] PASS
# UVM_INFO components/comparator.svh(73) @ 245: uvm_test_top.env_h.scoreboard_h.comparator_h [COMPARATOR] RUN PHASE
# UVM_INFO components/comparator.svh(77) @ 245: uvm_test_top.env_h.scoreboard_h.comparator_h [COMPARATOR] EXPECTED_SEQ_ITEM RECEIVED: -----------------------------------------------------------------------------------------------------------------------------------------
# 
#                      time: 245  HRESETn = 1, HSEL= 1, HWRITE = 1, HTRANS =  2, HSIZE = 0, HBURST = 0, HPROT = 0, HADDR = 40000008, HWDATA = 71, HRDATA = 0, HRESP = 0, HREADY = 1, PREDICTOR_transaction_counter = 10, COMPARATOR_transaction_counter= 7
# OUTPUT_1_PHASE_SIGNALS: TIME:250 SENDING OUTPUTS
# CONTROL PHASE: TIME:250 ASSIGINING SIGNALS
# start of pre_body task
# start of pre_body task
# UVM_INFO components/driver.svh(64) @ 250: uvm_test_top.env_h.active_agent_h.driver_h [uvm_test_top.env_h.active_agent_h.driver_h] DRIVEN_ITEM:-----------------------------------------------------------------------------------------------------------------------------------------
# 
#                     time: 250 HRESETn = 1, HSEL= 1, HWRITE = 1, HTRANS =  2, HSIZE = 0, HBURST = 0, HPROT = 0, HADDR = 4000000b, HWDATA = d2, PREDICTOR_transaction_counter = 10, COMPARATOR_transaction_counter= 7
# UVM_INFO components/predictor.svh(231) @ 250: uvm_test_top.env_h.scoreboard_h.predictor_h [PREDICTOR] WRITE_SLAVE1:d2, d2, 4000000b
# UVM_INFO components/predictor.svh(107) @ 250: uvm_test_top.env_h.scoreboard_h.predictor_h [PREDICTOR] EXPECTED_DATA: -----------------------------------------------------------------------------------------------------------------------------------------
# 
#                     time: 250 HRESETn = 1, HSEL= 1, HWRITE = 1, HTRANS =  2, HSIZE = 0, HBURST = 0, HPROT = 0, HADDR = 4000000b, HWDATA = d2, PREDICTOR_transaction_counter = 11, COMPARATOR_transaction_counter= 7
# my_predictor run phase
# OUTPUT_2_PHASE_SIGNALS: TIME:255 SENDING OUTPUTS
# UVM_INFO components/outputs_monitor.svh(75) @ 255: uvm_test_top.env_h.passive_agent_h.outputs_monitor_h [uvm_test_top.env_h.passive_agent_h.outputs_monitor_h] OUTPUTS SENT TO THE COMPARATOR
# UVM_INFO components/comparator.svh(82) @ 255: uvm_test_top.env_h.scoreboard_h.comparator_h [COMPARATOR] ACTUAL_SEQ_ITEM RECEIVED: -----------------------------------------------------------------------------------------------------------------------------------------
# 
#                     time: 255 HSEL: 0  HRDATA: 0  HRESP: 0   HREADY: 1, PREDICTOR_transaction_counter = 11, COMPARATOR_transaction_counter= 7
# UVM_INFO components/comparator.svh(87) @ 255: uvm_test_top.env_h.scoreboard_h.comparator_h [SCOREBOARD] PASS
# UVM_INFO components/comparator.svh(73) @ 255: uvm_test_top.env_h.scoreboard_h.comparator_h [COMPARATOR] RUN PHASE
# UVM_INFO components/comparator.svh(77) @ 255: uvm_test_top.env_h.scoreboard_h.comparator_h [COMPARATOR] EXPECTED_SEQ_ITEM RECEIVED: -----------------------------------------------------------------------------------------------------------------------------------------
# 
#                      time: 255  HRESETn = 1, HSEL= 2, HWRITE = 1, HTRANS =  2, HSIZE = 0, HBURST = 0, HPROT = 0, HADDR = 80000005, HWDATA = 57, HRDATA = 0, HRESP = 0, HREADY = 1, PREDICTOR_transaction_counter = 11, COMPARATOR_transaction_counter= 8
# OUTPUT_1_PHASE_SIGNALS: TIME:260 SENDING OUTPUTS
# CONTROL PHASE: TIME:260 ASSIGINING SIGNALS
# UVM_INFO components/driver.svh(64) @ 260: uvm_test_top.env_h.active_agent_h.driver_h [uvm_test_top.env_h.active_agent_h.driver_h] DRIVEN_ITEM:-----------------------------------------------------------------------------------------------------------------------------------------
# 
#                     time: 260 HRESETn = 1, HSEL= 1, HWRITE = 1, HTRANS =  2, HSIZE = 0, HBURST = 3, HPROT = 0, HADDR = 4000000f, HWDATA = ac, PREDICTOR_transaction_counter = 11, COMPARATOR_transaction_counter= 8
# UVM_INFO components/predictor.svh(231) @ 260: uvm_test_top.env_h.scoreboard_h.predictor_h [PREDICTOR] WRITE_SLAVE1:ac, ac, 4000000f
# UVM_INFO components/predictor.svh(107) @ 260: uvm_test_top.env_h.scoreboard_h.predictor_h [PREDICTOR] EXPECTED_DATA: -----------------------------------------------------------------------------------------------------------------------------------------
# 
#                     time: 260 HRESETn = 1, HSEL= 1, HWRITE = 1, HTRANS =  2, HSIZE = 0, HBURST = 3, HPROT = 0, HADDR = 4000000f, HWDATA = ac, PREDICTOR_transaction_counter = 12, COMPARATOR_transaction_counter= 8
# my_predictor run phase
# OUTPUT_2_PHASE_SIGNALS: TIME:265 SENDING OUTPUTS
# UVM_INFO components/outputs_monitor.svh(75) @ 265: uvm_test_top.env_h.passive_agent_h.outputs_monitor_h [uvm_test_top.env_h.passive_agent_h.outputs_monitor_h] OUTPUTS SENT TO THE COMPARATOR
# UVM_INFO components/comparator.svh(82) @ 265: uvm_test_top.env_h.scoreboard_h.comparator_h [COMPARATOR] ACTUAL_SEQ_ITEM RECEIVED: -----------------------------------------------------------------------------------------------------------------------------------------
# 
#                     time: 265 HSEL: 0  HRDATA: 0  HRESP: 0   HREADY: 1, PREDICTOR_transaction_counter = 12, COMPARATOR_transaction_counter= 8
# UVM_INFO components/comparator.svh(87) @ 265: uvm_test_top.env_h.scoreboard_h.comparator_h [SCOREBOARD] PASS
# UVM_INFO components/comparator.svh(73) @ 265: uvm_test_top.env_h.scoreboard_h.comparator_h [COMPARATOR] RUN PHASE
# UVM_INFO components/comparator.svh(77) @ 265: uvm_test_top.env_h.scoreboard_h.comparator_h [COMPARATOR] EXPECTED_SEQ_ITEM RECEIVED: -----------------------------------------------------------------------------------------------------------------------------------------
# 
#                      time: 265  HRESETn = 1, HSEL= 3, HWRITE = 1, HTRANS =  2, HSIZE = 0, HBURST = 0, HPROT = 0, HADDR = c0000006, HWDATA = 9f, HRDATA = 0, HRESP = 1, HREADY = 1, PREDICTOR_transaction_counter = 12, COMPARATOR_transaction_counter= 9
# OUTPUT_1_PHASE_SIGNALS: TIME:270 SENDING OUTPUTS
# CONTROL PHASE: TIME:270 ASSIGINING SIGNALS
# UVM_INFO components/driver.svh(64) @ 270: uvm_test_top.env_h.active_agent_h.driver_h [uvm_test_top.env_h.active_agent_h.driver_h] DRIVEN_ITEM:-----------------------------------------------------------------------------------------------------------------------------------------
# 
#                     time: 270 HRESETn = 1, HSEL= 1, HWRITE = 1, HTRANS =  3, HSIZE = 0, HBURST = 3, HPROT = 0, HADDR = 4000000f, HWDATA = 63, PREDICTOR_transaction_counter = 12, COMPARATOR_transaction_counter= 9
# UVM_INFO components/predictor.svh(107) @ 270: uvm_test_top.env_h.scoreboard_h.predictor_h [PREDICTOR] EXPECTED_DATA: -----------------------------------------------------------------------------------------------------------------------------------------
# 
#                     time: 270 HRESETn = 1, HSEL= 1, HWRITE = 1, HTRANS =  3, HSIZE = 0, HBURST = 3, HPROT = 0, HADDR = 4000000f, HWDATA = 63, PREDICTOR_transaction_counter = 13, COMPARATOR_transaction_counter= 9
# my_predictor run phase
# OUTPUT_2_PHASE_SIGNALS: TIME:275 SENDING OUTPUTS
# UVM_INFO components/outputs_monitor.svh(75) @ 275: uvm_test_top.env_h.passive_agent_h.outputs_monitor_h [uvm_test_top.env_h.passive_agent_h.outputs_monitor_h] OUTPUTS SENT TO THE COMPARATOR
# UVM_INFO components/comparator.svh(82) @ 275: uvm_test_top.env_h.scoreboard_h.comparator_h [COMPARATOR] ACTUAL_SEQ_ITEM RECEIVED: -----------------------------------------------------------------------------------------------------------------------------------------
# 
#                     time: 275 HSEL: 0  HRDATA: 0  HRESP: 1   HREADY: 1, PREDICTOR_transaction_counter = 13, COMPARATOR_transaction_counter= 9
# UVM_INFO components/comparator.svh(87) @ 275: uvm_test_top.env_h.scoreboard_h.comparator_h [SCOREBOARD] PASS
# UVM_INFO components/comparator.svh(73) @ 275: uvm_test_top.env_h.scoreboard_h.comparator_h [COMPARATOR] RUN PHASE
# UVM_INFO components/comparator.svh(77) @ 275: uvm_test_top.env_h.scoreboard_h.comparator_h [COMPARATOR] EXPECTED_SEQ_ITEM RECEIVED: -----------------------------------------------------------------------------------------------------------------------------------------
# 
#                      time: 275  HRESETn = 1, HSEL= 1, HWRITE = 1, HTRANS =  2, HSIZE = 0, HBURST = 0, HPROT = 0, HADDR = 4000000b, HWDATA = d2, HRDATA = 0, HRESP = 0, HREADY = 1, PREDICTOR_transaction_counter = 13, COMPARATOR_transaction_counter= 10
# OUTPUT_1_PHASE_SIGNALS: TIME:280 SENDING OUTPUTS
# CONTROL PHASE: TIME:280 ASSIGINING SIGNALS
# UVM_INFO components/driver.svh(64) @ 280: uvm_test_top.env_h.active_agent_h.driver_h [uvm_test_top.env_h.active_agent_h.driver_h] DRIVEN_ITEM:-----------------------------------------------------------------------------------------------------------------------------------------
# 
#                     time: 280 HRESETn = 1, HSEL= 1, HWRITE = 1, HTRANS =  3, HSIZE = 0, HBURST = 3, HPROT = 0, HADDR = 4000000f, HWDATA = 22, PREDICTOR_transaction_counter = 13, COMPARATOR_transaction_counter= 10
# UVM_INFO components/predictor.svh(107) @ 280: uvm_test_top.env_h.scoreboard_h.predictor_h [PREDICTOR] EXPECTED_DATA: -----------------------------------------------------------------------------------------------------------------------------------------
# 
#                     time: 280 HRESETn = 1, HSEL= 1, HWRITE = 1, HTRANS =  3, HSIZE = 0, HBURST = 3, HPROT = 0, HADDR = 4000000f, HWDATA = 22, PREDICTOR_transaction_counter = 14, COMPARATOR_transaction_counter= 10
# my_predictor run phase
# OUTPUT_2_PHASE_SIGNALS: TIME:285 SENDING OUTPUTS
# UVM_INFO components/outputs_monitor.svh(75) @ 285: uvm_test_top.env_h.passive_agent_h.outputs_monitor_h [uvm_test_top.env_h.passive_agent_h.outputs_monitor_h] OUTPUTS SENT TO THE COMPARATOR
# UVM_INFO components/comparator.svh(82) @ 285: uvm_test_top.env_h.scoreboard_h.comparator_h [COMPARATOR] ACTUAL_SEQ_ITEM RECEIVED: -----------------------------------------------------------------------------------------------------------------------------------------
# 
#                     time: 285 HSEL: 0  HRDATA: 0  HRESP: 0   HREADY: 1, PREDICTOR_transaction_counter = 14, COMPARATOR_transaction_counter= 10
# UVM_INFO components/comparator.svh(87) @ 285: uvm_test_top.env_h.scoreboard_h.comparator_h [SCOREBOARD] PASS
# UVM_INFO components/comparator.svh(73) @ 285: uvm_test_top.env_h.scoreboard_h.comparator_h [COMPARATOR] RUN PHASE
# UVM_INFO components/comparator.svh(77) @ 285: uvm_test_top.env_h.scoreboard_h.comparator_h [COMPARATOR] EXPECTED_SEQ_ITEM RECEIVED: -----------------------------------------------------------------------------------------------------------------------------------------
# 
#                      time: 285  HRESETn = 1, HSEL= 1, HWRITE = 1, HTRANS =  2, HSIZE = 0, HBURST = 3, HPROT = 0, HADDR = 4000000f, HWDATA = ac, HRDATA = 0, HRESP = 0, HREADY = 1, PREDICTOR_transaction_counter = 14, COMPARATOR_transaction_counter= 11
# OUTPUT_1_PHASE_SIGNALS: TIME:290 SENDING OUTPUTS
# CONTROL PHASE: TIME:290 ASSIGINING SIGNALS
# UVM_INFO components/driver.svh(64) @ 290: uvm_test_top.env_h.active_agent_h.driver_h [uvm_test_top.env_h.active_agent_h.driver_h] DRIVEN_ITEM:-----------------------------------------------------------------------------------------------------------------------------------------
# 
#                     time: 290 HRESETn = 1, HSEL= 1, HWRITE = 1, HTRANS =  3, HSIZE = 0, HBURST = 3, HPROT = 0, HADDR = 4000000f, HWDATA = 68, PREDICTOR_transaction_counter = 14, COMPARATOR_transaction_counter= 11
# UVM_INFO components/predictor.svh(107) @ 290: uvm_test_top.env_h.scoreboard_h.predictor_h [PREDICTOR] EXPECTED_DATA: -----------------------------------------------------------------------------------------------------------------------------------------
# 
#                     time: 290 HRESETn = 1, HSEL= 1, HWRITE = 1, HTRANS =  3, HSIZE = 0, HBURST = 3, HPROT = 0, HADDR = 4000000f, HWDATA = 68, PREDICTOR_transaction_counter = 15, COMPARATOR_transaction_counter= 11
# my_predictor run phase
# OUTPUT_2_PHASE_SIGNALS: TIME:295 SENDING OUTPUTS
# UVM_INFO components/outputs_monitor.svh(75) @ 295: uvm_test_top.env_h.passive_agent_h.outputs_monitor_h [uvm_test_top.env_h.passive_agent_h.outputs_monitor_h] OUTPUTS SENT TO THE COMPARATOR
# UVM_INFO components/comparator.svh(82) @ 295: uvm_test_top.env_h.scoreboard_h.comparator_h [COMPARATOR] ACTUAL_SEQ_ITEM RECEIVED: -----------------------------------------------------------------------------------------------------------------------------------------
# 
#                     time: 295 HSEL: 0  HRDATA: 0  HRESP: 0   HREADY: 1, PREDICTOR_transaction_counter = 15, COMPARATOR_transaction_counter= 11
# UVM_INFO components/comparator.svh(87) @ 295: uvm_test_top.env_h.scoreboard_h.comparator_h [SCOREBOARD] PASS
# UVM_INFO components/comparator.svh(73) @ 295: uvm_test_top.env_h.scoreboard_h.comparator_h [COMPARATOR] RUN PHASE
# UVM_INFO components/comparator.svh(77) @ 295: uvm_test_top.env_h.scoreboard_h.comparator_h [COMPARATOR] EXPECTED_SEQ_ITEM RECEIVED: -----------------------------------------------------------------------------------------------------------------------------------------
# 
#                      time: 295  HRESETn = 1, HSEL= 1, HWRITE = 1, HTRANS =  3, HSIZE = 0, HBURST = 3, HPROT = 0, HADDR = 4000000f, HWDATA = 63, HRDATA = 0, HRESP = 1, HREADY = 1, PREDICTOR_transaction_counter = 15, COMPARATOR_transaction_counter= 12
# OUTPUT_1_PHASE_SIGNALS: TIME:300 SENDING OUTPUTS
# CONTROL PHASE: TIME:300 ASSIGINING SIGNALS
# UVM_INFO components/driver.svh(64) @ 300: uvm_test_top.env_h.active_agent_h.driver_h [uvm_test_top.env_h.active_agent_h.driver_h] DRIVEN_ITEM:-----------------------------------------------------------------------------------------------------------------------------------------
# 
#                     time: 300 HRESETn = 1, HSEL= 1, HWRITE = 1, HTRANS =  0, HSIZE = 0, HBURST = 0, HPROT = 0, HADDR = 4000000f, HWDATA = ba, PREDICTOR_transaction_counter = 15, COMPARATOR_transaction_counter= 12
# UVM_INFO components/predictor.svh(107) @ 300: uvm_test_top.env_h.scoreboard_h.predictor_h [PREDICTOR] EXPECTED_DATA: -----------------------------------------------------------------------------------------------------------------------------------------
# 
#                     time: 300 HRESETn = 1, HSEL= 1, HWRITE = 1, HTRANS =  0, HSIZE = 0, HBURST = 0, HPROT = 0, HADDR = 4000000f, HWDATA = ba, PREDICTOR_transaction_counter = 16, COMPARATOR_transaction_counter= 12
# my_predictor run phase
# OUTPUT_2_PHASE_SIGNALS: TIME:305 SENDING OUTPUTS
# UVM_INFO components/outputs_monitor.svh(75) @ 305: uvm_test_top.env_h.passive_agent_h.outputs_monitor_h [uvm_test_top.env_h.passive_agent_h.outputs_monitor_h] OUTPUTS SENT TO THE COMPARATOR
# UVM_INFO components/comparator.svh(82) @ 305: uvm_test_top.env_h.scoreboard_h.comparator_h [COMPARATOR] ACTUAL_SEQ_ITEM RECEIVED: -----------------------------------------------------------------------------------------------------------------------------------------
# 
#                     time: 305 HSEL: 0  HRDATA: 0  HRESP: 1   HREADY: 1, PREDICTOR_transaction_counter = 16, COMPARATOR_transaction_counter= 12
# UVM_INFO components/comparator.svh(87) @ 305: uvm_test_top.env_h.scoreboard_h.comparator_h [SCOREBOARD] PASS
# UVM_INFO components/comparator.svh(73) @ 305: uvm_test_top.env_h.scoreboard_h.comparator_h [COMPARATOR] RUN PHASE
# UVM_INFO components/comparator.svh(77) @ 305: uvm_test_top.env_h.scoreboard_h.comparator_h [COMPARATOR] EXPECTED_SEQ_ITEM RECEIVED: -----------------------------------------------------------------------------------------------------------------------------------------
# 
#                      time: 305  HRESETn = 1, HSEL= 1, HWRITE = 1, HTRANS =  3, HSIZE = 0, HBURST = 3, HPROT = 0, HADDR = 4000000f, HWDATA = 22, HRDATA = 0, HRESP = 1, HREADY = 1, PREDICTOR_transaction_counter = 16, COMPARATOR_transaction_counter= 13
# OUTPUT_1_PHASE_SIGNALS: TIME:310 SENDING OUTPUTS
# CONTROL PHASE: TIME:310 ASSIGINING SIGNALS
# start of pre_body task
# start of pre_body task
# UVM_INFO components/driver.svh(64) @ 310: uvm_test_top.env_h.active_agent_h.driver_h [uvm_test_top.env_h.active_agent_h.driver_h] DRIVEN_ITEM:-----------------------------------------------------------------------------------------------------------------------------------------
# 
#                     time: 310 HRESETn = 1, HSEL= 1, HWRITE = 1, HTRANS =  2, HSIZE = 0, HBURST = 0, HPROT = 0, HADDR = 4000000d, HWDATA = 34, PREDICTOR_transaction_counter = 16, COMPARATOR_transaction_counter= 13
# UVM_INFO components/predictor.svh(231) @ 310: uvm_test_top.env_h.scoreboard_h.predictor_h [PREDICTOR] WRITE_SLAVE1:34, 34, 4000000d
# UVM_INFO components/predictor.svh(107) @ 310: uvm_test_top.env_h.scoreboard_h.predictor_h [PREDICTOR] EXPECTED_DATA: -----------------------------------------------------------------------------------------------------------------------------------------
# 
#                     time: 310 HRESETn = 1, HSEL= 1, HWRITE = 1, HTRANS =  2, HSIZE = 0, HBURST = 0, HPROT = 0, HADDR = 4000000d, HWDATA = 34, PREDICTOR_transaction_counter = 17, COMPARATOR_transaction_counter= 13
# my_predictor run phase
# OUTPUT_2_PHASE_SIGNALS: TIME:315 SENDING OUTPUTS
# UVM_INFO components/outputs_monitor.svh(75) @ 315: uvm_test_top.env_h.passive_agent_h.outputs_monitor_h [uvm_test_top.env_h.passive_agent_h.outputs_monitor_h] OUTPUTS SENT TO THE COMPARATOR
# UVM_INFO components/comparator.svh(82) @ 315: uvm_test_top.env_h.scoreboard_h.comparator_h [COMPARATOR] ACTUAL_SEQ_ITEM RECEIVED: -----------------------------------------------------------------------------------------------------------------------------------------
# 
#                     time: 315 HSEL: 0  HRDATA: 0  HRESP: 1   HREADY: 1, PREDICTOR_transaction_counter = 17, COMPARATOR_transaction_counter= 13
# UVM_INFO components/comparator.svh(87) @ 315: uvm_test_top.env_h.scoreboard_h.comparator_h [SCOREBOARD] PASS
# UVM_INFO components/comparator.svh(73) @ 315: uvm_test_top.env_h.scoreboard_h.comparator_h [COMPARATOR] RUN PHASE
# UVM_INFO components/comparator.svh(77) @ 315: uvm_test_top.env_h.scoreboard_h.comparator_h [COMPARATOR] EXPECTED_SEQ_ITEM RECEIVED: -----------------------------------------------------------------------------------------------------------------------------------------
# 
#                      time: 315  HRESETn = 1, HSEL= 1, HWRITE = 1, HTRANS =  3, HSIZE = 0, HBURST = 3, HPROT = 0, HADDR = 4000000f, HWDATA = 68, HRDATA = 0, HRESP = 1, HREADY = 1, PREDICTOR_transaction_counter = 17, COMPARATOR_transaction_counter= 14
# OUTPUT_1_PHASE_SIGNALS: TIME:320 SENDING OUTPUTS
# CONTROL PHASE: TIME:320 ASSIGINING SIGNALS
# start of pre_body task
# start of pre_body task
# UVM_INFO components/driver.svh(64) @ 320: uvm_test_top.env_h.active_agent_h.driver_h [uvm_test_top.env_h.active_agent_h.driver_h] DRIVEN_ITEM:-----------------------------------------------------------------------------------------------------------------------------------------
# 
#                     time: 320 HRESETn = 1, HSEL= 2, HWRITE = 1, HTRANS =  2, HSIZE = 0, HBURST = 0, HPROT = 0, HADDR = 8000000c, HWDATA = 38, PREDICTOR_transaction_counter = 17, COMPARATOR_transaction_counter= 14
# UVM_INFO components/predictor.svh(236) @ 320: uvm_test_top.env_h.scoreboard_h.predictor_h [PREDICTOR] WRITE_SLAVE2:38, 38, 8000000c
# UVM_INFO components/predictor.svh(107) @ 320: uvm_test_top.env_h.scoreboard_h.predictor_h [PREDICTOR] EXPECTED_DATA: -----------------------------------------------------------------------------------------------------------------------------------------
# 
#                     time: 320 HRESETn = 1, HSEL= 2, HWRITE = 1, HTRANS =  2, HSIZE = 0, HBURST = 0, HPROT = 0, HADDR = 8000000c, HWDATA = 38, PREDICTOR_transaction_counter = 18, COMPARATOR_transaction_counter= 14
# my_predictor run phase
# OUTPUT_2_PHASE_SIGNALS: TIME:325 SENDING OUTPUTS
# UVM_INFO components/outputs_monitor.svh(75) @ 325: uvm_test_top.env_h.passive_agent_h.outputs_monitor_h [uvm_test_top.env_h.passive_agent_h.outputs_monitor_h] OUTPUTS SENT TO THE COMPARATOR
# UVM_INFO components/comparator.svh(82) @ 325: uvm_test_top.env_h.scoreboard_h.comparator_h [COMPARATOR] ACTUAL_SEQ_ITEM RECEIVED: -----------------------------------------------------------------------------------------------------------------------------------------
# 
#                     time: 325 HSEL: 0  HRDATA: 0  HRESP: 1   HREADY: 1, PREDICTOR_transaction_counter = 18, COMPARATOR_transaction_counter= 14
# UVM_INFO components/comparator.svh(87) @ 325: uvm_test_top.env_h.scoreboard_h.comparator_h [SCOREBOARD] PASS
# UVM_INFO components/comparator.svh(73) @ 325: uvm_test_top.env_h.scoreboard_h.comparator_h [COMPARATOR] RUN PHASE
# UVM_INFO components/comparator.svh(77) @ 325: uvm_test_top.env_h.scoreboard_h.comparator_h [COMPARATOR] EXPECTED_SEQ_ITEM RECEIVED: -----------------------------------------------------------------------------------------------------------------------------------------
# 
#                      time: 325  HRESETn = 1, HSEL= 1, HWRITE = 1, HTRANS =  0, HSIZE = 0, HBURST = 0, HPROT = 0, HADDR = 4000000f, HWDATA = ba, HRDATA = 0, HRESP = 0, HREADY = 1, PREDICTOR_transaction_counter = 18, COMPARATOR_transaction_counter= 15
# OUTPUT_1_PHASE_SIGNALS: TIME:330 SENDING OUTPUTS
# CONTROL PHASE: TIME:330 ASSIGINING SIGNALS
# start of pre_body task
# start of pre_body task
# UVM_INFO components/driver.svh(64) @ 330: uvm_test_top.env_h.active_agent_h.driver_h [uvm_test_top.env_h.active_agent_h.driver_h] DRIVEN_ITEM:-----------------------------------------------------------------------------------------------------------------------------------------
# 
#                     time: 330 HRESETn = 1, HSEL= 0, HWRITE = 1, HTRANS =  2, HSIZE = 0, HBURST = 0, HPROT = 0, HADDR = 7, HWDATA = a1, PREDICTOR_transaction_counter = 18, COMPARATOR_transaction_counter= 15
# UVM_INFO components/predictor.svh(227) @ 330: uvm_test_top.env_h.scoreboard_h.predictor_h [PREDICTOR] WRITE_SLAVE0:a1, a1, 7
# UVM_INFO components/predictor.svh(107) @ 330: uvm_test_top.env_h.scoreboard_h.predictor_h [PREDICTOR] EXPECTED_DATA: -----------------------------------------------------------------------------------------------------------------------------------------
# 
#                     time: 330 HRESETn = 1, HSEL= 0, HWRITE = 1, HTRANS =  2, HSIZE = 0, HBURST = 0, HPROT = 0, HADDR = 7, HWDATA = a1, PREDICTOR_transaction_counter = 19, COMPARATOR_transaction_counter= 15
# my_predictor run phase
# OUTPUT_2_PHASE_SIGNALS: TIME:335 SENDING OUTPUTS
# UVM_INFO components/outputs_monitor.svh(75) @ 335: uvm_test_top.env_h.passive_agent_h.outputs_monitor_h [uvm_test_top.env_h.passive_agent_h.outputs_monitor_h] OUTPUTS SENT TO THE COMPARATOR
# UVM_INFO components/comparator.svh(82) @ 335: uvm_test_top.env_h.scoreboard_h.comparator_h [COMPARATOR] ACTUAL_SEQ_ITEM RECEIVED: -----------------------------------------------------------------------------------------------------------------------------------------
# 
#                     time: 335 HSEL: 0  HRDATA: 0  HRESP: 0   HREADY: 1, PREDICTOR_transaction_counter = 19, COMPARATOR_transaction_counter= 15
# UVM_INFO components/comparator.svh(87) @ 335: uvm_test_top.env_h.scoreboard_h.comparator_h [SCOREBOARD] PASS
# UVM_INFO components/comparator.svh(73) @ 335: uvm_test_top.env_h.scoreboard_h.comparator_h [COMPARATOR] RUN PHASE
# UVM_INFO components/comparator.svh(77) @ 335: uvm_test_top.env_h.scoreboard_h.comparator_h [COMPARATOR] EXPECTED_SEQ_ITEM RECEIVED: -----------------------------------------------------------------------------------------------------------------------------------------
# 
#                      time: 335  HRESETn = 1, HSEL= 1, HWRITE = 1, HTRANS =  2, HSIZE = 0, HBURST = 0, HPROT = 0, HADDR = 4000000d, HWDATA = 34, HRDATA = 0, HRESP = 0, HREADY = 1, PREDICTOR_transaction_counter = 19, COMPARATOR_transaction_counter= 16
# OUTPUT_1_PHASE_SIGNALS: TIME:340 SENDING OUTPUTS
# CONTROL PHASE: TIME:340 ASSIGINING SIGNALS
# start of pre_body task
# start of pre_body task
# UVM_INFO components/driver.svh(64) @ 340: uvm_test_top.env_h.active_agent_h.driver_h [uvm_test_top.env_h.active_agent_h.driver_h] DRIVEN_ITEM:-----------------------------------------------------------------------------------------------------------------------------------------
# 
#                     time: 340 HRESETn = 1, HSEL= 2, HWRITE = 0, HTRANS =  2, HSIZE = 0, HBURST = 0, HPROT = 0, HADDR = 80000005, HWDATA = fb, PREDICTOR_transaction_counter = 19, COMPARATOR_transaction_counter= 16
# UVM_INFO components/predictor.svh(349) @ 340: uvm_test_top.env_h.scoreboard_h.predictor_h [PREDICTOR] READ_SLAVE2:57  5
# UVM_INFO components/predictor.svh(107) @ 340: uvm_test_top.env_h.scoreboard_h.predictor_h [PREDICTOR] EXPECTED_DATA: -----------------------------------------------------------------------------------------------------------------------------------------
# 
#                     time: 340 HRESETn = 1, HSEL= 2, HWRITE = 0, HTRANS =  2, HSIZE = 0, HBURST = 0, HPROT = 0, HADDR = 80000005, HWDATA = fb, PREDICTOR_transaction_counter = 20, COMPARATOR_transaction_counter= 16
# my_predictor run phase
# OUTPUT_2_PHASE_SIGNALS: TIME:345 SENDING OUTPUTS
# UVM_INFO components/outputs_monitor.svh(75) @ 345: uvm_test_top.env_h.passive_agent_h.outputs_monitor_h [uvm_test_top.env_h.passive_agent_h.outputs_monitor_h] OUTPUTS SENT TO THE COMPARATOR
# UVM_INFO components/comparator.svh(82) @ 345: uvm_test_top.env_h.scoreboard_h.comparator_h [COMPARATOR] ACTUAL_SEQ_ITEM RECEIVED: -----------------------------------------------------------------------------------------------------------------------------------------
# 
#                     time: 345 HSEL: 0  HRDATA: 0  HRESP: 0   HREADY: 1, PREDICTOR_transaction_counter = 20, COMPARATOR_transaction_counter= 16
# UVM_INFO components/comparator.svh(87) @ 345: uvm_test_top.env_h.scoreboard_h.comparator_h [SCOREBOARD] PASS
# UVM_INFO components/comparator.svh(73) @ 345: uvm_test_top.env_h.scoreboard_h.comparator_h [COMPARATOR] RUN PHASE
# UVM_INFO components/comparator.svh(77) @ 345: uvm_test_top.env_h.scoreboard_h.comparator_h [COMPARATOR] EXPECTED_SEQ_ITEM RECEIVED: -----------------------------------------------------------------------------------------------------------------------------------------
# 
#                      time: 345  HRESETn = 1, HSEL= 2, HWRITE = 1, HTRANS =  2, HSIZE = 0, HBURST = 0, HPROT = 0, HADDR = 8000000c, HWDATA = 38, HRDATA = 0, HRESP = 0, HREADY = 1, PREDICTOR_transaction_counter = 20, COMPARATOR_transaction_counter= 17
# OUTPUT_1_PHASE_SIGNALS: TIME:350 SENDING OUTPUTS
# CONTROL PHASE: TIME:350 ASSIGINING SIGNALS
# start of pre_body task
# start of pre_body task
# UVM_INFO components/driver.svh(64) @ 350: uvm_test_top.env_h.active_agent_h.driver_h [uvm_test_top.env_h.active_agent_h.driver_h] DRIVEN_ITEM:-----------------------------------------------------------------------------------------------------------------------------------------
# 
#                     time: 350 HRESETn = 1, HSEL= 2, HWRITE = 0, HTRANS =  2, HSIZE = 0, HBURST = 0, HPROT = 0, HADDR = 8000000a, HWDATA = 84, PREDICTOR_transaction_counter = 20, COMPARATOR_transaction_counter= 17
# UVM_INFO components/predictor.svh(349) @ 350: uvm_test_top.env_h.scoreboard_h.predictor_h [PREDICTOR] READ_SLAVE2:6b  a
# UVM_INFO components/predictor.svh(107) @ 350: uvm_test_top.env_h.scoreboard_h.predictor_h [PREDICTOR] EXPECTED_DATA: -----------------------------------------------------------------------------------------------------------------------------------------
# 
#                     time: 350 HRESETn = 1, HSEL= 2, HWRITE = 0, HTRANS =  2, HSIZE = 0, HBURST = 0, HPROT = 0, HADDR = 8000000a, HWDATA = 84, PREDICTOR_transaction_counter = 21, COMPARATOR_transaction_counter= 17
# my_predictor run phase
# OUTPUT_2_PHASE_SIGNALS: TIME:355 SENDING OUTPUTS
# UVM_INFO components/outputs_monitor.svh(75) @ 355: uvm_test_top.env_h.passive_agent_h.outputs_monitor_h [uvm_test_top.env_h.passive_agent_h.outputs_monitor_h] OUTPUTS SENT TO THE COMPARATOR
# UVM_INFO components/comparator.svh(82) @ 355: uvm_test_top.env_h.scoreboard_h.comparator_h [COMPARATOR] ACTUAL_SEQ_ITEM RECEIVED: -----------------------------------------------------------------------------------------------------------------------------------------
# 
#                     time: 355 HSEL: 0  HRDATA: 0  HRESP: 0   HREADY: 1, PREDICTOR_transaction_counter = 21, COMPARATOR_transaction_counter= 17
# UVM_INFO components/comparator.svh(87) @ 355: uvm_test_top.env_h.scoreboard_h.comparator_h [SCOREBOARD] PASS
# UVM_INFO components/comparator.svh(73) @ 355: uvm_test_top.env_h.scoreboard_h.comparator_h [COMPARATOR] RUN PHASE
# UVM_INFO components/comparator.svh(77) @ 355: uvm_test_top.env_h.scoreboard_h.comparator_h [COMPARATOR] EXPECTED_SEQ_ITEM RECEIVED: -----------------------------------------------------------------------------------------------------------------------------------------
# 
#                      time: 355  HRESETn = 1, HSEL= 0, HWRITE = 1, HTRANS =  2, HSIZE = 0, HBURST = 0, HPROT = 0, HADDR = 7, HWDATA = a1, HRDATA = 0, HRESP = 0, HREADY = 1, PREDICTOR_transaction_counter = 21, COMPARATOR_transaction_counter= 18
# OUTPUT_1_PHASE_SIGNALS: TIME:360 SENDING OUTPUTS
# CONTROL PHASE: TIME:360 ASSIGINING SIGNALS
# start of pre_body task
# start of pre_body task
# UVM_INFO components/driver.svh(64) @ 360: uvm_test_top.env_h.active_agent_h.driver_h [uvm_test_top.env_h.active_agent_h.driver_h] DRIVEN_ITEM:-----------------------------------------------------------------------------------------------------------------------------------------
# 
#                     time: 360 HRESETn = 1, HSEL= 0, HWRITE = 0, HTRANS =  2, HSIZE = 0, HBURST = 0, HPROT = 0, HADDR = e, HWDATA = 8a, PREDICTOR_transaction_counter = 21, COMPARATOR_transaction_counter= 18
# UVM_INFO components/predictor.svh(341) @ 360: uvm_test_top.env_h.scoreboard_h.predictor_h [PREDICTOR] READ_SLAVE0:x  e
# UVM_INFO components/predictor.svh(107) @ 360: uvm_test_top.env_h.scoreboard_h.predictor_h [PREDICTOR] EXPECTED_DATA: -----------------------------------------------------------------------------------------------------------------------------------------
# 
#                     time: 360 HRESETn = 1, HSEL= 0, HWRITE = 0, HTRANS =  2, HSIZE = 0, HBURST = 0, HPROT = 0, HADDR = e, HWDATA = 8a, PREDICTOR_transaction_counter = 22, COMPARATOR_transaction_counter= 18
# my_predictor run phase
# OUTPUT_2_PHASE_SIGNALS: TIME:365 SENDING OUTPUTS
# UVM_INFO components/outputs_monitor.svh(75) @ 365: uvm_test_top.env_h.passive_agent_h.outputs_monitor_h [uvm_test_top.env_h.passive_agent_h.outputs_monitor_h] OUTPUTS SENT TO THE COMPARATOR
# UVM_INFO components/comparator.svh(82) @ 365: uvm_test_top.env_h.scoreboard_h.comparator_h [COMPARATOR] ACTUAL_SEQ_ITEM RECEIVED: -----------------------------------------------------------------------------------------------------------------------------------------
# 
#                     time: 365 HSEL: 0  HRDATA: 0  HRESP: 0   HREADY: 1, PREDICTOR_transaction_counter = 22, COMPARATOR_transaction_counter= 18
# UVM_INFO components/comparator.svh(87) @ 365: uvm_test_top.env_h.scoreboard_h.comparator_h [SCOREBOARD] PASS
# UVM_INFO components/comparator.svh(73) @ 365: uvm_test_top.env_h.scoreboard_h.comparator_h [COMPARATOR] RUN PHASE
# UVM_INFO components/comparator.svh(77) @ 365: uvm_test_top.env_h.scoreboard_h.comparator_h [COMPARATOR] EXPECTED_SEQ_ITEM RECEIVED: -----------------------------------------------------------------------------------------------------------------------------------------
# 
#                      time: 365  HRESETn = 1, HSEL= 2, HWRITE = 0, HTRANS =  2, HSIZE = 0, HBURST = 0, HPROT = 0, HADDR = 80000005, HWDATA = fb, HRDATA = 57, HRESP = 0, HREADY = 1, PREDICTOR_transaction_counter = 22, COMPARATOR_transaction_counter= 19
# OUTPUT_1_PHASE_SIGNALS: TIME:370 SENDING OUTPUTS
# CONTROL PHASE: TIME:370 ASSIGINING SIGNALS
# start of pre_body task
# start of pre_body task
# UVM_INFO components/driver.svh(64) @ 370: uvm_test_top.env_h.active_agent_h.driver_h [uvm_test_top.env_h.active_agent_h.driver_h] DRIVEN_ITEM:-----------------------------------------------------------------------------------------------------------------------------------------
# 
#                     time: 370 HRESETn = 1, HSEL= 3, HWRITE = 0, HTRANS =  2, HSIZE = 0, HBURST = 0, HPROT = 0, HADDR = c000000a, HWDATA = 6a, PREDICTOR_transaction_counter = 22, COMPARATOR_transaction_counter= 19
# UVM_INFO components/predictor.svh(107) @ 370: uvm_test_top.env_h.scoreboard_h.predictor_h [PREDICTOR] EXPECTED_DATA: -----------------------------------------------------------------------------------------------------------------------------------------
# 
#                     time: 370 HRESETn = 1, HSEL= 3, HWRITE = 0, HTRANS =  2, HSIZE = 0, HBURST = 0, HPROT = 0, HADDR = c000000a, HWDATA = 6a, PREDICTOR_transaction_counter = 23, COMPARATOR_transaction_counter= 19
# my_predictor run phase
# OUTPUT_2_PHASE_SIGNALS: TIME:375 SENDING OUTPUTS
# UVM_INFO components/outputs_monitor.svh(75) @ 375: uvm_test_top.env_h.passive_agent_h.outputs_monitor_h [uvm_test_top.env_h.passive_agent_h.outputs_monitor_h] OUTPUTS SENT TO THE COMPARATOR
# UVM_INFO components/comparator.svh(82) @ 375: uvm_test_top.env_h.scoreboard_h.comparator_h [COMPARATOR] ACTUAL_SEQ_ITEM RECEIVED: -----------------------------------------------------------------------------------------------------------------------------------------
# 
#                     time: 375 HSEL: 0  HRDATA: 57  HRESP: 0   HREADY: 1, PREDICTOR_transaction_counter = 23, COMPARATOR_transaction_counter= 19
# UVM_INFO components/comparator.svh(87) @ 375: uvm_test_top.env_h.scoreboard_h.comparator_h [SCOREBOARD] PASS
# UVM_INFO components/comparator.svh(73) @ 375: uvm_test_top.env_h.scoreboard_h.comparator_h [COMPARATOR] RUN PHASE
# UVM_INFO components/comparator.svh(77) @ 375: uvm_test_top.env_h.scoreboard_h.comparator_h [COMPARATOR] EXPECTED_SEQ_ITEM RECEIVED: -----------------------------------------------------------------------------------------------------------------------------------------
# 
#                      time: 375  HRESETn = 1, HSEL= 2, HWRITE = 0, HTRANS =  2, HSIZE = 0, HBURST = 0, HPROT = 0, HADDR = 8000000a, HWDATA = 84, HRDATA = 6b, HRESP = 0, HREADY = 1, PREDICTOR_transaction_counter = 23, COMPARATOR_transaction_counter= 20
# OUTPUT_1_PHASE_SIGNALS: TIME:380 SENDING OUTPUTS
# CONTROL PHASE: TIME:380 ASSIGINING SIGNALS
# start of pre_body task
# start of pre_body task
# UVM_INFO components/driver.svh(64) @ 380: uvm_test_top.env_h.active_agent_h.driver_h [uvm_test_top.env_h.active_agent_h.driver_h] DRIVEN_ITEM:-----------------------------------------------------------------------------------------------------------------------------------------
# 
#                     time: 380 HRESETn = 1, HSEL= 0, HWRITE = 0, HTRANS =  2, HSIZE = 0, HBURST = 0, HPROT = 0, HADDR = f, HWDATA = 27, PREDICTOR_transaction_counter = 23, COMPARATOR_transaction_counter= 20
# UVM_INFO components/predictor.svh(341) @ 380: uvm_test_top.env_h.scoreboard_h.predictor_h [PREDICTOR] READ_SLAVE0:x  f
# UVM_INFO components/predictor.svh(107) @ 380: uvm_test_top.env_h.scoreboard_h.predictor_h [PREDICTOR] EXPECTED_DATA: -----------------------------------------------------------------------------------------------------------------------------------------
# 
#                     time: 380 HRESETn = 1, HSEL= 0, HWRITE = 0, HTRANS =  2, HSIZE = 0, HBURST = 0, HPROT = 0, HADDR = f, HWDATA = 27, PREDICTOR_transaction_counter = 24, COMPARATOR_transaction_counter= 20
# my_predictor run phase
# OUTPUT_2_PHASE_SIGNALS: TIME:385 SENDING OUTPUTS
# UVM_INFO components/outputs_monitor.svh(75) @ 385: uvm_test_top.env_h.passive_agent_h.outputs_monitor_h [uvm_test_top.env_h.passive_agent_h.outputs_monitor_h] OUTPUTS SENT TO THE COMPARATOR
# UVM_INFO components/comparator.svh(82) @ 385: uvm_test_top.env_h.scoreboard_h.comparator_h [COMPARATOR] ACTUAL_SEQ_ITEM RECEIVED: -----------------------------------------------------------------------------------------------------------------------------------------
# 
#                     time: 385 HSEL: 0  HRDATA: 6b  HRESP: 0   HREADY: 1, PREDICTOR_transaction_counter = 24, COMPARATOR_transaction_counter= 20
# UVM_INFO components/comparator.svh(87) @ 385: uvm_test_top.env_h.scoreboard_h.comparator_h [SCOREBOARD] PASS
# UVM_INFO components/comparator.svh(73) @ 385: uvm_test_top.env_h.scoreboard_h.comparator_h [COMPARATOR] RUN PHASE
# UVM_INFO components/comparator.svh(77) @ 385: uvm_test_top.env_h.scoreboard_h.comparator_h [COMPARATOR] EXPECTED_SEQ_ITEM RECEIVED: -----------------------------------------------------------------------------------------------------------------------------------------
# 
#                      time: 385  HRESETn = 1, HSEL= 0, HWRITE = 0, HTRANS =  2, HSIZE = 0, HBURST = 0, HPROT = 0, HADDR = e, HWDATA = 8a, HRDATA = 0xx, HRESP = 0, HREADY = 1, PREDICTOR_transaction_counter = 24, COMPARATOR_transaction_counter= 21
# OUTPUT_1_PHASE_SIGNALS: TIME:390 SENDING OUTPUTS
# CONTROL PHASE: TIME:390 ASSIGINING SIGNALS
# start of pre_body task
# start of pre_body task
# UVM_INFO components/driver.svh(64) @ 390: uvm_test_top.env_h.active_agent_h.driver_h [uvm_test_top.env_h.active_agent_h.driver_h] DRIVEN_ITEM:-----------------------------------------------------------------------------------------------------------------------------------------
# 
#                     time: 390 HRESETn = 1, HSEL= 0, HWRITE = 0, HTRANS =  2, HSIZE = 0, HBURST = 0, HPROT = 0, HADDR = 5, HWDATA = b, PREDICTOR_transaction_counter = 24, COMPARATOR_transaction_counter= 21
# UVM_INFO components/predictor.svh(341) @ 390: uvm_test_top.env_h.scoreboard_h.predictor_h [PREDICTOR] READ_SLAVE0:x  5
# UVM_INFO components/predictor.svh(107) @ 390: uvm_test_top.env_h.scoreboard_h.predictor_h [PREDICTOR] EXPECTED_DATA: -----------------------------------------------------------------------------------------------------------------------------------------
# 
#                     time: 390 HRESETn = 1, HSEL= 0, HWRITE = 0, HTRANS =  2, HSIZE = 0, HBURST = 0, HPROT = 0, HADDR = 5, HWDATA = b, PREDICTOR_transaction_counter = 25, COMPARATOR_transaction_counter= 21
# my_predictor run phase
# OUTPUT_2_PHASE_SIGNALS: TIME:395 SENDING OUTPUTS
# UVM_INFO components/outputs_monitor.svh(75) @ 395: uvm_test_top.env_h.passive_agent_h.outputs_monitor_h [uvm_test_top.env_h.passive_agent_h.outputs_monitor_h] OUTPUTS SENT TO THE COMPARATOR
# UVM_INFO components/comparator.svh(82) @ 395: uvm_test_top.env_h.scoreboard_h.comparator_h [COMPARATOR] ACTUAL_SEQ_ITEM RECEIVED: -----------------------------------------------------------------------------------------------------------------------------------------
# 
#                     time: 395 HSEL: 0  HRDATA: 0xx  HRESP: 0   HREADY: 1, PREDICTOR_transaction_counter = 25, COMPARATOR_transaction_counter= 21
# UVM_INFO components/comparator.svh(87) @ 395: uvm_test_top.env_h.scoreboard_h.comparator_h [SCOREBOARD] PASS
# UVM_INFO components/comparator.svh(73) @ 395: uvm_test_top.env_h.scoreboard_h.comparator_h [COMPARATOR] RUN PHASE
# UVM_INFO components/comparator.svh(77) @ 395: uvm_test_top.env_h.scoreboard_h.comparator_h [COMPARATOR] EXPECTED_SEQ_ITEM RECEIVED: -----------------------------------------------------------------------------------------------------------------------------------------
# 
#                      time: 395  HRESETn = 1, HSEL= 3, HWRITE = 0, HTRANS =  2, HSIZE = 0, HBURST = 0, HPROT = 0, HADDR = c000000a, HWDATA = 6a, HRDATA = 0, HRESP = 1, HREADY = 1, PREDICTOR_transaction_counter = 25, COMPARATOR_transaction_counter= 22
# OUTPUT_1_PHASE_SIGNALS: TIME:400 SENDING OUTPUTS
# CONTROL PHASE: TIME:400 ASSIGINING SIGNALS
# start of pre_body task
# start of pre_body task
# UVM_INFO components/driver.svh(64) @ 400: uvm_test_top.env_h.active_agent_h.driver_h [uvm_test_top.env_h.active_agent_h.driver_h] DRIVEN_ITEM:-----------------------------------------------------------------------------------------------------------------------------------------
# 
#                     time: 400 HRESETn = 1, HSEL= 3, HWRITE = 0, HTRANS =  2, HSIZE = 0, HBURST = 0, HPROT = 0, HADDR = c000000a, HWDATA = 66, PREDICTOR_transaction_counter = 25, COMPARATOR_transaction_counter= 22
# UVM_INFO components/predictor.svh(107) @ 400: uvm_test_top.env_h.scoreboard_h.predictor_h [PREDICTOR] EXPECTED_DATA: -----------------------------------------------------------------------------------------------------------------------------------------
# 
#                     time: 400 HRESETn = 1, HSEL= 3, HWRITE = 0, HTRANS =  2, HSIZE = 0, HBURST = 0, HPROT = 0, HADDR = c000000a, HWDATA = 66, PREDICTOR_transaction_counter = 26, COMPARATOR_transaction_counter= 22
# my_predictor run phase
# OUTPUT_2_PHASE_SIGNALS: TIME:405 SENDING OUTPUTS
# UVM_INFO components/outputs_monitor.svh(75) @ 405: uvm_test_top.env_h.passive_agent_h.outputs_monitor_h [uvm_test_top.env_h.passive_agent_h.outputs_monitor_h] OUTPUTS SENT TO THE COMPARATOR
# UVM_INFO components/comparator.svh(82) @ 405: uvm_test_top.env_h.scoreboard_h.comparator_h [COMPARATOR] ACTUAL_SEQ_ITEM RECEIVED: -----------------------------------------------------------------------------------------------------------------------------------------
# 
#                     time: 405 HSEL: 0  HRDATA: 0  HRESP: 1   HREADY: 1, PREDICTOR_transaction_counter = 26, COMPARATOR_transaction_counter= 22
# UVM_INFO components/comparator.svh(87) @ 405: uvm_test_top.env_h.scoreboard_h.comparator_h [SCOREBOARD] PASS
# UVM_INFO components/comparator.svh(73) @ 405: uvm_test_top.env_h.scoreboard_h.comparator_h [COMPARATOR] RUN PHASE
# UVM_INFO components/comparator.svh(77) @ 405: uvm_test_top.env_h.scoreboard_h.comparator_h [COMPARATOR] EXPECTED_SEQ_ITEM RECEIVED: -----------------------------------------------------------------------------------------------------------------------------------------
# 
#                      time: 405  HRESETn = 1, HSEL= 0, HWRITE = 0, HTRANS =  2, HSIZE = 0, HBURST = 0, HPROT = 0, HADDR = f, HWDATA = 27, HRDATA = 0xx, HRESP = 0, HREADY = 1, PREDICTOR_transaction_counter = 26, COMPARATOR_transaction_counter= 23
# OUTPUT_1_PHASE_SIGNALS: TIME:410 SENDING OUTPUTS
# CONTROL PHASE: TIME:410 ASSIGINING SIGNALS
# start of pre_body task
# start of pre_body task
# UVM_INFO components/driver.svh(64) @ 410: uvm_test_top.env_h.active_agent_h.driver_h [uvm_test_top.env_h.active_agent_h.driver_h] DRIVEN_ITEM:-----------------------------------------------------------------------------------------------------------------------------------------
# 
#                     time: 410 HRESETn = 1, HSEL= 0, HWRITE = 0, HTRANS =  2, HSIZE = 0, HBURST = 0, HPROT = 0, HADDR = 0, HWDATA = e7, PREDICTOR_transaction_counter = 26, COMPARATOR_transaction_counter= 23
# UVM_INFO components/predictor.svh(341) @ 410: uvm_test_top.env_h.scoreboard_h.predictor_h [PREDICTOR] READ_SLAVE0:x  0
# UVM_INFO components/predictor.svh(107) @ 410: uvm_test_top.env_h.scoreboard_h.predictor_h [PREDICTOR] EXPECTED_DATA: -----------------------------------------------------------------------------------------------------------------------------------------
# 
#                     time: 410 HRESETn = 1, HSEL= 0, HWRITE = 0, HTRANS =  2, HSIZE = 0, HBURST = 0, HPROT = 0, HADDR = 0, HWDATA = e7, PREDICTOR_transaction_counter = 27, COMPARATOR_transaction_counter= 23
# my_predictor run phase
# OUTPUT_2_PHASE_SIGNALS: TIME:415 SENDING OUTPUTS
# UVM_INFO components/outputs_monitor.svh(75) @ 415: uvm_test_top.env_h.passive_agent_h.outputs_monitor_h [uvm_test_top.env_h.passive_agent_h.outputs_monitor_h] OUTPUTS SENT TO THE COMPARATOR
# UVM_INFO components/comparator.svh(82) @ 415: uvm_test_top.env_h.scoreboard_h.comparator_h [COMPARATOR] ACTUAL_SEQ_ITEM RECEIVED: -----------------------------------------------------------------------------------------------------------------------------------------
# 
#                     time: 415 HSEL: 0  HRDATA: 0xx  HRESP: 0   HREADY: 1, PREDICTOR_transaction_counter = 27, COMPARATOR_transaction_counter= 23
# UVM_INFO components/comparator.svh(87) @ 415: uvm_test_top.env_h.scoreboard_h.comparator_h [SCOREBOARD] PASS
# UVM_INFO components/comparator.svh(73) @ 415: uvm_test_top.env_h.scoreboard_h.comparator_h [COMPARATOR] RUN PHASE
# UVM_INFO components/comparator.svh(77) @ 415: uvm_test_top.env_h.scoreboard_h.comparator_h [COMPARATOR] EXPECTED_SEQ_ITEM RECEIVED: -----------------------------------------------------------------------------------------------------------------------------------------
# 
#                      time: 415  HRESETn = 1, HSEL= 0, HWRITE = 0, HTRANS =  2, HSIZE = 0, HBURST = 0, HPROT = 0, HADDR = 5, HWDATA = b, HRDATA = 0xx, HRESP = 0, HREADY = 1, PREDICTOR_transaction_counter = 27, COMPARATOR_transaction_counter= 24
# OUTPUT_1_PHASE_SIGNALS: TIME:420 SENDING OUTPUTS
# CONTROL PHASE: TIME:420 ASSIGINING SIGNALS
# start of pre_body task
# start of pre_body task
# UVM_INFO components/driver.svh(64) @ 420: uvm_test_top.env_h.active_agent_h.driver_h [uvm_test_top.env_h.active_agent_h.driver_h] DRIVEN_ITEM:-----------------------------------------------------------------------------------------------------------------------------------------
# 
#                     time: 420 HRESETn = 1, HSEL= 0, HWRITE = 0, HTRANS =  2, HSIZE = 0, HBURST = 0, HPROT = 0, HADDR = 6, HWDATA = 93, PREDICTOR_transaction_counter = 27, COMPARATOR_transaction_counter= 24
# UVM_INFO components/predictor.svh(341) @ 420: uvm_test_top.env_h.scoreboard_h.predictor_h [PREDICTOR] READ_SLAVE0:x  6
# UVM_INFO components/predictor.svh(107) @ 420: uvm_test_top.env_h.scoreboard_h.predictor_h [PREDICTOR] EXPECTED_DATA: -----------------------------------------------------------------------------------------------------------------------------------------
# 
#                     time: 420 HRESETn = 1, HSEL= 0, HWRITE = 0, HTRANS =  2, HSIZE = 0, HBURST = 0, HPROT = 0, HADDR = 6, HWDATA = 93, PREDICTOR_transaction_counter = 28, COMPARATOR_transaction_counter= 24
# my_predictor run phase
# OUTPUT_2_PHASE_SIGNALS: TIME:425 SENDING OUTPUTS
# UVM_INFO components/outputs_monitor.svh(75) @ 425: uvm_test_top.env_h.passive_agent_h.outputs_monitor_h [uvm_test_top.env_h.passive_agent_h.outputs_monitor_h] OUTPUTS SENT TO THE COMPARATOR
# UVM_INFO components/comparator.svh(82) @ 425: uvm_test_top.env_h.scoreboard_h.comparator_h [COMPARATOR] ACTUAL_SEQ_ITEM RECEIVED: -----------------------------------------------------------------------------------------------------------------------------------------
# 
#                     time: 425 HSEL: 0  HRDATA: 0xx  HRESP: 0   HREADY: 1, PREDICTOR_transaction_counter = 28, COMPARATOR_transaction_counter= 24
# UVM_INFO components/comparator.svh(87) @ 425: uvm_test_top.env_h.scoreboard_h.comparator_h [SCOREBOARD] PASS
# UVM_INFO components/comparator.svh(73) @ 425: uvm_test_top.env_h.scoreboard_h.comparator_h [COMPARATOR] RUN PHASE
# UVM_INFO components/comparator.svh(77) @ 425: uvm_test_top.env_h.scoreboard_h.comparator_h [COMPARATOR] EXPECTED_SEQ_ITEM RECEIVED: -----------------------------------------------------------------------------------------------------------------------------------------
# 
#                      time: 425  HRESETn = 1, HSEL= 3, HWRITE = 0, HTRANS =  2, HSIZE = 0, HBURST = 0, HPROT = 0, HADDR = c000000a, HWDATA = 66, HRDATA = 0, HRESP = 1, HREADY = 1, PREDICTOR_transaction_counter = 28, COMPARATOR_transaction_counter= 25
# OUTPUT_1_PHASE_SIGNALS: TIME:430 SENDING OUTPUTS
# CONTROL PHASE: TIME:430 ASSIGINING SIGNALS
# start of pre_body task
# start of pre_body task
# UVM_INFO components/driver.svh(64) @ 430: uvm_test_top.env_h.active_agent_h.driver_h [uvm_test_top.env_h.active_agent_h.driver_h] DRIVEN_ITEM:-----------------------------------------------------------------------------------------------------------------------------------------
# 
#                     time: 430 HRESETn = 1, HSEL= 2, HWRITE = 0, HTRANS =  2, HSIZE = 0, HBURST = 0, HPROT = 0, HADDR = 8000000c, HWDATA = 2c, PREDICTOR_transaction_counter = 28, COMPARATOR_transaction_counter= 25
# UVM_INFO components/predictor.svh(349) @ 430: uvm_test_top.env_h.scoreboard_h.predictor_h [PREDICTOR] READ_SLAVE2:38  c
# UVM_INFO components/predictor.svh(107) @ 430: uvm_test_top.env_h.scoreboard_h.predictor_h [PREDICTOR] EXPECTED_DATA: -----------------------------------------------------------------------------------------------------------------------------------------
# 
#                     time: 430 HRESETn = 1, HSEL= 2, HWRITE = 0, HTRANS =  2, HSIZE = 0, HBURST = 0, HPROT = 0, HADDR = 8000000c, HWDATA = 2c, PREDICTOR_transaction_counter = 29, COMPARATOR_transaction_counter= 25
# my_predictor run phase
# OUTPUT_2_PHASE_SIGNALS: TIME:435 SENDING OUTPUTS
# UVM_INFO components/outputs_monitor.svh(75) @ 435: uvm_test_top.env_h.passive_agent_h.outputs_monitor_h [uvm_test_top.env_h.passive_agent_h.outputs_monitor_h] OUTPUTS SENT TO THE COMPARATOR
# UVM_INFO components/comparator.svh(82) @ 435: uvm_test_top.env_h.scoreboard_h.comparator_h [COMPARATOR] ACTUAL_SEQ_ITEM RECEIVED: -----------------------------------------------------------------------------------------------------------------------------------------
# 
#                     time: 435 HSEL: 0  HRDATA: 0  HRESP: 1   HREADY: 1, PREDICTOR_transaction_counter = 29, COMPARATOR_transaction_counter= 25
# UVM_INFO components/comparator.svh(87) @ 435: uvm_test_top.env_h.scoreboard_h.comparator_h [SCOREBOARD] PASS
# UVM_INFO components/comparator.svh(73) @ 435: uvm_test_top.env_h.scoreboard_h.comparator_h [COMPARATOR] RUN PHASE
# UVM_INFO components/comparator.svh(77) @ 435: uvm_test_top.env_h.scoreboard_h.comparator_h [COMPARATOR] EXPECTED_SEQ_ITEM RECEIVED: -----------------------------------------------------------------------------------------------------------------------------------------
# 
#                      time: 435  HRESETn = 1, HSEL= 0, HWRITE = 0, HTRANS =  2, HSIZE = 0, HBURST = 0, HPROT = 0, HADDR = 0, HWDATA = e7, HRDATA = 0xx, HRESP = 0, HREADY = 1, PREDICTOR_transaction_counter = 29, COMPARATOR_transaction_counter= 26
# OUTPUT_1_PHASE_SIGNALS: TIME:440 SENDING OUTPUTS
# CONTROL PHASE: TIME:440 ASSIGINING SIGNALS
# UVM_INFO components/driver.svh(64) @ 440: uvm_test_top.env_h.active_agent_h.driver_h [uvm_test_top.env_h.active_agent_h.driver_h] DRIVEN_ITEM:-----------------------------------------------------------------------------------------------------------------------------------------
# 
#                     time: 440 HRESETn = 1, HSEL= 1, HWRITE = 0, HTRANS =  2, HSIZE = 0, HBURST = 3, HPROT = 0, HADDR = 4000000f, HWDATA = ab, PREDICTOR_transaction_counter = 29, COMPARATOR_transaction_counter= 26
# UVM_INFO components/predictor.svh(345) @ 440: uvm_test_top.env_h.scoreboard_h.predictor_h [PREDICTOR] READ_SLAVE1:ac  f
# UVM_INFO components/predictor.svh(107) @ 440: uvm_test_top.env_h.scoreboard_h.predictor_h [PREDICTOR] EXPECTED_DATA: -----------------------------------------------------------------------------------------------------------------------------------------
# 
#                     time: 440 HRESETn = 1, HSEL= 1, HWRITE = 0, HTRANS =  2, HSIZE = 0, HBURST = 3, HPROT = 0, HADDR = 4000000f, HWDATA = ab, PREDICTOR_transaction_counter = 30, COMPARATOR_transaction_counter= 26
# my_predictor run phase
# OUTPUT_2_PHASE_SIGNALS: TIME:445 SENDING OUTPUTS
# UVM_INFO components/outputs_monitor.svh(75) @ 445: uvm_test_top.env_h.passive_agent_h.outputs_monitor_h [uvm_test_top.env_h.passive_agent_h.outputs_monitor_h] OUTPUTS SENT TO THE COMPARATOR
# UVM_INFO components/comparator.svh(82) @ 445: uvm_test_top.env_h.scoreboard_h.comparator_h [COMPARATOR] ACTUAL_SEQ_ITEM RECEIVED: -----------------------------------------------------------------------------------------------------------------------------------------
# 
#                     time: 445 HSEL: 0  HRDATA: 0xx  HRESP: 0   HREADY: 1, PREDICTOR_transaction_counter = 30, COMPARATOR_transaction_counter= 26
# UVM_INFO components/comparator.svh(87) @ 445: uvm_test_top.env_h.scoreboard_h.comparator_h [SCOREBOARD] PASS
# UVM_INFO components/comparator.svh(73) @ 445: uvm_test_top.env_h.scoreboard_h.comparator_h [COMPARATOR] RUN PHASE
# UVM_INFO components/comparator.svh(77) @ 445: uvm_test_top.env_h.scoreboard_h.comparator_h [COMPARATOR] EXPECTED_SEQ_ITEM RECEIVED: -----------------------------------------------------------------------------------------------------------------------------------------
# 
#                      time: 445  HRESETn = 1, HSEL= 0, HWRITE = 0, HTRANS =  2, HSIZE = 0, HBURST = 0, HPROT = 0, HADDR = 6, HWDATA = 93, HRDATA = 0xx, HRESP = 0, HREADY = 1, PREDICTOR_transaction_counter = 30, COMPARATOR_transaction_counter= 27
# OUTPUT_1_PHASE_SIGNALS: TIME:450 SENDING OUTPUTS
# CONTROL PHASE: TIME:450 ASSIGINING SIGNALS
# UVM_INFO components/driver.svh(64) @ 450: uvm_test_top.env_h.active_agent_h.driver_h [uvm_test_top.env_h.active_agent_h.driver_h] DRIVEN_ITEM:-----------------------------------------------------------------------------------------------------------------------------------------
# 
#                     time: 450 HRESETn = 1, HSEL= 1, HWRITE = 0, HTRANS =  3, HSIZE = 0, HBURST = 3, HPROT = 0, HADDR = 4000000f, HWDATA = b7, PREDICTOR_transaction_counter = 30, COMPARATOR_transaction_counter= 27
# UVM_INFO components/predictor.svh(107) @ 450: uvm_test_top.env_h.scoreboard_h.predictor_h [PREDICTOR] EXPECTED_DATA: -----------------------------------------------------------------------------------------------------------------------------------------
# 
#                     time: 450 HRESETn = 1, HSEL= 1, HWRITE = 0, HTRANS =  3, HSIZE = 0, HBURST = 3, HPROT = 0, HADDR = 4000000f, HWDATA = b7, PREDICTOR_transaction_counter = 31, COMPARATOR_transaction_counter= 27
# my_predictor run phase
# OUTPUT_2_PHASE_SIGNALS: TIME:455 SENDING OUTPUTS
# UVM_INFO components/outputs_monitor.svh(75) @ 455: uvm_test_top.env_h.passive_agent_h.outputs_monitor_h [uvm_test_top.env_h.passive_agent_h.outputs_monitor_h] OUTPUTS SENT TO THE COMPARATOR
# UVM_INFO components/comparator.svh(82) @ 455: uvm_test_top.env_h.scoreboard_h.comparator_h [COMPARATOR] ACTUAL_SEQ_ITEM RECEIVED: -----------------------------------------------------------------------------------------------------------------------------------------
# 
#                     time: 455 HSEL: 0  HRDATA: 0xx  HRESP: 0   HREADY: 1, PREDICTOR_transaction_counter = 31, COMPARATOR_transaction_counter= 27
# UVM_INFO components/comparator.svh(87) @ 455: uvm_test_top.env_h.scoreboard_h.comparator_h [SCOREBOARD] PASS
# UVM_INFO components/comparator.svh(73) @ 455: uvm_test_top.env_h.scoreboard_h.comparator_h [COMPARATOR] RUN PHASE
# UVM_INFO components/comparator.svh(77) @ 455: uvm_test_top.env_h.scoreboard_h.comparator_h [COMPARATOR] EXPECTED_SEQ_ITEM RECEIVED: -----------------------------------------------------------------------------------------------------------------------------------------
# 
#                      time: 455  HRESETn = 1, HSEL= 2, HWRITE = 0, HTRANS =  2, HSIZE = 0, HBURST = 0, HPROT = 0, HADDR = 8000000c, HWDATA = 2c, HRDATA = 38, HRESP = 0, HREADY = 1, PREDICTOR_transaction_counter = 31, COMPARATOR_transaction_counter= 28
# OUTPUT_1_PHASE_SIGNALS: TIME:460 SENDING OUTPUTS
# CONTROL PHASE: TIME:460 ASSIGINING SIGNALS
# UVM_INFO components/driver.svh(64) @ 460: uvm_test_top.env_h.active_agent_h.driver_h [uvm_test_top.env_h.active_agent_h.driver_h] DRIVEN_ITEM:-----------------------------------------------------------------------------------------------------------------------------------------
# 
#                     time: 460 HRESETn = 1, HSEL= 1, HWRITE = 0, HTRANS =  3, HSIZE = 0, HBURST = 3, HPROT = 0, HADDR = 4000000f, HWDATA = e5, PREDICTOR_transaction_counter = 31, COMPARATOR_transaction_counter= 28
# UVM_INFO components/predictor.svh(107) @ 460: uvm_test_top.env_h.scoreboard_h.predictor_h [PREDICTOR] EXPECTED_DATA: -----------------------------------------------------------------------------------------------------------------------------------------
# 
#                     time: 460 HRESETn = 1, HSEL= 1, HWRITE = 0, HTRANS =  3, HSIZE = 0, HBURST = 3, HPROT = 0, HADDR = 4000000f, HWDATA = e5, PREDICTOR_transaction_counter = 32, COMPARATOR_transaction_counter= 28
# my_predictor run phase
# OUTPUT_2_PHASE_SIGNALS: TIME:465 SENDING OUTPUTS
# UVM_INFO components/outputs_monitor.svh(75) @ 465: uvm_test_top.env_h.passive_agent_h.outputs_monitor_h [uvm_test_top.env_h.passive_agent_h.outputs_monitor_h] OUTPUTS SENT TO THE COMPARATOR
# UVM_INFO components/comparator.svh(82) @ 465: uvm_test_top.env_h.scoreboard_h.comparator_h [COMPARATOR] ACTUAL_SEQ_ITEM RECEIVED: -----------------------------------------------------------------------------------------------------------------------------------------
# 
#                     time: 465 HSEL: 0  HRDATA: 38  HRESP: 0   HREADY: 1, PREDICTOR_transaction_counter = 32, COMPARATOR_transaction_counter= 28
# UVM_INFO components/comparator.svh(87) @ 465: uvm_test_top.env_h.scoreboard_h.comparator_h [SCOREBOARD] PASS
# UVM_INFO components/comparator.svh(73) @ 465: uvm_test_top.env_h.scoreboard_h.comparator_h [COMPARATOR] RUN PHASE
# UVM_INFO components/comparator.svh(77) @ 465: uvm_test_top.env_h.scoreboard_h.comparator_h [COMPARATOR] EXPECTED_SEQ_ITEM RECEIVED: -----------------------------------------------------------------------------------------------------------------------------------------
# 
#                      time: 465  HRESETn = 1, HSEL= 1, HWRITE = 0, HTRANS =  2, HSIZE = 0, HBURST = 3, HPROT = 0, HADDR = 4000000f, HWDATA = ab, HRDATA = ac, HRESP = 0, HREADY = 1, PREDICTOR_transaction_counter = 32, COMPARATOR_transaction_counter= 29
# OUTPUT_1_PHASE_SIGNALS: TIME:470 SENDING OUTPUTS
# CONTROL PHASE: TIME:470 ASSIGINING SIGNALS
# UVM_INFO components/driver.svh(64) @ 470: uvm_test_top.env_h.active_agent_h.driver_h [uvm_test_top.env_h.active_agent_h.driver_h] DRIVEN_ITEM:-----------------------------------------------------------------------------------------------------------------------------------------
# 
#                     time: 470 HRESETn = 1, HSEL= 1, HWRITE = 0, HTRANS =  3, HSIZE = 0, HBURST = 3, HPROT = 0, HADDR = 4000000f, HWDATA = 24, PREDICTOR_transaction_counter = 32, COMPARATOR_transaction_counter= 29
# UVM_INFO components/predictor.svh(107) @ 470: uvm_test_top.env_h.scoreboard_h.predictor_h [PREDICTOR] EXPECTED_DATA: -----------------------------------------------------------------------------------------------------------------------------------------
# 
#                     time: 470 HRESETn = 1, HSEL= 1, HWRITE = 0, HTRANS =  3, HSIZE = 0, HBURST = 3, HPROT = 0, HADDR = 4000000f, HWDATA = 24, PREDICTOR_transaction_counter = 33, COMPARATOR_transaction_counter= 29
# my_predictor run phase
# OUTPUT_2_PHASE_SIGNALS: TIME:475 SENDING OUTPUTS
# UVM_INFO components/outputs_monitor.svh(75) @ 475: uvm_test_top.env_h.passive_agent_h.outputs_monitor_h [uvm_test_top.env_h.passive_agent_h.outputs_monitor_h] OUTPUTS SENT TO THE COMPARATOR
# UVM_INFO components/comparator.svh(82) @ 475: uvm_test_top.env_h.scoreboard_h.comparator_h [COMPARATOR] ACTUAL_SEQ_ITEM RECEIVED: -----------------------------------------------------------------------------------------------------------------------------------------
# 
#                     time: 475 HSEL: 0  HRDATA: ac  HRESP: 0   HREADY: 1, PREDICTOR_transaction_counter = 33, COMPARATOR_transaction_counter= 29
# UVM_INFO components/comparator.svh(87) @ 475: uvm_test_top.env_h.scoreboard_h.comparator_h [SCOREBOARD] PASS
# UVM_INFO components/comparator.svh(73) @ 475: uvm_test_top.env_h.scoreboard_h.comparator_h [COMPARATOR] RUN PHASE
# UVM_INFO components/comparator.svh(77) @ 475: uvm_test_top.env_h.scoreboard_h.comparator_h [COMPARATOR] EXPECTED_SEQ_ITEM RECEIVED: -----------------------------------------------------------------------------------------------------------------------------------------
# 
#                      time: 475  HRESETn = 1, HSEL= 1, HWRITE = 0, HTRANS =  3, HSIZE = 0, HBURST = 3, HPROT = 0, HADDR = 4000000f, HWDATA = b7, HRDATA = ac, HRESP = 1, HREADY = 1, PREDICTOR_transaction_counter = 33, COMPARATOR_transaction_counter= 30
# OUTPUT_1_PHASE_SIGNALS: TIME:480 SENDING OUTPUTS
# CONTROL PHASE: TIME:480 ASSIGINING SIGNALS
# UVM_INFO components/driver.svh(64) @ 480: uvm_test_top.env_h.active_agent_h.driver_h [uvm_test_top.env_h.active_agent_h.driver_h] DRIVEN_ITEM:-----------------------------------------------------------------------------------------------------------------------------------------
# 
#                     time: 480 HRESETn = 1, HSEL= 1, HWRITE = 0, HTRANS =  0, HSIZE = 0, HBURST = 0, HPROT = 0, HADDR = 4000000f, HWDATA = b0, PREDICTOR_transaction_counter = 33, COMPARATOR_transaction_counter= 30
# UVM_INFO components/predictor.svh(107) @ 480: uvm_test_top.env_h.scoreboard_h.predictor_h [PREDICTOR] EXPECTED_DATA: -----------------------------------------------------------------------------------------------------------------------------------------
# 
#                     time: 480 HRESETn = 1, HSEL= 1, HWRITE = 0, HTRANS =  0, HSIZE = 0, HBURST = 0, HPROT = 0, HADDR = 4000000f, HWDATA = b0, PREDICTOR_transaction_counter = 34, COMPARATOR_transaction_counter= 30
# my_predictor run phase
# OUTPUT_2_PHASE_SIGNALS: TIME:485 SENDING OUTPUTS
# UVM_INFO components/outputs_monitor.svh(75) @ 485: uvm_test_top.env_h.passive_agent_h.outputs_monitor_h [uvm_test_top.env_h.passive_agent_h.outputs_monitor_h] OUTPUTS SENT TO THE COMPARATOR
# UVM_INFO components/comparator.svh(82) @ 485: uvm_test_top.env_h.scoreboard_h.comparator_h [COMPARATOR] ACTUAL_SEQ_ITEM RECEIVED: -----------------------------------------------------------------------------------------------------------------------------------------
# 
#                     time: 485 HSEL: 0  HRDATA: ac  HRESP: 1   HREADY: 1, PREDICTOR_transaction_counter = 34, COMPARATOR_transaction_counter= 30
# UVM_INFO components/comparator.svh(87) @ 485: uvm_test_top.env_h.scoreboard_h.comparator_h [SCOREBOARD] PASS
# UVM_INFO components/comparator.svh(73) @ 485: uvm_test_top.env_h.scoreboard_h.comparator_h [COMPARATOR] RUN PHASE
# UVM_INFO components/comparator.svh(77) @ 485: uvm_test_top.env_h.scoreboard_h.comparator_h [COMPARATOR] EXPECTED_SEQ_ITEM RECEIVED: -----------------------------------------------------------------------------------------------------------------------------------------
# 
#                      time: 485  HRESETn = 1, HSEL= 1, HWRITE = 0, HTRANS =  3, HSIZE = 0, HBURST = 3, HPROT = 0, HADDR = 4000000f, HWDATA = e5, HRDATA = ac, HRESP = 1, HREADY = 1, PREDICTOR_transaction_counter = 34, COMPARATOR_transaction_counter= 31
# OUTPUT_1_PHASE_SIGNALS: TIME:490 SENDING OUTPUTS
# CONTROL PHASE: TIME:490 ASSIGINING SIGNALS
# UVM_INFO components/driver.svh(64) @ 490: uvm_test_top.env_h.active_agent_h.driver_h [uvm_test_top.env_h.active_agent_h.driver_h] DRIVEN_ITEM:-----------------------------------------------------------------------------------------------------------------------------------------
# 
#                     time: 490 HRESETn = 1, HSEL= 1, HWRITE = 0, HTRANS =  2, HSIZE = 0, HBURST = 2, HPROT = 0, HADDR = 4000000f, HWDATA = ff, PREDICTOR_transaction_counter = 34, COMPARATOR_transaction_counter= 31
# UVM_INFO components/predictor.svh(107) @ 490: uvm_test_top.env_h.scoreboard_h.predictor_h [PREDICTOR] EXPECTED_DATA: -----------------------------------------------------------------------------------------------------------------------------------------
# 
#                     time: 490 HRESETn = 1, HSEL= 1, HWRITE = 0, HTRANS =  2, HSIZE = 0, HBURST = 2, HPROT = 0, HADDR = 4000000f, HWDATA = ff, PREDICTOR_transaction_counter = 35, COMPARATOR_transaction_counter= 31
# my_predictor run phase
# OUTPUT_2_PHASE_SIGNALS: TIME:495 SENDING OUTPUTS
# UVM_INFO components/outputs_monitor.svh(75) @ 495: uvm_test_top.env_h.passive_agent_h.outputs_monitor_h [uvm_test_top.env_h.passive_agent_h.outputs_monitor_h] OUTPUTS SENT TO THE COMPARATOR
# UVM_INFO components/comparator.svh(82) @ 495: uvm_test_top.env_h.scoreboard_h.comparator_h [COMPARATOR] ACTUAL_SEQ_ITEM RECEIVED: -----------------------------------------------------------------------------------------------------------------------------------------
# 
#                     time: 495 HSEL: 0  HRDATA: ac  HRESP: 1   HREADY: 1, PREDICTOR_transaction_counter = 35, COMPARATOR_transaction_counter= 31
# UVM_INFO components/comparator.svh(87) @ 495: uvm_test_top.env_h.scoreboard_h.comparator_h [SCOREBOARD] PASS
# UVM_INFO components/comparator.svh(73) @ 495: uvm_test_top.env_h.scoreboard_h.comparator_h [COMPARATOR] RUN PHASE
# UVM_INFO components/comparator.svh(77) @ 495: uvm_test_top.env_h.scoreboard_h.comparator_h [COMPARATOR] EXPECTED_SEQ_ITEM RECEIVED: -----------------------------------------------------------------------------------------------------------------------------------------
# 
#                      time: 495  HRESETn = 1, HSEL= 1, HWRITE = 0, HTRANS =  3, HSIZE = 0, HBURST = 3, HPROT = 0, HADDR = 4000000f, HWDATA = 24, HRDATA = ac, HRESP = 1, HREADY = 1, PREDICTOR_transaction_counter = 35, COMPARATOR_transaction_counter= 32
# OUTPUT_1_PHASE_SIGNALS: TIME:500 SENDING OUTPUTS
# CONTROL PHASE: TIME:500 ASSIGINING SIGNALS
# UVM_INFO components/driver.svh(64) @ 500: uvm_test_top.env_h.active_agent_h.driver_h [uvm_test_top.env_h.active_agent_h.driver_h] DRIVEN_ITEM:-----------------------------------------------------------------------------------------------------------------------------------------
# 
#                     time: 500 HRESETn = 1, HSEL= 1, HWRITE = 0, HTRANS =  3, HSIZE = 0, HBURST = 2, HPROT = 0, HADDR = 4000000f, HWDATA = 3d, PREDICTOR_transaction_counter = 35, COMPARATOR_transaction_counter= 32
# UVM_INFO components/predictor.svh(345) @ 500: uvm_test_top.env_h.scoreboard_h.predictor_h [PREDICTOR] READ_SLAVE1:ac  f
# UVM_INFO components/predictor.svh(107) @ 500: uvm_test_top.env_h.scoreboard_h.predictor_h [PREDICTOR] EXPECTED_DATA: -----------------------------------------------------------------------------------------------------------------------------------------
# 
#                     time: 500 HRESETn = 1, HSEL= 1, HWRITE = 0, HTRANS =  3, HSIZE = 0, HBURST = 2, HPROT = 0, HADDR = 4000000f, HWDATA = 3d, PREDICTOR_transaction_counter = 36, COMPARATOR_transaction_counter= 32
# my_predictor run phase
# OUTPUT_2_PHASE_SIGNALS: TIME:505 SENDING OUTPUTS
# UVM_INFO components/outputs_monitor.svh(75) @ 505: uvm_test_top.env_h.passive_agent_h.outputs_monitor_h [uvm_test_top.env_h.passive_agent_h.outputs_monitor_h] OUTPUTS SENT TO THE COMPARATOR
# UVM_INFO components/comparator.svh(82) @ 505: uvm_test_top.env_h.scoreboard_h.comparator_h [COMPARATOR] ACTUAL_SEQ_ITEM RECEIVED: -----------------------------------------------------------------------------------------------------------------------------------------
# 
#                     time: 505 HSEL: 0  HRDATA: ac  HRESP: 1   HREADY: 1, PREDICTOR_transaction_counter = 36, COMPARATOR_transaction_counter= 32
# UVM_INFO components/comparator.svh(87) @ 505: uvm_test_top.env_h.scoreboard_h.comparator_h [SCOREBOARD] PASS
# UVM_INFO components/comparator.svh(73) @ 505: uvm_test_top.env_h.scoreboard_h.comparator_h [COMPARATOR] RUN PHASE
# UVM_INFO components/comparator.svh(77) @ 505: uvm_test_top.env_h.scoreboard_h.comparator_h [COMPARATOR] EXPECTED_SEQ_ITEM RECEIVED: -----------------------------------------------------------------------------------------------------------------------------------------
# 
#                      time: 505  HRESETn = 1, HSEL= 1, HWRITE = 0, HTRANS =  0, HSIZE = 0, HBURST = 0, HPROT = 0, HADDR = 4000000f, HWDATA = b0, HRDATA = ac, HRESP = 0, HREADY = 1, PREDICTOR_transaction_counter = 36, COMPARATOR_transaction_counter= 33
# OUTPUT_1_PHASE_SIGNALS: TIME:510 SENDING OUTPUTS
# CONTROL PHASE: TIME:510 ASSIGINING SIGNALS
# UVM_INFO components/driver.svh(64) @ 510: uvm_test_top.env_h.active_agent_h.driver_h [uvm_test_top.env_h.active_agent_h.driver_h] DRIVEN_ITEM:-----------------------------------------------------------------------------------------------------------------------------------------
# 
#                     time: 510 HRESETn = 1, HSEL= 1, HWRITE = 0, HTRANS =  3, HSIZE = 0, HBURST = 2, HPROT = 0, HADDR = 4000000f, HWDATA = c6, PREDICTOR_transaction_counter = 36, COMPARATOR_transaction_counter= 33
# UVM_INFO components/predictor.svh(345) @ 510: uvm_test_top.env_h.scoreboard_h.predictor_h [PREDICTOR] READ_SLAVE1:x  e
# UVM_INFO components/predictor.svh(107) @ 510: uvm_test_top.env_h.scoreboard_h.predictor_h [PREDICTOR] EXPECTED_DATA: -----------------------------------------------------------------------------------------------------------------------------------------
# 
#                     time: 510 HRESETn = 1, HSEL= 1, HWRITE = 0, HTRANS =  3, HSIZE = 0, HBURST = 2, HPROT = 0, HADDR = 4000000f, HWDATA = c6, PREDICTOR_transaction_counter = 37, COMPARATOR_transaction_counter= 33
# my_predictor run phase
# OUTPUT_2_PHASE_SIGNALS: TIME:515 SENDING OUTPUTS
# UVM_INFO components/outputs_monitor.svh(75) @ 515: uvm_test_top.env_h.passive_agent_h.outputs_monitor_h [uvm_test_top.env_h.passive_agent_h.outputs_monitor_h] OUTPUTS SENT TO THE COMPARATOR
# UVM_INFO components/comparator.svh(82) @ 515: uvm_test_top.env_h.scoreboard_h.comparator_h [COMPARATOR] ACTUAL_SEQ_ITEM RECEIVED: -----------------------------------------------------------------------------------------------------------------------------------------
# 
#                     time: 515 HSEL: 0  HRDATA: ac  HRESP: 0   HREADY: 1, PREDICTOR_transaction_counter = 37, COMPARATOR_transaction_counter= 33
# UVM_INFO components/comparator.svh(87) @ 515: uvm_test_top.env_h.scoreboard_h.comparator_h [SCOREBOARD] PASS
# UVM_INFO components/comparator.svh(73) @ 515: uvm_test_top.env_h.scoreboard_h.comparator_h [COMPARATOR] RUN PHASE
