# //  Questa Sim-64
# //  Version 2021.1 win64 Jan 19 2021
# //
# //  Copyright 1991-2021 Mentor Graphics Corporation
# //  All Rights Reserved.
# //
# //  QuestaSim and its associated documentation contain trade
# //  secrets and commercial or financial information that are the property of
# //  Mentor Graphics Corporation and are privileged, confidential,
# //  and exempt from disclosure under the Freedom of Information Act,
# //  5 U.S.C. Section 552. Furthermore, this information
# //  is prohibited from disclosure under the Trade Secrets Act,
# //  18 U.S.C. Section 1905.
# //
# do run.do
# QuestaSim-64 vlog 2021.1 Compiler 2021.01 Jan 19 2021
# Start time: 02:49:57 on Oct 13,2024
# vlog -reportprogress 300 -f dut.f "+cover" -covercells 
# -- Compiling module ahb_default_slave
# -- Compiling module ahb_slave
# -- Compiling module ahb_mux
# -- Compiling module ahb_decoder
# -- Compiling module ahb_lite
# 
# Top level modules:
# 	ahb_lite
# End time: 02:49:57 on Oct 13,2024, Elapsed time: 0:00:00
# Errors: 0, Warnings: 0
# QuestaSim-64 vlog 2021.1 Compiler 2021.01 Jan 19 2021
# Start time: 02:49:58 on Oct 13,2024
# vlog -reportprogress 300 -f tb.f "+cover" -covercells 
# -- Compiling package AHB_pkg
# -- Importing package mtiUvm.uvm_pkg (uvm-1.1d Built-in)
# ** Note: (vlog-2286) AHB_lite_uvm_pkg.sv(4): Using implicit +incdir+F:/questasim/questasim64_2021.1/uvm-1.1d/../verilog_src/uvm-1.1d/src from import uvm_pkg
# -- Compiling interface inf
# -- Importing package AHB_pkg
# -- Compiling module top_test_uvm
# 
# Top level modules:
# 	top_test_uvm
# End time: 02:49:58 on Oct 13,2024, Elapsed time: 0:00:00
# Errors: 0, Warnings: 0
# QuestaSim-64 vopt 2021.1 Compiler 2021.01 Jan 19 2021
# Start time: 02:49:59 on Oct 13,2024
# vopt -reportprogress 300 top_test_uvm -o top_optimized "+acc" "+cover=bcefsx+ahb_lite(rtl)" 
# 
# Top level modules:
# 	top_test_uvm
# 
# Analyzing design...
# -- Loading module top_test_uvm
# -- Importing package mtiUvm.uvm_pkg (uvm-1.1d Built-in)
# -- Importing package AHB_pkg
# -- Loading package mtiUvm.questa_uvm_pkg
# -- Loading interface inf
# -- Loading module ahb_lite
# -- Loading module ahb_decoder
# -- Loading module ahb_mux
# -- Loading module ahb_default_slave
# -- Loading module ahb_slave
# Optimizing 11 design-units (inlining 0/9 module instances):
# -- Optimizing package mtiUvm.uvm_pkg (uvm-1.1d Built-in)(fast)
# -- Optimizing package mtiUvm.questa_uvm_pkg(fast)
# -- Optimizing package AHB_pkg(fast)
# -- Optimizing interface inf(fast__2)
# -- Optimizing module ahb_slave(fast)
# -- Optimizing module ahb_mux(fast)
# -- Optimizing module ahb_lite(fast)
# -- Optimizing module ahb_decoder(fast)
# -- Optimizing module ahb_default_slave(fast)
# -- Optimizing module top_test_uvm(fast)
# -- Optimizing interface inf(fast)
# Optimized design name is top_optimized
# End time: 02:50:02 on Oct 13,2024, Elapsed time: 0:00:03
# Errors: 0, Warnings: 0
# vsim top_optimized -coverage -solvefaildebug=2 "+UVM_TESTNAME=write_twice_test" 
# Start time: 02:50:03 on Oct 13,2024
# Loading sv_std.std
# Loading work.inf(fast)
# Loading mtiUvm.uvm_pkg(fast)
# Loading work.AHB_pkg(fast)
# Loading mtiUvm.questa_uvm_pkg(fast)
# Loading work.top_test_uvm(fast)
# Loading work.inf(fast__2)
# Loading work.ahb_lite(fast)
# Loading work.ahb_decoder(fast)
# Loading work.ahb_mux(fast)
# Loading work.ahb_default_slave(fast)
# Loading work.ahb_slave(fast)
# Loading F:/questasim/questasim64_2021.1/uvm-1.1d\win64\uvm_dpi.dll
# ----------------------------------------------------------------
# UVM-1.1d
# (C) 2007-2013 Mentor Graphics Corporation
# (C) 2007-2013 Cadence Design Systems, Inc.
# (C) 2006-2013 Synopsys, Inc.
# (C) 2011-2013 Cypress Semiconductor Corp.
# ----------------------------------------------------------------
# 
#   ***********       IMPORTANT RELEASE NOTES         ************
# 
#   You are using a version of the UVM library that has been compiled
#   with `UVM_NO_DEPRECATED undefined.
#   See http://www.eda.org/svdb/view.php?id=3313 for more details.
# 
#   You are using a version of the UVM library that has been compiled
#   with `UVM_OBJECT_MUST_HAVE_CONSTRUCTOR undefined.
#   See http://www.eda.org/svdb/view.php?id=3770 for more details.
# 
#       (Specify +UVM_NO_RELNOTES to turn off this notice)
# 
# UVM_INFO verilog_src/questa_uvm_pkg-1.2/src/questa_uvm_pkg.sv(277) @ 0: reporter [Questa UVM] QUESTA_UVM-1.2.3
# UVM_INFO verilog_src/questa_uvm_pkg-1.2/src/questa_uvm_pkg.sv(278) @ 0: reporter [Questa UVM]  questa_uvm::init(+struct)
# CREATEDDDDDDDDDDDDDDDDDDDDDDDDDDDDDDDDDDDDDDDDDDDDDDDD
# UVM_INFO @ 0: reporter [RNTST] Running test write_twice_test...
# base_test build phase
# my_test build phase
# env build phase
# my_active_agent build phase
# my_driver build phase
# Inputs monitor build phase complete.
# UVM_INFO components/sequencer.svh(24) @ 0: uvm_test_top.env_h.active_agent_h.sequencer_h [SEQUENCER] Build phase executed
# coverage build_phase
# Passive agent build phase complete.
# Outputs monitor build phase complete.
# UVM_INFO components/scoreboard.svh(48) @ 0: uvm_test_top.env_h.scoreboard_h [SCOREBOARD] Build phase completed
# my_comparator build phase
# my_predictor build phase
# my_driver connect phase
# Inputs monitor connect phase complete.
# UVM_INFO components/sequencer.svh(30) @ 0: uvm_test_top.env_h.active_agent_h.sequencer_h [SEQUENCER] Connect phase executed
# my_active_agent connect phase
# Outputs monitor connect phase complete.
# Passive agent connect phase complete.
# my_comparator connect phase
# my_predictor connect phase
# UVM_INFO components/scoreboard.svh(58) @ 0: uvm_test_top.env_h.scoreboard_h [SCOREBOARD] Connect phase completed
# env connect phase
# my_test connect phase
# my_test connect phase
# Inputs monitor end of elaboration phase complete.
# my_monitor end_of_elaboration_phase
# Outputs monitor end of elaboration phase complete.
# Passive agent end of elaboration phase complete.
# UVM_INFO components/env.svh(97) @ 0: uvm_test_top.env_h [env_h] '{"uvm_test_top.env_h.passive_agent_h.tlm_analysis_port_outputs":@uvm_port_component__5@15 }
# UVM_INFO components/env.svh(99) @ 0: uvm_test_top.env_h [env_h] '{"uvm_test_top.env_h.active_agent_h.tlm_analysis_port_inputs":@uvm_port_component__5@13 }
# UVM_INFO components/env.svh(101) @ 0: uvm_test_top.env_h [env_h] '{"uvm_test_top.env_h.passive_agent_h.tlm_analysis_port_outputs":@uvm_port_component__5@15 }
# FINISHED GET_PROVIDED_TO
# UVM_INFO components/env.svh(105) @ 0: uvm_test_top.env_h [env_h] '{ }
# UVM_INFO components/env.svh(107) @ 0: uvm_test_top.env_h [env_h] '{"uvm_test_top.env_h.scoreboard_h.predictor_h.analysis_imp":@uvm_port_component__5@19 }
# UVM_INFO components/env.svh(109) @ 0: uvm_test_top.env_h [env_h] '{"uvm_test_top.env_h.scoreboard_h.comparator_h.analysis_actual_outputs":@uvm_port_component__5@31 }
# my_monitor end_of_elaboration_phase
# env run phase
# my_predictor run phase
# UVM_INFO components/comparator.svh(70) @ 0: uvm_test_top.env_h.scoreboard_h.comparator_h [COMPARATOR] RUN PHASE
# Passive agent run phase complete.
# coverage run_phase
# my_active_agent run phase
# UVM_INFO components/sequencer.svh(36) @ 0: uvm_test_top.env_h.active_agent_h.sequencer_h [SEQUENCER] Run phase started
# start of pre_body task
# start of pre_body task
# start of pre_body task
# CREATEDDDDDDDDDDDDDDDDDDDDDDDDDDDDDDDDDDDDDDDDDDDDDDDD
# UVM_INFO components/driver.svh(64) @ 0: uvm_test_top.env_h.active_agent_h.driver_h [uvm_test_top.env_h.active_agent_h.driver_h] DRIVEN_ITEM: time: 0 HRESETn = 0, HSEL= 0, HWRITE = 0, HTRANS =  0, HSIZE = 0, HBURST = 0, HPROT = 0, HADDR = 0, HWDATA = 0, PREDICTOR_transaction_counter = 0, COMPARATOR_transaction_counter= 0
# HWRITE ========================================================== HWRITE = 0
#  RESET VALUE ----------> HRESETn = 1
# RECIEVING PHASE: ASSSINGING RANDOMIZED VALUES
# RECIEVING PHASE: TIME: 10 WAITING FOR CONTROL PHASE TO transaction_finished
# DATA_PHASE: TIME:10 ASSERTING RESET
# UVM_INFO components/predictor.svh(98) @ 10: uvm_test_top.env_h.scoreboard_h.predictor_h [PREDICTOR] WRITTEN_DATA: HRESETn:0, HWRITE:0, HTRANS:0, HSIZE:0, HBURST:0, HPROT:0, HADDR:0, HWDATA:0
# UVM_INFO components/predictor.svh(103) @ 10: uvm_test_top.env_h.scoreboard_h.predictor_h [PREDICTOR] EXPECTED_DATA:  time: 10 HRESETn = 0, HSEL= 0, HWRITE = 0, HTRANS =  0, HSIZE = 0, HBURST = 0, HPROT = 0, HADDR = 0, HWDATA = 0, PREDICTOR_transaction_counter = 1, COMPARATOR_transaction_counter= 0
# my_predictor run phase
# UVM_INFO components/comparator.svh(74) @ 10: uvm_test_top.env_h.scoreboard_h.comparator_h [COMPARATOR] EXPECTED_SEQ_ITEM RECEIVED:  time: 10 HSEL: 0  HRDATA: 0  HRESP: 0   HREADY: 1, PREDICTOR_transaction_counter = 1, COMPARATOR_transaction_counter= 0
#  RESET VALUE ----------> HRESETn = 0
# OUTPUT_PHASE_RESET: TIME:160 SENDING OUTPUTS
# UVM_INFO components/outputs_monitor.svh(75) @ 160: uvm_test_top.env_h.passive_agent_h.outputs_monitor_h [uvm_test_top.env_h.passive_agent_h.outputs_monitor_h] OUTPUTS SENT TO THE COMPARATOR
# UVM_INFO components/comparator.svh(77) @ 160: uvm_test_top.env_h.scoreboard_h.comparator_h [COMPARATOR] ACTUAL_SEQ_ITEM RECEIVED:  time: 160 HSEL: 0  HRDATA: 0  HRESP: 0   HREADY: 1, PREDICTOR_transaction_counter = 1, COMPARATOR_transaction_counter= 0
# UVM_INFO components/comparator.svh(82) @ 160: uvm_test_top.env_h.scoreboard_h.comparator_h [SCOREBOARD] PASS
# UVM_INFO components/comparator.svh(70) @ 160: uvm_test_top.env_h.scoreboard_h.comparator_h [COMPARATOR] RUN PHASE
# start of pre_body task
# start of pre_body task
# CREATEDDDDDDDDDDDDDDDDDDDDDDDDDDDDDDDDDDDDDDDDDDDDDDDD
# UVM_INFO components/driver.svh(64) @ 160: uvm_test_top.env_h.active_agent_h.driver_h [uvm_test_top.env_h.active_agent_h.driver_h] DRIVEN_ITEM: time: 160 HRESETn = 1, HSEL= 2, HWRITE = 1, HTRANS =  2, HSIZE = 0, HBURST = 0, HPROT = 0, HADDR = 2147483650, HWDATA = 122, PREDICTOR_transaction_counter = 1, COMPARATOR_transaction_counter= 1
# HWRITE ========================================================== HWRITE = 1
# RECIEVING PHASE: ASSSINGING RANDOMIZED VALUES
# RECIEVING PHASE: TIME: 160 WAITING FOR CONTROL PHASE TO transaction_finished
# UVM_INFO components/predictor.svh(98) @ 160: uvm_test_top.env_h.scoreboard_h.predictor_h [PREDICTOR] WRITTEN_DATA: HRESETn:1, HWRITE:1, HTRANS:2, HSIZE:0, HBURST:0, HPROT:0, HADDR:2147483650, HWDATA:122
# UVM_INFO components/predictor.svh(103) @ 160: uvm_test_top.env_h.scoreboard_h.predictor_h [PREDICTOR] EXPECTED_DATA:  time: 160 HRESETn = 1, HSEL= 2, HWRITE = 1, HTRANS =  2, HSIZE = 0, HBURST = 0, HPROT = 0, HADDR = 2147483650, HWDATA = 122, PREDICTOR_transaction_counter = 2, COMPARATOR_transaction_counter= 1
# my_predictor run phase
# UVM_INFO components/comparator.svh(74) @ 160: uvm_test_top.env_h.scoreboard_h.comparator_h [COMPARATOR] EXPECTED_SEQ_ITEM RECEIVED:  time: 160 HSEL: 2  HRDATA: 0  HRESP: 0   HREADY: 1, PREDICTOR_transaction_counter = 2, COMPARATOR_transaction_counter= 1
#  RESET VALUE ----------> HRESETn = 1
# CONTROL PHASE: TIME:170 ASSIGINING SIGNALS
# start of pre_body task
# start of pre_body task
# CREATEDDDDDDDDDDDDDDDDDDDDDDDDDDDDDDDDDDDDDDDDDDDDDDDD
# UVM_INFO components/driver.svh(64) @ 170: uvm_test_top.env_h.active_agent_h.driver_h [uvm_test_top.env_h.active_agent_h.driver_h] DRIVEN_ITEM: time: 170 HRESETn = 1, HSEL= 1, HWRITE = 1, HTRANS =  2, HSIZE = 0, HBURST = 0, HPROT = 0, HADDR = 1073741824, HWDATA = 128, PREDICTOR_transaction_counter = 2, COMPARATOR_transaction_counter= 1
# HWRITE ========================================================== HWRITE = 1
# RECIEVING PHASE: ASSSINGING RANDOMIZED VALUES
# RECIEVING PHASE: TIME: 170 WAITING FOR CONTROL PHASE TO transaction_finished
# UVM_INFO components/predictor.svh(98) @ 170: uvm_test_top.env_h.scoreboard_h.predictor_h [PREDICTOR] WRITTEN_DATA: HRESETn:1, HWRITE:1, HTRANS:2, HSIZE:0, HBURST:0, HPROT:0, HADDR:1073741824, HWDATA:128
# UVM_INFO components/predictor.svh(103) @ 170: uvm_test_top.env_h.scoreboard_h.predictor_h [PREDICTOR] EXPECTED_DATA:  time: 170 HRESETn = 1, HSEL= 1, HWRITE = 1, HTRANS =  2, HSIZE = 0, HBURST = 0, HPROT = 0, HADDR = 1073741824, HWDATA = 128, PREDICTOR_transaction_counter = 3, COMPARATOR_transaction_counter= 1
# my_predictor run phase
# CONTROL PHASE: TIME:180 ASSIGINING SIGNALS
# DATA_PHASE: TIME:180 ASSIGNING SIGNALS
# DATA_PHASE_WRITE: TIME:180 ASSIGNING SIGNALS
# start of pre_body task
# start of pre_body task
# CREATEDDDDDDDDDDDDDDDDDDDDDDDDDDDDDDDDDDDDDDDDDDDDDDDD
# UVM_INFO components/driver.svh(64) @ 180: uvm_test_top.env_h.active_agent_h.driver_h [uvm_test_top.env_h.active_agent_h.driver_h] DRIVEN_ITEM: time: 180 HRESETn = 1, HSEL= 0, HWRITE = 1, HTRANS =  2, HSIZE = 0, HBURST = 0, HPROT = 0, HADDR = 11, HWDATA = 33, PREDICTOR_transaction_counter = 3, COMPARATOR_transaction_counter= 1
# HWRITE ========================================================== HWRITE = 1
# RECIEVING PHASE: ASSSINGING RANDOMIZED VALUES
# RECIEVING PHASE: TIME: 180 WAITING FOR CONTROL PHASE TO transaction_finished
# UVM_INFO components/predictor.svh(98) @ 180: uvm_test_top.env_h.scoreboard_h.predictor_h [PREDICTOR] WRITTEN_DATA: HRESETn:1, HWRITE:1, HTRANS:2, HSIZE:0, HBURST:0, HPROT:0, HADDR:11, HWDATA:33
# UVM_INFO components/predictor.svh(103) @ 180: uvm_test_top.env_h.scoreboard_h.predictor_h [PREDICTOR] EXPECTED_DATA:  time: 180 HRESETn = 1, HSEL= 0, HWRITE = 1, HTRANS =  2, HSIZE = 0, HBURST = 0, HPROT = 0, HADDR = 11, HWDATA = 33, PREDICTOR_transaction_counter = 4, COMPARATOR_transaction_counter= 1
# my_predictor run phase
# OUTPUT_PHASE_SIGNALS: TIME:190 SENDING OUTPUTS
# UVM_INFO components/outputs_monitor.svh(75) @ 190: uvm_test_top.env_h.passive_agent_h.outputs_monitor_h [uvm_test_top.env_h.passive_agent_h.outputs_monitor_h] OUTPUTS SENT TO THE COMPARATOR
# time:190 send_outputs 
# DATA_PHASE: TIME:190 ASSIGNING SIGNALS
# DATA_PHASE_WRITE: TIME:190 ASSIGNING SIGNALS
# CONTROL PHASE: TIME:190 ASSIGINING SIGNALS
# UVM_INFO components/comparator.svh(77) @ 190: uvm_test_top.env_h.scoreboard_h.comparator_h [COMPARATOR] ACTUAL_SEQ_ITEM RECEIVED:  time: 190 HSEL: 0  HRDATA: 0  HRESP: 0   HREADY: 1, PREDICTOR_transaction_counter = 4, COMPARATOR_transaction_counter= 1
# UVM_INFO components/comparator.svh(82) @ 190: uvm_test_top.env_h.scoreboard_h.comparator_h [SCOREBOARD] PASS
# UVM_INFO components/comparator.svh(70) @ 190: uvm_test_top.env_h.scoreboard_h.comparator_h [COMPARATOR] RUN PHASE
# UVM_INFO components/comparator.svh(74) @ 190: uvm_test_top.env_h.scoreboard_h.comparator_h [COMPARATOR] EXPECTED_SEQ_ITEM RECEIVED:  time: 190 HSEL: 0  HRDATA: 0  HRESP: 0   HREADY: 1, PREDICTOR_transaction_counter = 4, COMPARATOR_transaction_counter= 2
# start of pre_body task
# start of pre_body task
# CREATEDDDDDDDDDDDDDDDDDDDDDDDDDDDDDDDDDDDDDDDDDDDDDDDD
# UVM_INFO components/driver.svh(64) @ 190: uvm_test_top.env_h.active_agent_h.driver_h [uvm_test_top.env_h.active_agent_h.driver_h] DRIVEN_ITEM: time: 190 HRESETn = 1, HSEL= 2, HWRITE = 1, HTRANS =  2, HSIZE = 0, HBURST = 0, HPROT = 0, HADDR = 2147483658, HWDATA = 107, PREDICTOR_transaction_counter = 4, COMPARATOR_transaction_counter= 2
# HWRITE ========================================================== HWRITE = 1
# RECIEVING PHASE: ASSSINGING RANDOMIZED VALUES
# RECIEVING PHASE: TIME: 190 WAITING FOR CONTROL PHASE TO transaction_finished
# UVM_INFO components/predictor.svh(98) @ 190: uvm_test_top.env_h.scoreboard_h.predictor_h [PREDICTOR] WRITTEN_DATA: HRESETn:1, HWRITE:1, HTRANS:2, HSIZE:0, HBURST:0, HPROT:0, HADDR:2147483658, HWDATA:107
# UVM_INFO components/predictor.svh(103) @ 190: uvm_test_top.env_h.scoreboard_h.predictor_h [PREDICTOR] EXPECTED_DATA:  time: 190 HRESETn = 1, HSEL= 2, HWRITE = 1, HTRANS =  2, HSIZE = 0, HBURST = 0, HPROT = 0, HADDR = 2147483658, HWDATA = 107, PREDICTOR_transaction_counter = 5, COMPARATOR_transaction_counter= 2
# my_predictor run phase
# OUTPUT_PHASE_SIGNALS: TIME:200 SENDING OUTPUTS
# UVM_INFO components/outputs_monitor.svh(75) @ 200: uvm_test_top.env_h.passive_agent_h.outputs_monitor_h [uvm_test_top.env_h.passive_agent_h.outputs_monitor_h] OUTPUTS SENT TO THE COMPARATOR
# time:200 send_outputs 
# CONTROL PHASE: TIME:200 ASSIGINING SIGNALS
# DATA_PHASE: TIME:200 ASSIGNING SIGNALS
# DATA_PHASE_WRITE: TIME:200 ASSIGNING SIGNALS
# UVM_INFO components/comparator.svh(77) @ 200: uvm_test_top.env_h.scoreboard_h.comparator_h [COMPARATOR] ACTUAL_SEQ_ITEM RECEIVED:  time: 200 HSEL: 0  HRDATA: 0  HRESP: 0   HREADY: 1, PREDICTOR_transaction_counter = 5, COMPARATOR_transaction_counter= 2
# UVM_INFO components/comparator.svh(82) @ 200: uvm_test_top.env_h.scoreboard_h.comparator_h [SCOREBOARD] PASS
# UVM_INFO components/comparator.svh(70) @ 200: uvm_test_top.env_h.scoreboard_h.comparator_h [COMPARATOR] RUN PHASE
# UVM_INFO components/comparator.svh(74) @ 200: uvm_test_top.env_h.scoreboard_h.comparator_h [COMPARATOR] EXPECTED_SEQ_ITEM RECEIVED:  time: 200 HSEL: 2  HRDATA: 0  HRESP: 0   HREADY: 1, PREDICTOR_transaction_counter = 5, COMPARATOR_transaction_counter= 3
# start of pre_body task
# start of pre_body task
# CREATEDDDDDDDDDDDDDDDDDDDDDDDDDDDDDDDDDDDDDDDDDDDDDDDD
# UVM_INFO components/driver.svh(64) @ 200: uvm_test_top.env_h.active_agent_h.driver_h [uvm_test_top.env_h.active_agent_h.driver_h] DRIVEN_ITEM: time: 200 HRESETn = 1, HSEL= 0, HWRITE = 1, HTRANS =  2, HSIZE = 0, HBURST = 0, HPROT = 0, HADDR = 9, HWDATA = 103, PREDICTOR_transaction_counter = 5, COMPARATOR_transaction_counter= 3
# HWRITE ========================================================== HWRITE = 1
# RECIEVING PHASE: ASSSINGING RANDOMIZED VALUES
# RECIEVING PHASE: TIME: 200 WAITING FOR CONTROL PHASE TO transaction_finished
# UVM_INFO components/predictor.svh(98) @ 200: uvm_test_top.env_h.scoreboard_h.predictor_h [PREDICTOR] WRITTEN_DATA: HRESETn:1, HWRITE:1, HTRANS:2, HSIZE:0, HBURST:0, HPROT:0, HADDR:9, HWDATA:103
# UVM_INFO components/predictor.svh(103) @ 200: uvm_test_top.env_h.scoreboard_h.predictor_h [PREDICTOR] EXPECTED_DATA:  time: 200 HRESETn = 1, HSEL= 0, HWRITE = 1, HTRANS =  2, HSIZE = 0, HBURST = 0, HPROT = 0, HADDR = 9, HWDATA = 103, PREDICTOR_transaction_counter = 6, COMPARATOR_transaction_counter= 3
# my_predictor run phase
# OUTPUT_PHASE_SIGNALS: TIME:210 SENDING OUTPUTS
# UVM_INFO components/outputs_monitor.svh(75) @ 210: uvm_test_top.env_h.passive_agent_h.outputs_monitor_h [uvm_test_top.env_h.passive_agent_h.outputs_monitor_h] OUTPUTS SENT TO THE COMPARATOR
# time:210 send_outputs 
# DATA_PHASE: TIME:210 ASSIGNING SIGNALS
# DATA_PHASE_WRITE: TIME:210 ASSIGNING SIGNALS
# CONTROL PHASE: TIME:210 ASSIGINING SIGNALS
# UVM_INFO components/comparator.svh(77) @ 210: uvm_test_top.env_h.scoreboard_h.comparator_h [COMPARATOR] ACTUAL_SEQ_ITEM RECEIVED:  time: 210 HSEL: 0  HRDATA: 0  HRESP: 0   HREADY: 1, PREDICTOR_transaction_counter = 6, COMPARATOR_transaction_counter= 3
# UVM_INFO components/comparator.svh(82) @ 210: uvm_test_top.env_h.scoreboard_h.comparator_h [SCOREBOARD] PASS
# UVM_INFO components/comparator.svh(70) @ 210: uvm_test_top.env_h.scoreboard_h.comparator_h [COMPARATOR] RUN PHASE
# UVM_INFO components/comparator.svh(74) @ 210: uvm_test_top.env_h.scoreboard_h.comparator_h [COMPARATOR] EXPECTED_SEQ_ITEM RECEIVED:  time: 210 HSEL: 0  HRDATA: 0  HRESP: 0   HREADY: 1, PREDICTOR_transaction_counter = 6, COMPARATOR_transaction_counter= 4
# start of pre_body task
# start of pre_body task
# CREATEDDDDDDDDDDDDDDDDDDDDDDDDDDDDDDDDDDDDDDDDDDDDDDDD
# UVM_INFO components/driver.svh(64) @ 210: uvm_test_top.env_h.active_agent_h.driver_h [uvm_test_top.env_h.active_agent_h.driver_h] DRIVEN_ITEM: time: 210 HRESETn = 1, HSEL= 3, HWRITE = 1, HTRANS =  2, HSIZE = 0, HBURST = 0, HPROT = 0, HADDR = 3221225485, HWDATA = 19, PREDICTOR_transaction_counter = 6, COMPARATOR_transaction_counter= 4
# HWRITE ========================================================== HWRITE = 1
# RECIEVING PHASE: ASSSINGING RANDOMIZED VALUES
# RECIEVING PHASE: TIME: 210 WAITING FOR CONTROL PHASE TO transaction_finished
# UVM_INFO components/predictor.svh(98) @ 210: uvm_test_top.env_h.scoreboard_h.predictor_h [PREDICTOR] WRITTEN_DATA: HRESETn:1, HWRITE:1, HTRANS:2, HSIZE:0, HBURST:0, HPROT:0, HADDR:3221225485, HWDATA:19
# UVM_INFO components/predictor.svh(103) @ 210: uvm_test_top.env_h.scoreboard_h.predictor_h [PREDICTOR] EXPECTED_DATA:  time: 210 HRESETn = 1, HSEL= 3, HWRITE = 1, HTRANS =  2, HSIZE = 0, HBURST = 0, HPROT = 0, HADDR = 3221225485, HWDATA = 19, PREDICTOR_transaction_counter = 7, COMPARATOR_transaction_counter= 4
# my_predictor run phase
# OUTPUT_PHASE_SIGNALS: TIME:220 SENDING OUTPUTS
# UVM_INFO components/outputs_monitor.svh(75) @ 220: uvm_test_top.env_h.passive_agent_h.outputs_monitor_h [uvm_test_top.env_h.passive_agent_h.outputs_monitor_h] OUTPUTS SENT TO THE COMPARATOR
# time:220 send_outputs 
# CONTROL PHASE: TIME:220 ASSIGINING SIGNALS
# DATA_PHASE: TIME:220 ASSIGNING SIGNALS
# DATA_PHASE_WRITE: TIME:220 ASSIGNING SIGNALS
# UVM_INFO components/comparator.svh(77) @ 220: uvm_test_top.env_h.scoreboard_h.comparator_h [COMPARATOR] ACTUAL_SEQ_ITEM RECEIVED:  time: 220 HSEL: 0  HRDATA: 0  HRESP: 0   HREADY: 1, PREDICTOR_transaction_counter = 7, COMPARATOR_transaction_counter= 4
# UVM_ERROR components/comparator.svh(85) @ 220: uvm_test_top.env_h.scoreboard_h.comparator_h [SCOREBOARD] FAIL
# UVM_INFO components/comparator.svh(70) @ 220: uvm_test_top.env_h.scoreboard_h.comparator_h [COMPARATOR] RUN PHASE
# UVM_INFO components/comparator.svh(74) @ 220: uvm_test_top.env_h.scoreboard_h.comparator_h [COMPARATOR] EXPECTED_SEQ_ITEM RECEIVED:  time: 220 HSEL: 3  HRDATA: 0  HRESP: 1   HREADY: 1, PREDICTOR_transaction_counter = 7, COMPARATOR_transaction_counter= 5
# start of pre_body task
# start of pre_body task
# CREATEDDDDDDDDDDDDDDDDDDDDDDDDDDDDDDDDDDDDDDDDDDDDDDDD
# UVM_INFO components/driver.svh(64) @ 220: uvm_test_top.env_h.active_agent_h.driver_h [uvm_test_top.env_h.active_agent_h.driver_h] DRIVEN_ITEM: time: 220 HRESETn = 1, HSEL= 1, HWRITE = 1, HTRANS =  2, HSIZE = 0, HBURST = 0, HPROT = 0, HADDR = 1073741832, HWDATA = 113, PREDICTOR_transaction_counter = 7, COMPARATOR_transaction_counter= 5
# HWRITE ========================================================== HWRITE = 1
# RECIEVING PHASE: ASSSINGING RANDOMIZED VALUES
# RECIEVING PHASE: TIME: 220 WAITING FOR CONTROL PHASE TO transaction_finished
# UVM_INFO components/predictor.svh(98) @ 220: uvm_test_top.env_h.scoreboard_h.predictor_h [PREDICTOR] WRITTEN_DATA: HRESETn:1, HWRITE:1, HTRANS:2, HSIZE:0, HBURST:0, HPROT:0, HADDR:1073741832, HWDATA:113
# UVM_INFO components/predictor.svh(103) @ 220: uvm_test_top.env_h.scoreboard_h.predictor_h [PREDICTOR] EXPECTED_DATA:  time: 220 HRESETn = 1, HSEL= 1, HWRITE = 1, HTRANS =  2, HSIZE = 0, HBURST = 0, HPROT = 0, HADDR = 1073741832, HWDATA = 113, PREDICTOR_transaction_counter = 8, COMPARATOR_transaction_counter= 5
# my_predictor run phase
# OUTPUT_PHASE_SIGNALS: TIME:230 SENDING OUTPUTS
# UVM_INFO components/outputs_monitor.svh(75) @ 230: uvm_test_top.env_h.passive_agent_h.outputs_monitor_h [uvm_test_top.env_h.passive_agent_h.outputs_monitor_h] OUTPUTS SENT TO THE COMPARATOR
# time:230 send_outputs 
# DATA_PHASE: TIME:230 ASSIGNING SIGNALS
# DATA_PHASE_WRITE: TIME:230 ASSIGNING SIGNALS
# CONTROL PHASE: TIME:230 ASSIGINING SIGNALS
# UVM_INFO components/comparator.svh(77) @ 230: uvm_test_top.env_h.scoreboard_h.comparator_h [COMPARATOR] ACTUAL_SEQ_ITEM RECEIVED:  time: 230 HSEL: 0  HRDATA: 0  HRESP: 0   HREADY: 1, PREDICTOR_transaction_counter = 8, COMPARATOR_transaction_counter= 5
# UVM_INFO components/comparator.svh(82) @ 230: uvm_test_top.env_h.scoreboard_h.comparator_h [SCOREBOARD] PASS
# UVM_INFO components/comparator.svh(70) @ 230: uvm_test_top.env_h.scoreboard_h.comparator_h [COMPARATOR] RUN PHASE
# UVM_INFO components/comparator.svh(74) @ 230: uvm_test_top.env_h.scoreboard_h.comparator_h [COMPARATOR] EXPECTED_SEQ_ITEM RECEIVED:  time: 230 HSEL: 1  HRDATA: 0  HRESP: 0   HREADY: 1, PREDICTOR_transaction_counter = 8, COMPARATOR_transaction_counter= 6
# start of pre_body task
# start of pre_body task
# CREATEDDDDDDDDDDDDDDDDDDDDDDDDDDDDDDDDDDDDDDDDDDDDDDDD
# UVM_INFO components/driver.svh(64) @ 230: uvm_test_top.env_h.active_agent_h.driver_h [uvm_test_top.env_h.active_agent_h.driver_h] DRIVEN_ITEM: time: 230 HRESETn = 1, HSEL= 2, HWRITE = 1, HTRANS =  2, HSIZE = 0, HBURST = 0, HPROT = 0, HADDR = 2147483653, HWDATA = 87, PREDICTOR_transaction_counter = 8, COMPARATOR_transaction_counter= 6
# HWRITE ========================================================== HWRITE = 1
# RECIEVING PHASE: ASSSINGING RANDOMIZED VALUES
# RECIEVING PHASE: TIME: 230 WAITING FOR CONTROL PHASE TO transaction_finished
# UVM_INFO components/predictor.svh(98) @ 230: uvm_test_top.env_h.scoreboard_h.predictor_h [PREDICTOR] WRITTEN_DATA: HRESETn:1, HWRITE:1, HTRANS:2, HSIZE:0, HBURST:0, HPROT:0, HADDR:2147483653, HWDATA:87
# UVM_INFO components/predictor.svh(103) @ 230: uvm_test_top.env_h.scoreboard_h.predictor_h [PREDICTOR] EXPECTED_DATA:  time: 230 HRESETn = 1, HSEL= 2, HWRITE = 1, HTRANS =  2, HSIZE = 0, HBURST = 0, HPROT = 0, HADDR = 2147483653, HWDATA = 87, PREDICTOR_transaction_counter = 9, COMPARATOR_transaction_counter= 6
# my_predictor run phase
# OUTPUT_PHASE_SIGNALS: TIME:240 SENDING OUTPUTS
# UVM_INFO components/outputs_monitor.svh(75) @ 240: uvm_test_top.env_h.passive_agent_h.outputs_monitor_h [uvm_test_top.env_h.passive_agent_h.outputs_monitor_h] OUTPUTS SENT TO THE COMPARATOR
# time:240 send_outputs 
# CONTROL PHASE: TIME:240 ASSIGINING SIGNALS
# DATA_PHASE: TIME:240 ASSIGNING SIGNALS
# DATA_PHASE_WRITE: TIME:240 ASSIGNING SIGNALS
# UVM_INFO components/comparator.svh(77) @ 240: uvm_test_top.env_h.scoreboard_h.comparator_h [COMPARATOR] ACTUAL_SEQ_ITEM RECEIVED:  time: 240 HSEL: 0  HRDATA: 0  HRESP: 0   HREADY: 1, PREDICTOR_transaction_counter = 9, COMPARATOR_transaction_counter= 6
# UVM_INFO components/comparator.svh(82) @ 240: uvm_test_top.env_h.scoreboard_h.comparator_h [SCOREBOARD] PASS
# UVM_INFO components/comparator.svh(70) @ 240: uvm_test_top.env_h.scoreboard_h.comparator_h [COMPARATOR] RUN PHASE
# UVM_INFO components/comparator.svh(74) @ 240: uvm_test_top.env_h.scoreboard_h.comparator_h [COMPARATOR] EXPECTED_SEQ_ITEM RECEIVED:  time: 240 HSEL: 2  HRDATA: 0  HRESP: 0   HREADY: 1, PREDICTOR_transaction_counter = 9, COMPARATOR_transaction_counter= 7
# start of pre_body task
# start of pre_body task
# CREATEDDDDDDDDDDDDDDDDDDDDDDDDDDDDDDDDDDDDDDDDDDDDDDDD
# UVM_INFO components/driver.svh(64) @ 240: uvm_test_top.env_h.active_agent_h.driver_h [uvm_test_top.env_h.active_agent_h.driver_h] DRIVEN_ITEM: time: 240 HRESETn = 1, HSEL= 3, HWRITE = 1, HTRANS =  2, HSIZE = 0, HBURST = 0, HPROT = 0, HADDR = 3221225478, HWDATA = 159, PREDICTOR_transaction_counter = 9, COMPARATOR_transaction_counter= 7
# HWRITE ========================================================== HWRITE = 1
# RECIEVING PHASE: ASSSINGING RANDOMIZED VALUES
# RECIEVING PHASE: TIME: 240 WAITING FOR CONTROL PHASE TO transaction_finished
# UVM_INFO components/predictor.svh(98) @ 240: uvm_test_top.env_h.scoreboard_h.predictor_h [PREDICTOR] WRITTEN_DATA: HRESETn:1, HWRITE:1, HTRANS:2, HSIZE:0, HBURST:0, HPROT:0, HADDR:3221225478, HWDATA:159
# UVM_INFO components/predictor.svh(103) @ 240: uvm_test_top.env_h.scoreboard_h.predictor_h [PREDICTOR] EXPECTED_DATA:  time: 240 HRESETn = 1, HSEL= 3, HWRITE = 1, HTRANS =  2, HSIZE = 0, HBURST = 0, HPROT = 0, HADDR = 3221225478, HWDATA = 159, PREDICTOR_transaction_counter = 10, COMPARATOR_transaction_counter= 7
# my_predictor run phase
# OUTPUT_PHASE_SIGNALS: TIME:250 SENDING OUTPUTS
# UVM_INFO components/outputs_monitor.svh(75) @ 250: uvm_test_top.env_h.passive_agent_h.outputs_monitor_h [uvm_test_top.env_h.passive_agent_h.outputs_monitor_h] OUTPUTS SENT TO THE COMPARATOR
# time:250 send_outputs 
# DATA_PHASE: TIME:250 ASSIGNING SIGNALS
# DATA_PHASE_WRITE: TIME:250 ASSIGNING SIGNALS
# CONTROL PHASE: TIME:250 ASSIGINING SIGNALS
# UVM_INFO components/comparator.svh(77) @ 250: uvm_test_top.env_h.scoreboard_h.comparator_h [COMPARATOR] ACTUAL_SEQ_ITEM RECEIVED:  time: 250 HSEL: 0  HRDATA: 0  HRESP: 0   HREADY: 1, PREDICTOR_transaction_counter = 10, COMPARATOR_transaction_counter= 7
# UVM_ERROR components/comparator.svh(85) @ 250: uvm_test_top.env_h.scoreboard_h.comparator_h [SCOREBOARD] FAIL
# UVM_INFO components/comparator.svh(70) @ 250: uvm_test_top.env_h.scoreboard_h.comparator_h [COMPARATOR] RUN PHASE
# UVM_INFO components/comparator.svh(74) @ 250: uvm_test_top.env_h.scoreboard_h.comparator_h [COMPARATOR] EXPECTED_SEQ_ITEM RECEIVED:  time: 250 HSEL: 3  HRDATA: 0  HRESP: 1   HREADY: 1, PREDICTOR_transaction_counter = 10, COMPARATOR_transaction_counter= 8
# start of pre_body task
# start of pre_body task
# CREATEDDDDDDDDDDDDDDDDDDDDDDDDDDDDDDDDDDDDDDDDDDDDDDDD
# UVM_INFO components/driver.svh(64) @ 250: uvm_test_top.env_h.active_agent_h.driver_h [uvm_test_top.env_h.active_agent_h.driver_h] DRIVEN_ITEM: time: 250 HRESETn = 1, HSEL= 1, HWRITE = 1, HTRANS =  2, HSIZE = 0, HBURST = 0, HPROT = 0, HADDR = 1073741835, HWDATA = 210, PREDICTOR_transaction_counter = 10, COMPARATOR_transaction_counter= 8
# HWRITE ========================================================== HWRITE = 1
# RECIEVING PHASE: ASSSINGING RANDOMIZED VALUES
# RECIEVING PHASE: TIME: 250 WAITING FOR CONTROL PHASE TO transaction_finished
# UVM_INFO components/predictor.svh(98) @ 250: uvm_test_top.env_h.scoreboard_h.predictor_h [PREDICTOR] WRITTEN_DATA: HRESETn:1, HWRITE:1, HTRANS:2, HSIZE:0, HBURST:0, HPROT:0, HADDR:1073741835, HWDATA:210
# UVM_INFO components/predictor.svh(103) @ 250: uvm_test_top.env_h.scoreboard_h.predictor_h [PREDICTOR] EXPECTED_DATA:  time: 250 HRESETn = 1, HSEL= 1, HWRITE = 1, HTRANS =  2, HSIZE = 0, HBURST = 0, HPROT = 0, HADDR = 1073741835, HWDATA = 210, PREDICTOR_transaction_counter = 11, COMPARATOR_transaction_counter= 8
# my_predictor run phase
# OUTPUT_PHASE_SIGNALS: TIME:260 SENDING OUTPUTS
# UVM_INFO components/outputs_monitor.svh(75) @ 260: uvm_test_top.env_h.passive_agent_h.outputs_monitor_h [uvm_test_top.env_h.passive_agent_h.outputs_monitor_h] OUTPUTS SENT TO THE COMPARATOR
# time:260 send_outputs 
# CONTROL PHASE: TIME:260 ASSIGINING SIGNALS
# DATA_PHASE: TIME:260 ASSIGNING SIGNALS
# DATA_PHASE_WRITE: TIME:260 ASSIGNING SIGNALS
# UVM_INFO components/comparator.svh(77) @ 260: uvm_test_top.env_h.scoreboard_h.comparator_h [COMPARATOR] ACTUAL_SEQ_ITEM RECEIVED:  time: 260 HSEL: 0  HRDATA: 0  HRESP: 0   HREADY: 1, PREDICTOR_transaction_counter = 11, COMPARATOR_transaction_counter= 8
# UVM_INFO components/comparator.svh(82) @ 260: uvm_test_top.env_h.scoreboard_h.comparator_h [SCOREBOARD] PASS
# UVM_INFO components/comparator.svh(70) @ 260: uvm_test_top.env_h.scoreboard_h.comparator_h [COMPARATOR] RUN PHASE
# UVM_INFO components/comparator.svh(74) @ 260: uvm_test_top.env_h.scoreboard_h.comparator_h [COMPARATOR] EXPECTED_SEQ_ITEM RECEIVED:  time: 260 HSEL: 1  HRDATA: 0  HRESP: 0   HREADY: 1, PREDICTOR_transaction_counter = 11, COMPARATOR_transaction_counter= 9
# CREATEDDDDDDDDDDDDDDDDDDDDDDDDDDDDDDDDDDDDDDDDDDDDDDDD
# UVM_INFO components/driver.svh(64) @ 260: uvm_test_top.env_h.active_agent_h.driver_h [uvm_test_top.env_h.active_agent_h.driver_h] DRIVEN_ITEM: time: 260 HRESETn = 1, HSEL= 1, HWRITE = 1, HTRANS =  2, HSIZE = 0, HBURST = 3, HPROT = 0, HADDR = 1073741839, HWDATA = 172, PREDICTOR_transaction_counter = 11, COMPARATOR_transaction_counter= 9
# HWRITE ========================================================== HWRITE = 1
# RECIEVING PHASE: ASSSINGING RANDOMIZED VALUES
# RECIEVING PHASE: TIME: 260 WAITING FOR CONTROL PHASE TO transaction_finished
# UVM_INFO components/predictor.svh(98) @ 260: uvm_test_top.env_h.scoreboard_h.predictor_h [PREDICTOR] WRITTEN_DATA: HRESETn:1, HWRITE:1, HTRANS:2, HSIZE:0, HBURST:3, HPROT:0, HADDR:1073741839, HWDATA:172
# UVM_INFO components/predictor.svh(103) @ 260: uvm_test_top.env_h.scoreboard_h.predictor_h [PREDICTOR] EXPECTED_DATA:  time: 260 HRESETn = 1, HSEL= 1, HWRITE = 1, HTRANS =  2, HSIZE = 0, HBURST = 3, HPROT = 0, HADDR = 1073741839, HWDATA = 172, PREDICTOR_transaction_counter = 12, COMPARATOR_transaction_counter= 9
# my_predictor run phase
# OUTPUT_PHASE_SIGNALS: TIME:270 SENDING OUTPUTS
# UVM_INFO components/outputs_monitor.svh(75) @ 270: uvm_test_top.env_h.passive_agent_h.outputs_monitor_h [uvm_test_top.env_h.passive_agent_h.outputs_monitor_h] OUTPUTS SENT TO THE COMPARATOR
# time:270 send_outputs 
# DATA_PHASE: TIME:270 ASSIGNING SIGNALS
# DATA_PHASE_WRITE: TIME:270 ASSIGNING SIGNALS
# CONTROL PHASE: TIME:270 ASSIGINING SIGNALS
# UVM_INFO components/comparator.svh(77) @ 270: uvm_test_top.env_h.scoreboard_h.comparator_h [COMPARATOR] ACTUAL_SEQ_ITEM RECEIVED:  time: 270 HSEL: 0  HRDATA: 0  HRESP: 0   HREADY: 1, PREDICTOR_transaction_counter = 12, COMPARATOR_transaction_counter= 9
# UVM_INFO components/comparator.svh(82) @ 270: uvm_test_top.env_h.scoreboard_h.comparator_h [SCOREBOARD] PASS
# UVM_INFO components/comparator.svh(70) @ 270: uvm_test_top.env_h.scoreboard_h.comparator_h [COMPARATOR] RUN PHASE
# UVM_INFO components/comparator.svh(74) @ 270: uvm_test_top.env_h.scoreboard_h.comparator_h [COMPARATOR] EXPECTED_SEQ_ITEM RECEIVED:  time: 270 HSEL: 1  HRDATA: 0  HRESP: 0   HREADY: 1, PREDICTOR_transaction_counter = 12, COMPARATOR_transaction_counter= 10
# CREATEDDDDDDDDDDDDDDDDDDDDDDDDDDDDDDDDDDDDDDDDDDDDDDDD
# UVM_INFO components/driver.svh(64) @ 270: uvm_test_top.env_h.active_agent_h.driver_h [uvm_test_top.env_h.active_agent_h.driver_h] DRIVEN_ITEM: time: 270 HRESETn = 1, HSEL= 1, HWRITE = 1, HTRANS =  3, HSIZE = 0, HBURST = 3, HPROT = 0, HADDR = 1073741839, HWDATA = 99, PREDICTOR_transaction_counter = 12, COMPARATOR_transaction_counter= 10
# HWRITE ========================================================== HWRITE = 1
# RECIEVING PHASE: ASSSINGING RANDOMIZED VALUES
# RECIEVING PHASE: TIME: 270 WAITING FOR CONTROL PHASE TO transaction_finished
# UVM_INFO components/predictor.svh(98) @ 270: uvm_test_top.env_h.scoreboard_h.predictor_h [PREDICTOR] WRITTEN_DATA: HRESETn:1, HWRITE:1, HTRANS:3, HSIZE:0, HBURST:3, HPROT:0, HADDR:1073741839, HWDATA:99
# UVM_INFO components/predictor.svh(103) @ 270: uvm_test_top.env_h.scoreboard_h.predictor_h [PREDICTOR] EXPECTED_DATA:  time: 270 HRESETn = 1, HSEL= 1, HWRITE = 1, HTRANS =  3, HSIZE = 0, HBURST = 3, HPROT = 0, HADDR = 1073741839, HWDATA = 99, PREDICTOR_transaction_counter = 13, COMPARATOR_transaction_counter= 10
# my_predictor run phase
# OUTPUT_PHASE_SIGNALS: TIME:280 SENDING OUTPUTS
# UVM_INFO components/outputs_monitor.svh(75) @ 280: uvm_test_top.env_h.passive_agent_h.outputs_monitor_h [uvm_test_top.env_h.passive_agent_h.outputs_monitor_h] OUTPUTS SENT TO THE COMPARATOR
# time:280 send_outputs 
# CONTROL PHASE: TIME:280 ASSIGINING SIGNALS
# DATA_PHASE: TIME:280 ASSIGNING SIGNALS
# DATA_PHASE_WRITE: TIME:280 ASSIGNING SIGNALS
# UVM_INFO components/comparator.svh(77) @ 280: uvm_test_top.env_h.scoreboard_h.comparator_h [COMPARATOR] ACTUAL_SEQ_ITEM RECEIVED:  time: 280 HSEL: 0  HRDATA: 0  HRESP: 0   HREADY: 1, PREDICTOR_transaction_counter = 13, COMPARATOR_transaction_counter= 10
# UVM_INFO components/comparator.svh(82) @ 280: uvm_test_top.env_h.scoreboard_h.comparator_h [SCOREBOARD] PASS
# UVM_INFO components/comparator.svh(70) @ 280: uvm_test_top.env_h.scoreboard_h.comparator_h [COMPARATOR] RUN PHASE
# UVM_INFO components/comparator.svh(74) @ 280: uvm_test_top.env_h.scoreboard_h.comparator_h [COMPARATOR] EXPECTED_SEQ_ITEM RECEIVED:  time: 280 HSEL: 1  HRDATA: 0  HRESP: 0   HREADY: 1, PREDICTOR_transaction_counter = 13, COMPARATOR_transaction_counter= 11
# CREATEDDDDDDDDDDDDDDDDDDDDDDDDDDDDDDDDDDDDDDDDDDDDDDDD
# UVM_INFO components/driver.svh(64) @ 280: uvm_test_top.env_h.active_agent_h.driver_h [uvm_test_top.env_h.active_agent_h.driver_h] DRIVEN_ITEM: time: 280 HRESETn = 1, HSEL= 1, HWRITE = 1, HTRANS =  3, HSIZE = 0, HBURST = 3, HPROT = 0, HADDR = 1073741839, HWDATA = 34, PREDICTOR_transaction_counter = 13, COMPARATOR_transaction_counter= 11
# HWRITE ========================================================== HWRITE = 1
# RECIEVING PHASE: ASSSINGING RANDOMIZED VALUES
# RECIEVING PHASE: TIME: 280 WAITING FOR CONTROL PHASE TO transaction_finished
# UVM_INFO components/predictor.svh(98) @ 280: uvm_test_top.env_h.scoreboard_h.predictor_h [PREDICTOR] WRITTEN_DATA: HRESETn:1, HWRITE:1, HTRANS:3, HSIZE:0, HBURST:3, HPROT:0, HADDR:1073741839, HWDATA:34
# UVM_INFO components/predictor.svh(103) @ 280: uvm_test_top.env_h.scoreboard_h.predictor_h [PREDICTOR] EXPECTED_DATA:  time: 280 HRESETn = 1, HSEL= 1, HWRITE = 1, HTRANS =  3, HSIZE = 0, HBURST = 3, HPROT = 0, HADDR = 1073741839, HWDATA = 34, PREDICTOR_transaction_counter = 14, COMPARATOR_transaction_counter= 11
# my_predictor run phase
# OUTPUT_PHASE_SIGNALS: TIME:290 SENDING OUTPUTS
# UVM_INFO components/outputs_monitor.svh(75) @ 290: uvm_test_top.env_h.passive_agent_h.outputs_monitor_h [uvm_test_top.env_h.passive_agent_h.outputs_monitor_h] OUTPUTS SENT TO THE COMPARATOR
# time:290 send_outputs 
# DATA_PHASE: TIME:290 ASSIGNING SIGNALS
# DATA_PHASE_WRITE: TIME:290 ASSIGNING SIGNALS
# CONTROL PHASE: TIME:290 ASSIGINING SIGNALS
# UVM_INFO components/comparator.svh(77) @ 290: uvm_test_top.env_h.scoreboard_h.comparator_h [COMPARATOR] ACTUAL_SEQ_ITEM RECEIVED:  time: 290 HSEL: 0  HRDATA: 0  HRESP: 0   HREADY: 1, PREDICTOR_transaction_counter = 14, COMPARATOR_transaction_counter= 11
# UVM_INFO components/comparator.svh(82) @ 290: uvm_test_top.env_h.scoreboard_h.comparator_h [SCOREBOARD] PASS
# UVM_INFO components/comparator.svh(70) @ 290: uvm_test_top.env_h.scoreboard_h.comparator_h [COMPARATOR] RUN PHASE
# UVM_INFO components/comparator.svh(74) @ 290: uvm_test_top.env_h.scoreboard_h.comparator_h [COMPARATOR] EXPECTED_SEQ_ITEM RECEIVED:  time: 290 HSEL: 1  HRDATA: 0  HRESP: 0   HREADY: 1, PREDICTOR_transaction_counter = 14, COMPARATOR_transaction_counter= 12
# CREATEDDDDDDDDDDDDDDDDDDDDDDDDDDDDDDDDDDDDDDDDDDDDDDDD
# UVM_INFO components/driver.svh(64) @ 290: uvm_test_top.env_h.active_agent_h.driver_h [uvm_test_top.env_h.active_agent_h.driver_h] DRIVEN_ITEM: time: 290 HRESETn = 1, HSEL= 1, HWRITE = 1, HTRANS =  3, HSIZE = 0, HBURST = 3, HPROT = 0, HADDR = 1073741839, HWDATA = 104, PREDICTOR_transaction_counter = 14, COMPARATOR_transaction_counter= 12
# HWRITE ========================================================== HWRITE = 1
# RECIEVING PHASE: ASSSINGING RANDOMIZED VALUES
# RECIEVING PHASE: TIME: 290 WAITING FOR CONTROL PHASE TO transaction_finished
# UVM_INFO components/predictor.svh(98) @ 290: uvm_test_top.env_h.scoreboard_h.predictor_h [PREDICTOR] WRITTEN_DATA: HRESETn:1, HWRITE:1, HTRANS:3, HSIZE:0, HBURST:3, HPROT:0, HADDR:1073741839, HWDATA:104
# UVM_INFO components/predictor.svh(103) @ 290: uvm_test_top.env_h.scoreboard_h.predictor_h [PREDICTOR] EXPECTED_DATA:  time: 290 HRESETn = 1, HSEL= 1, HWRITE = 1, HTRANS =  3, HSIZE = 0, HBURST = 3, HPROT = 0, HADDR = 1073741839, HWDATA = 104, PREDICTOR_transaction_counter = 15, COMPARATOR_transaction_counter= 12
# my_predictor run phase
# OUTPUT_PHASE_SIGNALS: TIME:300 SENDING OUTPUTS
# UVM_INFO components/outputs_monitor.svh(75) @ 300: uvm_test_top.env_h.passive_agent_h.outputs_monitor_h [uvm_test_top.env_h.passive_agent_h.outputs_monitor_h] OUTPUTS SENT TO THE COMPARATOR
# time:300 send_outputs 
# CONTROL PHASE: TIME:300 ASSIGINING SIGNALS
# DATA_PHASE: TIME:300 ASSIGNING SIGNALS
# DATA_PHASE_WRITE: TIME:300 ASSIGNING SIGNALS
# UVM_INFO components/comparator.svh(77) @ 300: uvm_test_top.env_h.scoreboard_h.comparator_h [COMPARATOR] ACTUAL_SEQ_ITEM RECEIVED:  time: 300 HSEL: 0  HRDATA: 0  HRESP: 0   HREADY: 1, PREDICTOR_transaction_counter = 15, COMPARATOR_transaction_counter= 12
# UVM_INFO components/comparator.svh(82) @ 300: uvm_test_top.env_h.scoreboard_h.comparator_h [SCOREBOARD] PASS
# UVM_INFO components/comparator.svh(70) @ 300: uvm_test_top.env_h.scoreboard_h.comparator_h [COMPARATOR] RUN PHASE
# UVM_INFO components/comparator.svh(74) @ 300: uvm_test_top.env_h.scoreboard_h.comparator_h [COMPARATOR] EXPECTED_SEQ_ITEM RECEIVED:  time: 300 HSEL: 1  HRDATA: 0  HRESP: 0   HREADY: 1, PREDICTOR_transaction_counter = 15, COMPARATOR_transaction_counter= 13
# CREATEDDDDDDDDDDDDDDDDDDDDDDDDDDDDDDDDDDDDDDDDDDDDDDDD
# UVM_INFO components/driver.svh(64) @ 300: uvm_test_top.env_h.active_agent_h.driver_h [uvm_test_top.env_h.active_agent_h.driver_h] DRIVEN_ITEM: time: 300 HRESETn = 1, HSEL= 1, HWRITE = 1, HTRANS =  3, HSIZE = 0, HBURST = 3, HPROT = 0, HADDR = 1073741839, HWDATA = 104, PREDICTOR_transaction_counter = 15, COMPARATOR_transaction_counter= 13
# HWRITE ========================================================== HWRITE = 1
# RECIEVING PHASE: ASSSINGING RANDOMIZED VALUES
# RECIEVING PHASE: TIME: 300 WAITING FOR CONTROL PHASE TO transaction_finished
# UVM_INFO components/predictor.svh(98) @ 300: uvm_test_top.env_h.scoreboard_h.predictor_h [PREDICTOR] WRITTEN_DATA: HRESETn:1, HWRITE:1, HTRANS:3, HSIZE:0, HBURST:3, HPROT:0, HADDR:1073741839, HWDATA:104
# UVM_INFO components/predictor.svh(103) @ 300: uvm_test_top.env_h.scoreboard_h.predictor_h [PREDICTOR] EXPECTED_DATA:  time: 300 HRESETn = 1, HSEL= 1, HWRITE = 1, HTRANS =  3, HSIZE = 0, HBURST = 3, HPROT = 0, HADDR = 1073741839, HWDATA = 104, PREDICTOR_transaction_counter = 16, COMPARATOR_transaction_counter= 13
# my_predictor run phase
run
# OUTPUT_PHASE_SIGNALS: TIME:310 SENDING OUTPUTS
# UVM_INFO components/outputs_monitor.svh(75) @ 310: uvm_test_top.env_h.passive_agent_h.outputs_monitor_h [uvm_test_top.env_h.passive_agent_h.outputs_monitor_h] OUTPUTS SENT TO THE COMPARATOR
# time:310 send_outputs 
# DATA_PHASE: TIME:310 ASSIGNING SIGNALS
# DATA_PHASE_WRITE: TIME:310 ASSIGNING SIGNALS
# CONTROL PHASE: TIME:310 ASSIGINING SIGNALS
# UVM_INFO components/comparator.svh(77) @ 310: uvm_test_top.env_h.scoreboard_h.comparator_h [COMPARATOR] ACTUAL_SEQ_ITEM RECEIVED:  time: 310 HSEL: 0  HRDATA: 0  HRESP: 0   HREADY: 1, PREDICTOR_transaction_counter = 16, COMPARATOR_transaction_counter= 13
# UVM_INFO components/comparator.svh(82) @ 310: uvm_test_top.env_h.scoreboard_h.comparator_h [SCOREBOARD] PASS
# UVM_INFO components/comparator.svh(70) @ 310: uvm_test_top.env_h.scoreboard_h.comparator_h [COMPARATOR] RUN PHASE
# UVM_INFO components/comparator.svh(74) @ 310: uvm_test_top.env_h.scoreboard_h.comparator_h [COMPARATOR] EXPECTED_SEQ_ITEM RECEIVED:  time: 310 HSEL: 1  HRDATA: 0  HRESP: 0   HREADY: 1, PREDICTOR_transaction_counter = 16, COMPARATOR_transaction_counter= 14
# start of pre_body task
# start of pre_body task
# CREATEDDDDDDDDDDDDDDDDDDDDDDDDDDDDDDDDDDDDDDDDDDDDDDDD
# UVM_INFO components/driver.svh(64) @ 310: uvm_test_top.env_h.active_agent_h.driver_h [uvm_test_top.env_h.active_agent_h.driver_h] DRIVEN_ITEM: time: 310 HRESETn = 1, HSEL= 1, HWRITE = 1, HTRANS =  2, HSIZE = 0, HBURST = 0, HPROT = 0, HADDR = 1073741837, HWDATA = 52, PREDICTOR_transaction_counter = 16, COMPARATOR_transaction_counter= 14
# HWRITE ========================================================== HWRITE = 1
# RECIEVING PHASE: ASSSINGING RANDOMIZED VALUES
# RECIEVING PHASE: TIME: 310 WAITING FOR COUNTERS ~~~~~~~~~~~~~~~~~~~~~~~~~~~~~~~~~~~~~~~~~~~~~~~~~~~~~~~
# UVM_INFO components/predictor.svh(98) @ 310: uvm_test_top.env_h.scoreboard_h.predictor_h [PREDICTOR] WRITTEN_DATA: HRESETn:1, HWRITE:1, HTRANS:2, HSIZE:0, HBURST:0, HPROT:0, HADDR:1073741837, HWDATA:52
# UVM_INFO components/predictor.svh(103) @ 310: uvm_test_top.env_h.scoreboard_h.predictor_h [PREDICTOR] EXPECTED_DATA:  time: 310 HRESETn = 1, HSEL= 1, HWRITE = 1, HTRANS =  2, HSIZE = 0, HBURST = 0, HPROT = 0, HADDR = 1073741837, HWDATA = 52, PREDICTOR_transaction_counter = 17, COMPARATOR_transaction_counter= 14
# my_predictor run phase
# OUTPUT_PHASE_SIGNALS: TIME:320 SENDING OUTPUTS
# UVM_INFO components/outputs_monitor.svh(75) @ 320: uvm_test_top.env_h.passive_agent_h.outputs_monitor_h [uvm_test_top.env_h.passive_agent_h.outputs_monitor_h] OUTPUTS SENT TO THE COMPARATOR
# time:320 send_outputs 
# CONTROL PHASE: TIME:320 ASSIGINING SIGNALS
# DATA_PHASE: TIME:320 ASSIGNING SIGNALS
# DATA_PHASE_WRITE: TIME:320 ASSIGNING SIGNALS
# UVM_INFO components/comparator.svh(77) @ 320: uvm_test_top.env_h.scoreboard_h.comparator_h [COMPARATOR] ACTUAL_SEQ_ITEM RECEIVED:  time: 320 HSEL: 0  HRDATA: 0  HRESP: 1   HREADY: 1, PREDICTOR_transaction_counter = 17, COMPARATOR_transaction_counter= 14
# UVM_ERROR components/comparator.svh(85) @ 320: uvm_test_top.env_h.scoreboard_h.comparator_h [SCOREBOARD] FAIL
# UVM_INFO components/comparator.svh(70) @ 320: uvm_test_top.env_h.scoreboard_h.comparator_h [COMPARATOR] RUN PHASE
# UVM_INFO components/comparator.svh(74) @ 320: uvm_test_top.env_h.scoreboard_h.comparator_h [COMPARATOR] EXPECTED_SEQ_ITEM RECEIVED:  time: 320 HSEL: 1  HRDATA: 0  HRESP: 0   HREADY: 1, PREDICTOR_transaction_counter = 17, COMPARATOR_transaction_counter= 15
# OUTPUT_PHASE_SIGNALS: TIME:330 SENDING OUTPUTS
# UVM_INFO components/outputs_monitor.svh(75) @ 330: uvm_test_top.env_h.passive_agent_h.outputs_monitor_h [uvm_test_top.env_h.passive_agent_h.outputs_monitor_h] OUTPUTS SENT TO THE COMPARATOR
# time:330 send_outputs 
# DATA_PHASE: TIME:330 ASSIGNING SIGNALS
# DATA_PHASE_WRITE: TIME:330 ASSIGNING SIGNALS
# UVM_INFO components/comparator.svh(77) @ 330: uvm_test_top.env_h.scoreboard_h.comparator_h [COMPARATOR] ACTUAL_SEQ_ITEM RECEIVED:  time: 330 HSEL: 0  HRDATA: 0  HRESP: 1   HREADY: 1, PREDICTOR_transaction_counter = 17, COMPARATOR_transaction_counter= 15
# UVM_ERROR components/comparator.svh(85) @ 330: uvm_test_top.env_h.scoreboard_h.comparator_h [SCOREBOARD] FAIL
# UVM_INFO components/comparator.svh(70) @ 330: uvm_test_top.env_h.scoreboard_h.comparator_h [COMPARATOR] RUN PHASE
# UVM_INFO components/comparator.svh(74) @ 330: uvm_test_top.env_h.scoreboard_h.comparator_h [COMPARATOR] EXPECTED_SEQ_ITEM RECEIVED:  time: 330 HSEL: 1  HRDATA: 0  HRESP: 0   HREADY: 1, PREDICTOR_transaction_counter = 17, COMPARATOR_transaction_counter= 16
# OUTPUT_PHASE_SIGNALS: TIME:340 SENDING OUTPUTS
# UVM_INFO components/outputs_monitor.svh(75) @ 340: uvm_test_top.env_h.passive_agent_h.outputs_monitor_h [uvm_test_top.env_h.passive_agent_h.outputs_monitor_h] OUTPUTS SENT TO THE COMPARATOR
# time:340 send_outputs 
# DATA_PHASE: TIME:340 ASSIGNING SIGNALS
# UVM_INFO components/comparator.svh(77) @ 340: uvm_test_top.env_h.scoreboard_h.comparator_h [COMPARATOR] ACTUAL_SEQ_ITEM RECEIVED:  time: 340 HSEL: 0  HRDATA: 0  HRESP: 0   HREADY: 0, PREDICTOR_transaction_counter = 17, COMPARATOR_transaction_counter= 16
# UVM_INFO components/comparator.svh(82) @ 340: uvm_test_top.env_h.scoreboard_h.comparator_h [SCOREBOARD] PASS
# UVM_INFO components/comparator.svh(70) @ 340: uvm_test_top.env_h.scoreboard_h.comparator_h [COMPARATOR] RUN PHASE
# my_test run phase
# UVM_INFO verilog_src/uvm-1.1d/src/base/uvm_objection.svh(1267) @ 340: reporter [TEST_DONE] 'run' phase is ready to proceed to the 'extract' phase
# -------------------------------------------------------------------------------------------------------------------------------------------------------------
# INCORRECT FLAG ASSERTION/DEASSERTION COUNTER = 0
# CORRECT FLAG ASSERTION/DEASSERTION COUNTER = 0
# -------------------------------------------------------------------------------------------------------------------------------------------------------------
# UVM_INFO components/scoreboard.svh(63) @ 340: uvm_test_top.env_h.scoreboard_h [SCOREBOARD] Scoreboard is stopping.
# 
# --- UVM Report Summary ---
# 
# ** Report counts by severity
# UVM_INFO :  149
# UVM_WARNING :    0
# UVM_ERROR :    4
# UVM_FATAL :    0
# ** Report counts by id
# [COMPARATOR]    52
# [PREDICTOR]    34
# [Questa UVM]     2
# [RNTST]     1
# [SCOREBOARD]    20
# [SEQUENCER]     3
# [TEST_DONE]     1
# [env_h]     6
# [uvm_test_top.env_h.active_agent_h.driver_h]    17
# [uvm_test_top.env_h.passive_agent_h.outputs_monitor_h]    17
# ** Note: $finish    : F:/questasim/questasim64_2021.1/win64/../verilog_src/uvm-1.1d/src/base/uvm_root.svh(430)
#    Time: 340 ns  Iteration: 68  Instance: /top_test_uvm
# 1
# Break in Task uvm_pkg/uvm_root::run_test at F:/questasim/questasim64_2021.1/win64/../verilog_src/uvm-1.1d/src/base/uvm_root.svh line 430
add wave -position insertpoint sim:/top_test_uvm/DUT/slave1/*
add wave -position insertpoint  \
sim:/top_test_uvm/f_if/HTRANS
add wave -position insertpoint  \
sim:/top_test_uvm/f_if/HTRANS_reg
restart
# Loading sv_std.std
# Loading work.inf(fast)
# Loading mtiUvm.uvm_pkg(fast)
# Loading work.AHB_pkg(fast)
# Loading mtiUvm.questa_uvm_pkg(fast)
# Loading work.top_test_uvm(fast)
# Loading work.inf(fast__2)
# Loading work.ahb_lite(fast)
# Loading work.ahb_decoder(fast)
# Loading work.ahb_mux(fast)
# Loading work.ahb_default_slave(fast)
# Loading work.ahb_slave(fast)
# Loading F:/questasim/questasim64_2021.1/uvm-1.1d\win64\uvm_dpi.dll
run -al
# ----------------------------------------------------------------
# UVM-1.1d
# (C) 2007-2013 Mentor Graphics Corporation
# (C) 2007-2013 Cadence Design Systems, Inc.
# (C) 2006-2013 Synopsys, Inc.
# (C) 2011-2013 Cypress Semiconductor Corp.
# ----------------------------------------------------------------
# 
#   ***********       IMPORTANT RELEASE NOTES         ************
# 
#   You are using a version of the UVM library that has been compiled
#   with `UVM_NO_DEPRECATED undefined.
#   See http://www.eda.org/svdb/view.php?id=3313 for more details.
# 
#   You are using a version of the UVM library that has been compiled
#   with `UVM_OBJECT_MUST_HAVE_CONSTRUCTOR undefined.
#   See http://www.eda.org/svdb/view.php?id=3770 for more details.
# 
#       (Specify +UVM_NO_RELNOTES to turn off this notice)
# 
# UVM_INFO verilog_src/questa_uvm_pkg-1.2/src/questa_uvm_pkg.sv(277) @ 0: reporter [Questa UVM] QUESTA_UVM-1.2.3
# UVM_INFO verilog_src/questa_uvm_pkg-1.2/src/questa_uvm_pkg.sv(278) @ 0: reporter [Questa UVM]  questa_uvm::init(+struct)
# CREATEDDDDDDDDDDDDDDDDDDDDDDDDDDDDDDDDDDDDDDDDDDDDDDDD
# UVM_INFO @ 0: reporter [RNTST] Running test write_twice_test...
# base_test build phase
# my_test build phase
# env build phase
# my_active_agent build phase
# my_driver build phase
# Inputs monitor build phase complete.
# UVM_INFO components/sequencer.svh(24) @ 0: uvm_test_top.env_h.active_agent_h.sequencer_h [SEQUENCER] Build phase executed
# coverage build_phase
# Passive agent build phase complete.
# Outputs monitor build phase complete.
# UVM_INFO components/scoreboard.svh(48) @ 0: uvm_test_top.env_h.scoreboard_h [SCOREBOARD] Build phase completed
# my_comparator build phase
# my_predictor build phase
# my_driver connect phase
# Inputs monitor connect phase complete.
# UVM_INFO components/sequencer.svh(30) @ 0: uvm_test_top.env_h.active_agent_h.sequencer_h [SEQUENCER] Connect phase executed
# my_active_agent connect phase
# Outputs monitor connect phase complete.
# Passive agent connect phase complete.
# my_comparator connect phase
# my_predictor connect phase
# UVM_INFO components/scoreboard.svh(58) @ 0: uvm_test_top.env_h.scoreboard_h [SCOREBOARD] Connect phase completed
# env connect phase
# my_test connect phase
# my_test connect phase
# Inputs monitor end of elaboration phase complete.
# my_monitor end_of_elaboration_phase
# Outputs monitor end of elaboration phase complete.
# Passive agent end of elaboration phase complete.
# UVM_INFO components/env.svh(97) @ 0: uvm_test_top.env_h [env_h] '{"uvm_test_top.env_h.passive_agent_h.tlm_analysis_port_outputs":@uvm_port_component__6@15 }
# UVM_INFO components/env.svh(99) @ 0: uvm_test_top.env_h [env_h] '{"uvm_test_top.env_h.active_agent_h.tlm_analysis_port_inputs":@uvm_port_component__6@13 }
# UVM_INFO components/env.svh(101) @ 0: uvm_test_top.env_h [env_h] '{"uvm_test_top.env_h.passive_agent_h.tlm_analysis_port_outputs":@uvm_port_component__6@15 }
# FINISHED GET_PROVIDED_TO
# UVM_INFO components/env.svh(105) @ 0: uvm_test_top.env_h [env_h] '{ }
# UVM_INFO components/env.svh(107) @ 0: uvm_test_top.env_h [env_h] '{"uvm_test_top.env_h.scoreboard_h.predictor_h.analysis_imp":@uvm_port_component__6@19 }
# UVM_INFO components/env.svh(109) @ 0: uvm_test_top.env_h [env_h] '{"uvm_test_top.env_h.scoreboard_h.comparator_h.analysis_actual_outputs":@uvm_port_component__6@31 }
# my_monitor end_of_elaboration_phase
# env run phase
# my_predictor run phase
# UVM_INFO components/comparator.svh(70) @ 0: uvm_test_top.env_h.scoreboard_h.comparator_h [COMPARATOR] RUN PHASE
# Passive agent run phase complete.
# coverage run_phase
# my_active_agent run phase
# UVM_INFO components/sequencer.svh(36) @ 0: uvm_test_top.env_h.active_agent_h.sequencer_h [SEQUENCER] Run phase started
# start of pre_body task
# start of pre_body task
# start of pre_body task
# CREATEDDDDDDDDDDDDDDDDDDDDDDDDDDDDDDDDDDDDDDDDDDDDDDDD
# UVM_INFO components/driver.svh(64) @ 0: uvm_test_top.env_h.active_agent_h.driver_h [uvm_test_top.env_h.active_agent_h.driver_h] DRIVEN_ITEM: time: 0 HRESETn = 0, HSEL= 0, HWRITE = 0, HTRANS =  0, HSIZE = 0, HBURST = 0, HPROT = 0, HADDR = 0, HWDATA = 0, PREDICTOR_transaction_counter = 0, COMPARATOR_transaction_counter= 0
# HWRITE ========================================================== HWRITE = 0
#  RESET VALUE ----------> HRESETn = 1
# RECIEVING PHASE: ASSSINGING RANDOMIZED VALUES
# RECIEVING PHASE: TIME: 10 WAITING FOR CONTROL PHASE TO transaction_finished
# DATA_PHASE: TIME:10 ASSERTING RESET
# UVM_INFO components/predictor.svh(98) @ 10: uvm_test_top.env_h.scoreboard_h.predictor_h [PREDICTOR] WRITTEN_DATA: HRESETn:0, HWRITE:0, HTRANS:0, HSIZE:0, HBURST:0, HPROT:0, HADDR:0, HWDATA:0
# UVM_INFO components/predictor.svh(103) @ 10: uvm_test_top.env_h.scoreboard_h.predictor_h [PREDICTOR] EXPECTED_DATA:  time: 10 HRESETn = 0, HSEL= 0, HWRITE = 0, HTRANS =  0, HSIZE = 0, HBURST = 0, HPROT = 0, HADDR = 0, HWDATA = 0, PREDICTOR_transaction_counter = 1, COMPARATOR_transaction_counter= 0
# my_predictor run phase
# UVM_INFO components/comparator.svh(74) @ 10: uvm_test_top.env_h.scoreboard_h.comparator_h [COMPARATOR] EXPECTED_SEQ_ITEM RECEIVED:  time: 10 HSEL: 0  HRDATA: 0  HRESP: 0   HREADY: 1, PREDICTOR_transaction_counter = 1, COMPARATOR_transaction_counter= 0
#  RESET VALUE ----------> HRESETn = 0
# OUTPUT_PHASE_RESET: TIME:160 SENDING OUTPUTS
# UVM_INFO components/outputs_monitor.svh(75) @ 160: uvm_test_top.env_h.passive_agent_h.outputs_monitor_h [uvm_test_top.env_h.passive_agent_h.outputs_monitor_h] OUTPUTS SENT TO THE COMPARATOR
# UVM_INFO components/comparator.svh(77) @ 160: uvm_test_top.env_h.scoreboard_h.comparator_h [COMPARATOR] ACTUAL_SEQ_ITEM RECEIVED:  time: 160 HSEL: 0  HRDATA: 0  HRESP: 0   HREADY: 1, PREDICTOR_transaction_counter = 1, COMPARATOR_transaction_counter= 0
# UVM_INFO components/comparator.svh(82) @ 160: uvm_test_top.env_h.scoreboard_h.comparator_h [SCOREBOARD] PASS
# UVM_INFO components/comparator.svh(70) @ 160: uvm_test_top.env_h.scoreboard_h.comparator_h [COMPARATOR] RUN PHASE
# start of pre_body task
# start of pre_body task
# CREATEDDDDDDDDDDDDDDDDDDDDDDDDDDDDDDDDDDDDDDDDDDDDDDDD
# UVM_INFO components/driver.svh(64) @ 160: uvm_test_top.env_h.active_agent_h.driver_h [uvm_test_top.env_h.active_agent_h.driver_h] DRIVEN_ITEM: time: 160 HRESETn = 1, HSEL= 2, HWRITE = 1, HTRANS =  2, HSIZE = 0, HBURST = 0, HPROT = 0, HADDR = 2147483650, HWDATA = 122, PREDICTOR_transaction_counter = 1, COMPARATOR_transaction_counter= 1
# HWRITE ========================================================== HWRITE = 1
# RECIEVING PHASE: ASSSINGING RANDOMIZED VALUES
# RECIEVING PHASE: TIME: 160 WAITING FOR CONTROL PHASE TO transaction_finished
# UVM_INFO components/predictor.svh(98) @ 160: uvm_test_top.env_h.scoreboard_h.predictor_h [PREDICTOR] WRITTEN_DATA: HRESETn:1, HWRITE:1, HTRANS:2, HSIZE:0, HBURST:0, HPROT:0, HADDR:2147483650, HWDATA:122
# UVM_INFO components/predictor.svh(103) @ 160: uvm_test_top.env_h.scoreboard_h.predictor_h [PREDICTOR] EXPECTED_DATA:  time: 160 HRESETn = 1, HSEL= 2, HWRITE = 1, HTRANS =  2, HSIZE = 0, HBURST = 0, HPROT = 0, HADDR = 2147483650, HWDATA = 122, PREDICTOR_transaction_counter = 2, COMPARATOR_transaction_counter= 1
# my_predictor run phase
# UVM_INFO components/comparator.svh(74) @ 160: uvm_test_top.env_h.scoreboard_h.comparator_h [COMPARATOR] EXPECTED_SEQ_ITEM RECEIVED:  time: 160 HSEL: 2  HRDATA: 0  HRESP: 0   HREADY: 1, PREDICTOR_transaction_counter = 2, COMPARATOR_transaction_counter= 1
#  RESET VALUE ----------> HRESETn = 1
# CONTROL PHASE: TIME:170 ASSIGINING SIGNALS
# start of pre_body task
# start of pre_body task
# CREATEDDDDDDDDDDDDDDDDDDDDDDDDDDDDDDDDDDDDDDDDDDDDDDDD
# UVM_INFO components/driver.svh(64) @ 170: uvm_test_top.env_h.active_agent_h.driver_h [uvm_test_top.env_h.active_agent_h.driver_h] DRIVEN_ITEM: time: 170 HRESETn = 1, HSEL= 1, HWRITE = 1, HTRANS =  2, HSIZE = 0, HBURST = 0, HPROT = 0, HADDR = 1073741824, HWDATA = 128, PREDICTOR_transaction_counter = 2, COMPARATOR_transaction_counter= 1
# HWRITE ========================================================== HWRITE = 1
# RECIEVING PHASE: ASSSINGING RANDOMIZED VALUES
# RECIEVING PHASE: TIME: 170 WAITING FOR CONTROL PHASE TO transaction_finished
# UVM_INFO components/predictor.svh(98) @ 170: uvm_test_top.env_h.scoreboard_h.predictor_h [PREDICTOR] WRITTEN_DATA: HRESETn:1, HWRITE:1, HTRANS:2, HSIZE:0, HBURST:0, HPROT:0, HADDR:1073741824, HWDATA:128
# UVM_INFO components/predictor.svh(103) @ 170: uvm_test_top.env_h.scoreboard_h.predictor_h [PREDICTOR] EXPECTED_DATA:  time: 170 HRESETn = 1, HSEL= 1, HWRITE = 1, HTRANS =  2, HSIZE = 0, HBURST = 0, HPROT = 0, HADDR = 1073741824, HWDATA = 128, PREDICTOR_transaction_counter = 3, COMPARATOR_transaction_counter= 1
# my_predictor run phase
# CONTROL PHASE: TIME:180 ASSIGINING SIGNALS
# DATA_PHASE: TIME:180 ASSIGNING SIGNALS
# DATA_PHASE_WRITE: TIME:180 ASSIGNING SIGNALS
# start of pre_body task
# start of pre_body task
# CREATEDDDDDDDDDDDDDDDDDDDDDDDDDDDDDDDDDDDDDDDDDDDDDDDD
# UVM_INFO components/driver.svh(64) @ 180: uvm_test_top.env_h.active_agent_h.driver_h [uvm_test_top.env_h.active_agent_h.driver_h] DRIVEN_ITEM: time: 180 HRESETn = 1, HSEL= 0, HWRITE = 1, HTRANS =  2, HSIZE = 0, HBURST = 0, HPROT = 0, HADDR = 11, HWDATA = 33, PREDICTOR_transaction_counter = 3, COMPARATOR_transaction_counter= 1
# HWRITE ========================================================== HWRITE = 1
# RECIEVING PHASE: ASSSINGING RANDOMIZED VALUES
# RECIEVING PHASE: TIME: 180 WAITING FOR CONTROL PHASE TO transaction_finished
# UVM_INFO components/predictor.svh(98) @ 180: uvm_test_top.env_h.scoreboard_h.predictor_h [PREDICTOR] WRITTEN_DATA: HRESETn:1, HWRITE:1, HTRANS:2, HSIZE:0, HBURST:0, HPROT:0, HADDR:11, HWDATA:33
# UVM_INFO components/predictor.svh(103) @ 180: uvm_test_top.env_h.scoreboard_h.predictor_h [PREDICTOR] EXPECTED_DATA:  time: 180 HRESETn = 1, HSEL= 0, HWRITE = 1, HTRANS =  2, HSIZE = 0, HBURST = 0, HPROT = 0, HADDR = 11, HWDATA = 33, PREDICTOR_transaction_counter = 4, COMPARATOR_transaction_counter= 1
# my_predictor run phase
# OUTPUT_PHASE_SIGNALS: TIME:190 SENDING OUTPUTS
# UVM_INFO components/outputs_monitor.svh(75) @ 190: uvm_test_top.env_h.passive_agent_h.outputs_monitor_h [uvm_test_top.env_h.passive_agent_h.outputs_monitor_h] OUTPUTS SENT TO THE COMPARATOR
# time:190 send_outputs 
# DATA_PHASE: TIME:190 ASSIGNING SIGNALS
# DATA_PHASE_WRITE: TIME:190 ASSIGNING SIGNALS
# CONTROL PHASE: TIME:190 ASSIGINING SIGNALS
# UVM_INFO components/comparator.svh(77) @ 190: uvm_test_top.env_h.scoreboard_h.comparator_h [COMPARATOR] ACTUAL_SEQ_ITEM RECEIVED:  time: 190 HSEL: 0  HRDATA: 0  HRESP: 0   HREADY: 1, PREDICTOR_transaction_counter = 4, COMPARATOR_transaction_counter= 1
# UVM_INFO components/comparator.svh(82) @ 190: uvm_test_top.env_h.scoreboard_h.comparator_h [SCOREBOARD] PASS
# UVM_INFO components/comparator.svh(70) @ 190: uvm_test_top.env_h.scoreboard_h.comparator_h [COMPARATOR] RUN PHASE
# UVM_INFO components/comparator.svh(74) @ 190: uvm_test_top.env_h.scoreboard_h.comparator_h [COMPARATOR] EXPECTED_SEQ_ITEM RECEIVED:  time: 190 HSEL: 0  HRDATA: 0  HRESP: 0   HREADY: 1, PREDICTOR_transaction_counter = 4, COMPARATOR_transaction_counter= 2
# start of pre_body task
# start of pre_body task
# CREATEDDDDDDDDDDDDDDDDDDDDDDDDDDDDDDDDDDDDDDDDDDDDDDDD
# UVM_INFO components/driver.svh(64) @ 190: uvm_test_top.env_h.active_agent_h.driver_h [uvm_test_top.env_h.active_agent_h.driver_h] DRIVEN_ITEM: time: 190 HRESETn = 1, HSEL= 2, HWRITE = 1, HTRANS =  2, HSIZE = 0, HBURST = 0, HPROT = 0, HADDR = 2147483658, HWDATA = 107, PREDICTOR_transaction_counter = 4, COMPARATOR_transaction_counter= 2
# HWRITE ========================================================== HWRITE = 1
# RECIEVING PHASE: ASSSINGING RANDOMIZED VALUES
# RECIEVING PHASE: TIME: 190 WAITING FOR CONTROL PHASE TO transaction_finished
# UVM_INFO components/predictor.svh(98) @ 190: uvm_test_top.env_h.scoreboard_h.predictor_h [PREDICTOR] WRITTEN_DATA: HRESETn:1, HWRITE:1, HTRANS:2, HSIZE:0, HBURST:0, HPROT:0, HADDR:2147483658, HWDATA:107
# UVM_INFO components/predictor.svh(103) @ 190: uvm_test_top.env_h.scoreboard_h.predictor_h [PREDICTOR] EXPECTED_DATA:  time: 190 HRESETn = 1, HSEL= 2, HWRITE = 1, HTRANS =  2, HSIZE = 0, HBURST = 0, HPROT = 0, HADDR = 2147483658, HWDATA = 107, PREDICTOR_transaction_counter = 5, COMPARATOR_transaction_counter= 2
# my_predictor run phase
# OUTPUT_PHASE_SIGNALS: TIME:200 SENDING OUTPUTS
# UVM_INFO components/outputs_monitor.svh(75) @ 200: uvm_test_top.env_h.passive_agent_h.outputs_monitor_h [uvm_test_top.env_h.passive_agent_h.outputs_monitor_h] OUTPUTS SENT TO THE COMPARATOR
# time:200 send_outputs 
# CONTROL PHASE: TIME:200 ASSIGINING SIGNALS
# DATA_PHASE: TIME:200 ASSIGNING SIGNALS
# DATA_PHASE_WRITE: TIME:200 ASSIGNING SIGNALS
# UVM_INFO components/comparator.svh(77) @ 200: uvm_test_top.env_h.scoreboard_h.comparator_h [COMPARATOR] ACTUAL_SEQ_ITEM RECEIVED:  time: 200 HSEL: 0  HRDATA: 0  HRESP: 0   HREADY: 1, PREDICTOR_transaction_counter = 5, COMPARATOR_transaction_counter= 2
# UVM_INFO components/comparator.svh(82) @ 200: uvm_test_top.env_h.scoreboard_h.comparator_h [SCOREBOARD] PASS
# UVM_INFO components/comparator.svh(70) @ 200: uvm_test_top.env_h.scoreboard_h.comparator_h [COMPARATOR] RUN PHASE
# UVM_INFO components/comparator.svh(74) @ 200: uvm_test_top.env_h.scoreboard_h.comparator_h [COMPARATOR] EXPECTED_SEQ_ITEM RECEIVED:  time: 200 HSEL: 2  HRDATA: 0  HRESP: 0   HREADY: 1, PREDICTOR_transaction_counter = 5, COMPARATOR_transaction_counter= 3
# start of pre_body task
# start of pre_body task
# CREATEDDDDDDDDDDDDDDDDDDDDDDDDDDDDDDDDDDDDDDDDDDDDDDDD
# UVM_INFO components/driver.svh(64) @ 200: uvm_test_top.env_h.active_agent_h.driver_h [uvm_test_top.env_h.active_agent_h.driver_h] DRIVEN_ITEM: time: 200 HRESETn = 1, HSEL= 0, HWRITE = 1, HTRANS =  2, HSIZE = 0, HBURST = 0, HPROT = 0, HADDR = 9, HWDATA = 103, PREDICTOR_transaction_counter = 5, COMPARATOR_transaction_counter= 3
# HWRITE ========================================================== HWRITE = 1
# RECIEVING PHASE: ASSSINGING RANDOMIZED VALUES
# RECIEVING PHASE: TIME: 200 WAITING FOR CONTROL PHASE TO transaction_finished
# UVM_INFO components/predictor.svh(98) @ 200: uvm_test_top.env_h.scoreboard_h.predictor_h [PREDICTOR] WRITTEN_DATA: HRESETn:1, HWRITE:1, HTRANS:2, HSIZE:0, HBURST:0, HPROT:0, HADDR:9, HWDATA:103
# UVM_INFO components/predictor.svh(103) @ 200: uvm_test_top.env_h.scoreboard_h.predictor_h [PREDICTOR] EXPECTED_DATA:  time: 200 HRESETn = 1, HSEL= 0, HWRITE = 1, HTRANS =  2, HSIZE = 0, HBURST = 0, HPROT = 0, HADDR = 9, HWDATA = 103, PREDICTOR_transaction_counter = 6, COMPARATOR_transaction_counter= 3
# my_predictor run phase
# OUTPUT_PHASE_SIGNALS: TIME:210 SENDING OUTPUTS
# UVM_INFO components/outputs_monitor.svh(75) @ 210: uvm_test_top.env_h.passive_agent_h.outputs_monitor_h [uvm_test_top.env_h.passive_agent_h.outputs_monitor_h] OUTPUTS SENT TO THE COMPARATOR
# time:210 send_outputs 
# DATA_PHASE: TIME:210 ASSIGNING SIGNALS
# DATA_PHASE_WRITE: TIME:210 ASSIGNING SIGNALS
# CONTROL PHASE: TIME:210 ASSIGINING SIGNALS
# UVM_INFO components/comparator.svh(77) @ 210: uvm_test_top.env_h.scoreboard_h.comparator_h [COMPARATOR] ACTUAL_SEQ_ITEM RECEIVED:  time: 210 HSEL: 0  HRDATA: 0  HRESP: 0   HREADY: 1, PREDICTOR_transaction_counter = 6, COMPARATOR_transaction_counter= 3
# UVM_INFO components/comparator.svh(82) @ 210: uvm_test_top.env_h.scoreboard_h.comparator_h [SCOREBOARD] PASS
# UVM_INFO components/comparator.svh(70) @ 210: uvm_test_top.env_h.scoreboard_h.comparator_h [COMPARATOR] RUN PHASE
# UVM_INFO components/comparator.svh(74) @ 210: uvm_test_top.env_h.scoreboard_h.comparator_h [COMPARATOR] EXPECTED_SEQ_ITEM RECEIVED:  time: 210 HSEL: 0  HRDATA: 0  HRESP: 0   HREADY: 1, PREDICTOR_transaction_counter = 6, COMPARATOR_transaction_counter= 4
# start of pre_body task
# start of pre_body task
# CREATEDDDDDDDDDDDDDDDDDDDDDDDDDDDDDDDDDDDDDDDDDDDDDDDD
# UVM_INFO components/driver.svh(64) @ 210: uvm_test_top.env_h.active_agent_h.driver_h [uvm_test_top.env_h.active_agent_h.driver_h] DRIVEN_ITEM: time: 210 HRESETn = 1, HSEL= 3, HWRITE = 1, HTRANS =  2, HSIZE = 0, HBURST = 0, HPROT = 0, HADDR = 3221225485, HWDATA = 19, PREDICTOR_transaction_counter = 6, COMPARATOR_transaction_counter= 4
# HWRITE ========================================================== HWRITE = 1
# RECIEVING PHASE: ASSSINGING RANDOMIZED VALUES
# RECIEVING PHASE: TIME: 210 WAITING FOR CONTROL PHASE TO transaction_finished
# UVM_INFO components/predictor.svh(98) @ 210: uvm_test_top.env_h.scoreboard_h.predictor_h [PREDICTOR] WRITTEN_DATA: HRESETn:1, HWRITE:1, HTRANS:2, HSIZE:0, HBURST:0, HPROT:0, HADDR:3221225485, HWDATA:19
# UVM_INFO components/predictor.svh(103) @ 210: uvm_test_top.env_h.scoreboard_h.predictor_h [PREDICTOR] EXPECTED_DATA:  time: 210 HRESETn = 1, HSEL= 3, HWRITE = 1, HTRANS =  2, HSIZE = 0, HBURST = 0, HPROT = 0, HADDR = 3221225485, HWDATA = 19, PREDICTOR_transaction_counter = 7, COMPARATOR_transaction_counter= 4
# my_predictor run phase
# OUTPUT_PHASE_SIGNALS: TIME:220 SENDING OUTPUTS
# UVM_INFO components/outputs_monitor.svh(75) @ 220: uvm_test_top.env_h.passive_agent_h.outputs_monitor_h [uvm_test_top.env_h.passive_agent_h.outputs_monitor_h] OUTPUTS SENT TO THE COMPARATOR
# time:220 send_outputs 
# CONTROL PHASE: TIME:220 ASSIGINING SIGNALS
# DATA_PHASE: TIME:220 ASSIGNING SIGNALS
# DATA_PHASE_WRITE: TIME:220 ASSIGNING SIGNALS
# UVM_INFO components/comparator.svh(77) @ 220: uvm_test_top.env_h.scoreboard_h.comparator_h [COMPARATOR] ACTUAL_SEQ_ITEM RECEIVED:  time: 220 HSEL: 0  HRDATA: 0  HRESP: 0   HREADY: 1, PREDICTOR_transaction_counter = 7, COMPARATOR_transaction_counter= 4
# UVM_ERROR components/comparator.svh(85) @ 220: uvm_test_top.env_h.scoreboard_h.comparator_h [SCOREBOARD] FAIL
# UVM_INFO components/comparator.svh(70) @ 220: uvm_test_top.env_h.scoreboard_h.comparator_h [COMPARATOR] RUN PHASE
# UVM_INFO components/comparator.svh(74) @ 220: uvm_test_top.env_h.scoreboard_h.comparator_h [COMPARATOR] EXPECTED_SEQ_ITEM RECEIVED:  time: 220 HSEL: 3  HRDATA: 0  HRESP: 1   HREADY: 1, PREDICTOR_transaction_counter = 7, COMPARATOR_transaction_counter= 5
# start of pre_body task
# start of pre_body task
# CREATEDDDDDDDDDDDDDDDDDDDDDDDDDDDDDDDDDDDDDDDDDDDDDDDD
# UVM_INFO components/driver.svh(64) @ 220: uvm_test_top.env_h.active_agent_h.driver_h [uvm_test_top.env_h.active_agent_h.driver_h] DRIVEN_ITEM: time: 220 HRESETn = 1, HSEL= 1, HWRITE = 1, HTRANS =  2, HSIZE = 0, HBURST = 0, HPROT = 0, HADDR = 1073741832, HWDATA = 113, PREDICTOR_transaction_counter = 7, COMPARATOR_transaction_counter= 5
# HWRITE ========================================================== HWRITE = 1
# RECIEVING PHASE: ASSSINGING RANDOMIZED VALUES
# RECIEVING PHASE: TIME: 220 WAITING FOR CONTROL PHASE TO transaction_finished
# UVM_INFO components/predictor.svh(98) @ 220: uvm_test_top.env_h.scoreboard_h.predictor_h [PREDICTOR] WRITTEN_DATA: HRESETn:1, HWRITE:1, HTRANS:2, HSIZE:0, HBURST:0, HPROT:0, HADDR:1073741832, HWDATA:113
# UVM_INFO components/predictor.svh(103) @ 220: uvm_test_top.env_h.scoreboard_h.predictor_h [PREDICTOR] EXPECTED_DATA:  time: 220 HRESETn = 1, HSEL= 1, HWRITE = 1, HTRANS =  2, HSIZE = 0, HBURST = 0, HPROT = 0, HADDR = 1073741832, HWDATA = 113, PREDICTOR_transaction_counter = 8, COMPARATOR_transaction_counter= 5
# my_predictor run phase
# OUTPUT_PHASE_SIGNALS: TIME:230 SENDING OUTPUTS
# UVM_INFO components/outputs_monitor.svh(75) @ 230: uvm_test_top.env_h.passive_agent_h.outputs_monitor_h [uvm_test_top.env_h.passive_agent_h.outputs_monitor_h] OUTPUTS SENT TO THE COMPARATOR
# time:230 send_outputs 
# DATA_PHASE: TIME:230 ASSIGNING SIGNALS
# DATA_PHASE_WRITE: TIME:230 ASSIGNING SIGNALS
# CONTROL PHASE: TIME:230 ASSIGINING SIGNALS
# UVM_INFO components/comparator.svh(77) @ 230: uvm_test_top.env_h.scoreboard_h.comparator_h [COMPARATOR] ACTUAL_SEQ_ITEM RECEIVED:  time: 230 HSEL: 0  HRDATA: 0  HRESP: 0   HREADY: 1, PREDICTOR_transaction_counter = 8, COMPARATOR_transaction_counter= 5
# UVM_INFO components/comparator.svh(82) @ 230: uvm_test_top.env_h.scoreboard_h.comparator_h [SCOREBOARD] PASS
# UVM_INFO components/comparator.svh(70) @ 230: uvm_test_top.env_h.scoreboard_h.comparator_h [COMPARATOR] RUN PHASE
# UVM_INFO components/comparator.svh(74) @ 230: uvm_test_top.env_h.scoreboard_h.comparator_h [COMPARATOR] EXPECTED_SEQ_ITEM RECEIVED:  time: 230 HSEL: 1  HRDATA: 0  HRESP: 0   HREADY: 1, PREDICTOR_transaction_counter = 8, COMPARATOR_transaction_counter= 6
# start of pre_body task
# start of pre_body task
# CREATEDDDDDDDDDDDDDDDDDDDDDDDDDDDDDDDDDDDDDDDDDDDDDDDD
# UVM_INFO components/driver.svh(64) @ 230: uvm_test_top.env_h.active_agent_h.driver_h [uvm_test_top.env_h.active_agent_h.driver_h] DRIVEN_ITEM: time: 230 HRESETn = 1, HSEL= 2, HWRITE = 1, HTRANS =  2, HSIZE = 0, HBURST = 0, HPROT = 0, HADDR = 2147483653, HWDATA = 87, PREDICTOR_transaction_counter = 8, COMPARATOR_transaction_counter= 6
# HWRITE ========================================================== HWRITE = 1
# RECIEVING PHASE: ASSSINGING RANDOMIZED VALUES
# RECIEVING PHASE: TIME: 230 WAITING FOR CONTROL PHASE TO transaction_finished
# UVM_INFO components/predictor.svh(98) @ 230: uvm_test_top.env_h.scoreboard_h.predictor_h [PREDICTOR] WRITTEN_DATA: HRESETn:1, HWRITE:1, HTRANS:2, HSIZE:0, HBURST:0, HPROT:0, HADDR:2147483653, HWDATA:87
# UVM_INFO components/predictor.svh(103) @ 230: uvm_test_top.env_h.scoreboard_h.predictor_h [PREDICTOR] EXPECTED_DATA:  time: 230 HRESETn = 1, HSEL= 2, HWRITE = 1, HTRANS =  2, HSIZE = 0, HBURST = 0, HPROT = 0, HADDR = 2147483653, HWDATA = 87, PREDICTOR_transaction_counter = 9, COMPARATOR_transaction_counter= 6
# my_predictor run phase
# OUTPUT_PHASE_SIGNALS: TIME:240 SENDING OUTPUTS
# UVM_INFO components/outputs_monitor.svh(75) @ 240: uvm_test_top.env_h.passive_agent_h.outputs_monitor_h [uvm_test_top.env_h.passive_agent_h.outputs_monitor_h] OUTPUTS SENT TO THE COMPARATOR
# time:240 send_outputs 
# CONTROL PHASE: TIME:240 ASSIGINING SIGNALS
# DATA_PHASE: TIME:240 ASSIGNING SIGNALS
# DATA_PHASE_WRITE: TIME:240 ASSIGNING SIGNALS
# UVM_INFO components/comparator.svh(77) @ 240: uvm_test_top.env_h.scoreboard_h.comparator_h [COMPARATOR] ACTUAL_SEQ_ITEM RECEIVED:  time: 240 HSEL: 0  HRDATA: 0  HRESP: 0   HREADY: 1, PREDICTOR_transaction_counter = 9, COMPARATOR_transaction_counter= 6
# UVM_INFO components/comparator.svh(82) @ 240: uvm_test_top.env_h.scoreboard_h.comparator_h [SCOREBOARD] PASS
# UVM_INFO components/comparator.svh(70) @ 240: uvm_test_top.env_h.scoreboard_h.comparator_h [COMPARATOR] RUN PHASE
# UVM_INFO components/comparator.svh(74) @ 240: uvm_test_top.env_h.scoreboard_h.comparator_h [COMPARATOR] EXPECTED_SEQ_ITEM RECEIVED:  time: 240 HSEL: 2  HRDATA: 0  HRESP: 0   HREADY: 1, PREDICTOR_transaction_counter = 9, COMPARATOR_transaction_counter= 7
# start of pre_body task
# start of pre_body task
# CREATEDDDDDDDDDDDDDDDDDDDDDDDDDDDDDDDDDDDDDDDDDDDDDDDD
# UVM_INFO components/driver.svh(64) @ 240: uvm_test_top.env_h.active_agent_h.driver_h [uvm_test_top.env_h.active_agent_h.driver_h] DRIVEN_ITEM: time: 240 HRESETn = 1, HSEL= 3, HWRITE = 1, HTRANS =  2, HSIZE = 0, HBURST = 0, HPROT = 0, HADDR = 3221225478, HWDATA = 159, PREDICTOR_transaction_counter = 9, COMPARATOR_transaction_counter= 7
# HWRITE ========================================================== HWRITE = 1
# RECIEVING PHASE: ASSSINGING RANDOMIZED VALUES
# RECIEVING PHASE: TIME: 240 WAITING FOR CONTROL PHASE TO transaction_finished
# UVM_INFO components/predictor.svh(98) @ 240: uvm_test_top.env_h.scoreboard_h.predictor_h [PREDICTOR] WRITTEN_DATA: HRESETn:1, HWRITE:1, HTRANS:2, HSIZE:0, HBURST:0, HPROT:0, HADDR:3221225478, HWDATA:159
# UVM_INFO components/predictor.svh(103) @ 240: uvm_test_top.env_h.scoreboard_h.predictor_h [PREDICTOR] EXPECTED_DATA:  time: 240 HRESETn = 1, HSEL= 3, HWRITE = 1, HTRANS =  2, HSIZE = 0, HBURST = 0, HPROT = 0, HADDR = 3221225478, HWDATA = 159, PREDICTOR_transaction_counter = 10, COMPARATOR_transaction_counter= 7
# my_predictor run phase
# OUTPUT_PHASE_SIGNALS: TIME:250 SENDING OUTPUTS
# UVM_INFO components/outputs_monitor.svh(75) @ 250: uvm_test_top.env_h.passive_agent_h.outputs_monitor_h [uvm_test_top.env_h.passive_agent_h.outputs_monitor_h] OUTPUTS SENT TO THE COMPARATOR
# time:250 send_outputs 
# DATA_PHASE: TIME:250 ASSIGNING SIGNALS
# DATA_PHASE_WRITE: TIME:250 ASSIGNING SIGNALS
# CONTROL PHASE: TIME:250 ASSIGINING SIGNALS
# UVM_INFO components/comparator.svh(77) @ 250: uvm_test_top.env_h.scoreboard_h.comparator_h [COMPARATOR] ACTUAL_SEQ_ITEM RECEIVED:  time: 250 HSEL: 0  HRDATA: 0  HRESP: 0   HREADY: 1, PREDICTOR_transaction_counter = 10, COMPARATOR_transaction_counter= 7
# UVM_ERROR components/comparator.svh(85) @ 250: uvm_test_top.env_h.scoreboard_h.comparator_h [SCOREBOARD] FAIL
# UVM_INFO components/comparator.svh(70) @ 250: uvm_test_top.env_h.scoreboard_h.comparator_h [COMPARATOR] RUN PHASE
# UVM_INFO components/comparator.svh(74) @ 250: uvm_test_top.env_h.scoreboard_h.comparator_h [COMPARATOR] EXPECTED_SEQ_ITEM RECEIVED:  time: 250 HSEL: 3  HRDATA: 0  HRESP: 1   HREADY: 1, PREDICTOR_transaction_counter = 10, COMPARATOR_transaction_counter= 8
# start of pre_body task
# start of pre_body task
# CREATEDDDDDDDDDDDDDDDDDDDDDDDDDDDDDDDDDDDDDDDDDDDDDDDD
# UVM_INFO components/driver.svh(64) @ 250: uvm_test_top.env_h.active_agent_h.driver_h [uvm_test_top.env_h.active_agent_h.driver_h] DRIVEN_ITEM: time: 250 HRESETn = 1, HSEL= 1, HWRITE = 1, HTRANS =  2, HSIZE = 0, HBURST = 0, HPROT = 0, HADDR = 1073741835, HWDATA = 210, PREDICTOR_transaction_counter = 10, COMPARATOR_transaction_counter= 8
# HWRITE ========================================================== HWRITE = 1
# RECIEVING PHASE: ASSSINGING RANDOMIZED VALUES
# RECIEVING PHASE: TIME: 250 WAITING FOR CONTROL PHASE TO transaction_finished
# UVM_INFO components/predictor.svh(98) @ 250: uvm_test_top.env_h.scoreboard_h.predictor_h [PREDICTOR] WRITTEN_DATA: HRESETn:1, HWRITE:1, HTRANS:2, HSIZE:0, HBURST:0, HPROT:0, HADDR:1073741835, HWDATA:210
# UVM_INFO components/predictor.svh(103) @ 250: uvm_test_top.env_h.scoreboard_h.predictor_h [PREDICTOR] EXPECTED_DATA:  time: 250 HRESETn = 1, HSEL= 1, HWRITE = 1, HTRANS =  2, HSIZE = 0, HBURST = 0, HPROT = 0, HADDR = 1073741835, HWDATA = 210, PREDICTOR_transaction_counter = 11, COMPARATOR_transaction_counter= 8
# my_predictor run phase
# OUTPUT_PHASE_SIGNALS: TIME:260 SENDING OUTPUTS
# UVM_INFO components/outputs_monitor.svh(75) @ 260: uvm_test_top.env_h.passive_agent_h.outputs_monitor_h [uvm_test_top.env_h.passive_agent_h.outputs_monitor_h] OUTPUTS SENT TO THE COMPARATOR
# time:260 send_outputs 
# CONTROL PHASE: TIME:260 ASSIGINING SIGNALS
# DATA_PHASE: TIME:260 ASSIGNING SIGNALS
# DATA_PHASE_WRITE: TIME:260 ASSIGNING SIGNALS
# UVM_INFO components/comparator.svh(77) @ 260: uvm_test_top.env_h.scoreboard_h.comparator_h [COMPARATOR] ACTUAL_SEQ_ITEM RECEIVED:  time: 260 HSEL: 0  HRDATA: 0  HRESP: 0   HREADY: 1, PREDICTOR_transaction_counter = 11, COMPARATOR_transaction_counter= 8
# UVM_INFO components/comparator.svh(82) @ 260: uvm_test_top.env_h.scoreboard_h.comparator_h [SCOREBOARD] PASS
# UVM_INFO components/comparator.svh(70) @ 260: uvm_test_top.env_h.scoreboard_h.comparator_h [COMPARATOR] RUN PHASE
# UVM_INFO components/comparator.svh(74) @ 260: uvm_test_top.env_h.scoreboard_h.comparator_h [COMPARATOR] EXPECTED_SEQ_ITEM RECEIVED:  time: 260 HSEL: 1  HRDATA: 0  HRESP: 0   HREADY: 1, PREDICTOR_transaction_counter = 11, COMPARATOR_transaction_counter= 9
# CREATEDDDDDDDDDDDDDDDDDDDDDDDDDDDDDDDDDDDDDDDDDDDDDDDD
# UVM_INFO components/driver.svh(64) @ 260: uvm_test_top.env_h.active_agent_h.driver_h [uvm_test_top.env_h.active_agent_h.driver_h] DRIVEN_ITEM: time: 260 HRESETn = 1, HSEL= 1, HWRITE = 1, HTRANS =  2, HSIZE = 0, HBURST = 3, HPROT = 0, HADDR = 1073741839, HWDATA = 172, PREDICTOR_transaction_counter = 11, COMPARATOR_transaction_counter= 9
# HWRITE ========================================================== HWRITE = 1
# RECIEVING PHASE: ASSSINGING RANDOMIZED VALUES
# RECIEVING PHASE: TIME: 260 WAITING FOR CONTROL PHASE TO transaction_finished
# UVM_INFO components/predictor.svh(98) @ 260: uvm_test_top.env_h.scoreboard_h.predictor_h [PREDICTOR] WRITTEN_DATA: HRESETn:1, HWRITE:1, HTRANS:2, HSIZE:0, HBURST:3, HPROT:0, HADDR:1073741839, HWDATA:172
# UVM_INFO components/predictor.svh(103) @ 260: uvm_test_top.env_h.scoreboard_h.predictor_h [PREDICTOR] EXPECTED_DATA:  time: 260 HRESETn = 1, HSEL= 1, HWRITE = 1, HTRANS =  2, HSIZE = 0, HBURST = 3, HPROT = 0, HADDR = 1073741839, HWDATA = 172, PREDICTOR_transaction_counter = 12, COMPARATOR_transaction_counter= 9
# my_predictor run phase
# OUTPUT_PHASE_SIGNALS: TIME:270 SENDING OUTPUTS
# UVM_INFO components/outputs_monitor.svh(75) @ 270: uvm_test_top.env_h.passive_agent_h.outputs_monitor_h [uvm_test_top.env_h.passive_agent_h.outputs_monitor_h] OUTPUTS SENT TO THE COMPARATOR
# time:270 send_outputs 
# DATA_PHASE: TIME:270 ASSIGNING SIGNALS
# DATA_PHASE_WRITE: TIME:270 ASSIGNING SIGNALS
# CONTROL PHASE: TIME:270 ASSIGINING SIGNALS
# UVM_INFO components/comparator.svh(77) @ 270: uvm_test_top.env_h.scoreboard_h.comparator_h [COMPARATOR] ACTUAL_SEQ_ITEM RECEIVED:  time: 270 HSEL: 0  HRDATA: 0  HRESP: 0   HREADY: 1, PREDICTOR_transaction_counter = 12, COMPARATOR_transaction_counter= 9
# UVM_INFO components/comparator.svh(82) @ 270: uvm_test_top.env_h.scoreboard_h.comparator_h [SCOREBOARD] PASS
# UVM_INFO components/comparator.svh(70) @ 270: uvm_test_top.env_h.scoreboard_h.comparator_h [COMPARATOR] RUN PHASE
# UVM_INFO components/comparator.svh(74) @ 270: uvm_test_top.env_h.scoreboard_h.comparator_h [COMPARATOR] EXPECTED_SEQ_ITEM RECEIVED:  time: 270 HSEL: 1  HRDATA: 0  HRESP: 0   HREADY: 1, PREDICTOR_transaction_counter = 12, COMPARATOR_transaction_counter= 10
# CREATEDDDDDDDDDDDDDDDDDDDDDDDDDDDDDDDDDDDDDDDDDDDDDDDD
# UVM_INFO components/driver.svh(64) @ 270: uvm_test_top.env_h.active_agent_h.driver_h [uvm_test_top.env_h.active_agent_h.driver_h] DRIVEN_ITEM: time: 270 HRESETn = 1, HSEL= 1, HWRITE = 1, HTRANS =  3, HSIZE = 0, HBURST = 3, HPROT = 0, HADDR = 1073741839, HWDATA = 99, PREDICTOR_transaction_counter = 12, COMPARATOR_transaction_counter= 10
# HWRITE ========================================================== HWRITE = 1
# RECIEVING PHASE: ASSSINGING RANDOMIZED VALUES
# RECIEVING PHASE: TIME: 270 WAITING FOR CONTROL PHASE TO transaction_finished
# UVM_INFO components/predictor.svh(98) @ 270: uvm_test_top.env_h.scoreboard_h.predictor_h [PREDICTOR] WRITTEN_DATA: HRESETn:1, HWRITE:1, HTRANS:3, HSIZE:0, HBURST:3, HPROT:0, HADDR:1073741839, HWDATA:99
# UVM_INFO components/predictor.svh(103) @ 270: uvm_test_top.env_h.scoreboard_h.predictor_h [PREDICTOR] EXPECTED_DATA:  time: 270 HRESETn = 1, HSEL= 1, HWRITE = 1, HTRANS =  3, HSIZE = 0, HBURST = 3, HPROT = 0, HADDR = 1073741839, HWDATA = 99, PREDICTOR_transaction_counter = 13, COMPARATOR_transaction_counter= 10
# my_predictor run phase
# OUTPUT_PHASE_SIGNALS: TIME:280 SENDING OUTPUTS
# UVM_INFO components/outputs_monitor.svh(75) @ 280: uvm_test_top.env_h.passive_agent_h.outputs_monitor_h [uvm_test_top.env_h.passive_agent_h.outputs_monitor_h] OUTPUTS SENT TO THE COMPARATOR
# time:280 send_outputs 
# CONTROL PHASE: TIME:280 ASSIGINING SIGNALS
# DATA_PHASE: TIME:280 ASSIGNING SIGNALS
# DATA_PHASE_WRITE: TIME:280 ASSIGNING SIGNALS
# UVM_INFO components/comparator.svh(77) @ 280: uvm_test_top.env_h.scoreboard_h.comparator_h [COMPARATOR] ACTUAL_SEQ_ITEM RECEIVED:  time: 280 HSEL: 0  HRDATA: 0  HRESP: 0   HREADY: 1, PREDICTOR_transaction_counter = 13, COMPARATOR_transaction_counter= 10
# UVM_INFO components/comparator.svh(82) @ 280: uvm_test_top.env_h.scoreboard_h.comparator_h [SCOREBOARD] PASS
# UVM_INFO components/comparator.svh(70) @ 280: uvm_test_top.env_h.scoreboard_h.comparator_h [COMPARATOR] RUN PHASE
# UVM_INFO components/comparator.svh(74) @ 280: uvm_test_top.env_h.scoreboard_h.comparator_h [COMPARATOR] EXPECTED_SEQ_ITEM RECEIVED:  time: 280 HSEL: 1  HRDATA: 0  HRESP: 0   HREADY: 1, PREDICTOR_transaction_counter = 13, COMPARATOR_transaction_counter= 11
# CREATEDDDDDDDDDDDDDDDDDDDDDDDDDDDDDDDDDDDDDDDDDDDDDDDD
# UVM_INFO components/driver.svh(64) @ 280: uvm_test_top.env_h.active_agent_h.driver_h [uvm_test_top.env_h.active_agent_h.driver_h] DRIVEN_ITEM: time: 280 HRESETn = 1, HSEL= 1, HWRITE = 1, HTRANS =  3, HSIZE = 0, HBURST = 3, HPROT = 0, HADDR = 1073741839, HWDATA = 34, PREDICTOR_transaction_counter = 13, COMPARATOR_transaction_counter= 11
# HWRITE ========================================================== HWRITE = 1
# RECIEVING PHASE: ASSSINGING RANDOMIZED VALUES
# RECIEVING PHASE: TIME: 280 WAITING FOR CONTROL PHASE TO transaction_finished
# UVM_INFO components/predictor.svh(98) @ 280: uvm_test_top.env_h.scoreboard_h.predictor_h [PREDICTOR] WRITTEN_DATA: HRESETn:1, HWRITE:1, HTRANS:3, HSIZE:0, HBURST:3, HPROT:0, HADDR:1073741839, HWDATA:34
# UVM_INFO components/predictor.svh(103) @ 280: uvm_test_top.env_h.scoreboard_h.predictor_h [PREDICTOR] EXPECTED_DATA:  time: 280 HRESETn = 1, HSEL= 1, HWRITE = 1, HTRANS =  3, HSIZE = 0, HBURST = 3, HPROT = 0, HADDR = 1073741839, HWDATA = 34, PREDICTOR_transaction_counter = 14, COMPARATOR_transaction_counter= 11
# my_predictor run phase
# OUTPUT_PHASE_SIGNALS: TIME:290 SENDING OUTPUTS
# UVM_INFO components/outputs_monitor.svh(75) @ 290: uvm_test_top.env_h.passive_agent_h.outputs_monitor_h [uvm_test_top.env_h.passive_agent_h.outputs_monitor_h] OUTPUTS SENT TO THE COMPARATOR
# time:290 send_outputs 
# DATA_PHASE: TIME:290 ASSIGNING SIGNALS
# DATA_PHASE_WRITE: TIME:290 ASSIGNING SIGNALS
# CONTROL PHASE: TIME:290 ASSIGINING SIGNALS
# UVM_INFO components/comparator.svh(77) @ 290: uvm_test_top.env_h.scoreboard_h.comparator_h [COMPARATOR] ACTUAL_SEQ_ITEM RECEIVED:  time: 290 HSEL: 0  HRDATA: 0  HRESP: 0   HREADY: 1, PREDICTOR_transaction_counter = 14, COMPARATOR_transaction_counter= 11
# UVM_INFO components/comparator.svh(82) @ 290: uvm_test_top.env_h.scoreboard_h.comparator_h [SCOREBOARD] PASS
# UVM_INFO components/comparator.svh(70) @ 290: uvm_test_top.env_h.scoreboard_h.comparator_h [COMPARATOR] RUN PHASE
# UVM_INFO components/comparator.svh(74) @ 290: uvm_test_top.env_h.scoreboard_h.comparator_h [COMPARATOR] EXPECTED_SEQ_ITEM RECEIVED:  time: 290 HSEL: 1  HRDATA: 0  HRESP: 0   HREADY: 1, PREDICTOR_transaction_counter = 14, COMPARATOR_transaction_counter= 12
# CREATEDDDDDDDDDDDDDDDDDDDDDDDDDDDDDDDDDDDDDDDDDDDDDDDD
# UVM_INFO components/driver.svh(64) @ 290: uvm_test_top.env_h.active_agent_h.driver_h [uvm_test_top.env_h.active_agent_h.driver_h] DRIVEN_ITEM: time: 290 HRESETn = 1, HSEL= 1, HWRITE = 1, HTRANS =  3, HSIZE = 0, HBURST = 3, HPROT = 0, HADDR = 1073741839, HWDATA = 104, PREDICTOR_transaction_counter = 14, COMPARATOR_transaction_counter= 12
# HWRITE ========================================================== HWRITE = 1
# RECIEVING PHASE: ASSSINGING RANDOMIZED VALUES
# RECIEVING PHASE: TIME: 290 WAITING FOR CONTROL PHASE TO transaction_finished
# UVM_INFO components/predictor.svh(98) @ 290: uvm_test_top.env_h.scoreboard_h.predictor_h [PREDICTOR] WRITTEN_DATA: HRESETn:1, HWRITE:1, HTRANS:3, HSIZE:0, HBURST:3, HPROT:0, HADDR:1073741839, HWDATA:104
# UVM_INFO components/predictor.svh(103) @ 290: uvm_test_top.env_h.scoreboard_h.predictor_h [PREDICTOR] EXPECTED_DATA:  time: 290 HRESETn = 1, HSEL= 1, HWRITE = 1, HTRANS =  3, HSIZE = 0, HBURST = 3, HPROT = 0, HADDR = 1073741839, HWDATA = 104, PREDICTOR_transaction_counter = 15, COMPARATOR_transaction_counter= 12
# my_predictor run phase
# OUTPUT_PHASE_SIGNALS: TIME:300 SENDING OUTPUTS
# UVM_INFO components/outputs_monitor.svh(75) @ 300: uvm_test_top.env_h.passive_agent_h.outputs_monitor_h [uvm_test_top.env_h.passive_agent_h.outputs_monitor_h] OUTPUTS SENT TO THE COMPARATOR
# time:300 send_outputs 
# CONTROL PHASE: TIME:300 ASSIGINING SIGNALS
# DATA_PHASE: TIME:300 ASSIGNING SIGNALS
# DATA_PHASE_WRITE: TIME:300 ASSIGNING SIGNALS
# UVM_INFO components/comparator.svh(77) @ 300: uvm_test_top.env_h.scoreboard_h.comparator_h [COMPARATOR] ACTUAL_SEQ_ITEM RECEIVED:  time: 300 HSEL: 0  HRDATA: 0  HRESP: 0   HREADY: 1, PREDICTOR_transaction_counter = 15, COMPARATOR_transaction_counter= 12
# UVM_INFO components/comparator.svh(82) @ 300: uvm_test_top.env_h.scoreboard_h.comparator_h [SCOREBOARD] PASS
# UVM_INFO components/comparator.svh(70) @ 300: uvm_test_top.env_h.scoreboard_h.comparator_h [COMPARATOR] RUN PHASE
# UVM_INFO components/comparator.svh(74) @ 300: uvm_test_top.env_h.scoreboard_h.comparator_h [COMPARATOR] EXPECTED_SEQ_ITEM RECEIVED:  time: 300 HSEL: 1  HRDATA: 0  HRESP: 0   HREADY: 1, PREDICTOR_transaction_counter = 15, COMPARATOR_transaction_counter= 13
# CREATEDDDDDDDDDDDDDDDDDDDDDDDDDDDDDDDDDDDDDDDDDDDDDDDD
# UVM_INFO components/driver.svh(64) @ 300: uvm_test_top.env_h.active_agent_h.driver_h [uvm_test_top.env_h.active_agent_h.driver_h] DRIVEN_ITEM: time: 300 HRESETn = 1, HSEL= 1, HWRITE = 1, HTRANS =  3, HSIZE = 0, HBURST = 3, HPROT = 0, HADDR = 1073741839, HWDATA = 104, PREDICTOR_transaction_counter = 15, COMPARATOR_transaction_counter= 13
# HWRITE ========================================================== HWRITE = 1
# RECIEVING PHASE: ASSSINGING RANDOMIZED VALUES
# RECIEVING PHASE: TIME: 300 WAITING FOR CONTROL PHASE TO transaction_finished
# UVM_INFO components/predictor.svh(98) @ 300: uvm_test_top.env_h.scoreboard_h.predictor_h [PREDICTOR] WRITTEN_DATA: HRESETn:1, HWRITE:1, HTRANS:3, HSIZE:0, HBURST:3, HPROT:0, HADDR:1073741839, HWDATA:104
# UVM_INFO components/predictor.svh(103) @ 300: uvm_test_top.env_h.scoreboard_h.predictor_h [PREDICTOR] EXPECTED_DATA:  time: 300 HRESETn = 1, HSEL= 1, HWRITE = 1, HTRANS =  3, HSIZE = 0, HBURST = 3, HPROT = 0, HADDR = 1073741839, HWDATA = 104, PREDICTOR_transaction_counter = 16, COMPARATOR_transaction_counter= 13
# my_predictor run phase
# OUTPUT_PHASE_SIGNALS: TIME:310 SENDING OUTPUTS
# UVM_INFO components/outputs_monitor.svh(75) @ 310: uvm_test_top.env_h.passive_agent_h.outputs_monitor_h [uvm_test_top.env_h.passive_agent_h.outputs_monitor_h] OUTPUTS SENT TO THE COMPARATOR
# time:310 send_outputs 
# DATA_PHASE: TIME:310 ASSIGNING SIGNALS
# DATA_PHASE_WRITE: TIME:310 ASSIGNING SIGNALS
# CONTROL PHASE: TIME:310 ASSIGINING SIGNALS
# UVM_INFO components/comparator.svh(77) @ 310: uvm_test_top.env_h.scoreboard_h.comparator_h [COMPARATOR] ACTUAL_SEQ_ITEM RECEIVED:  time: 310 HSEL: 0  HRDATA: 0  HRESP: 0   HREADY: 1, PREDICTOR_transaction_counter = 16, COMPARATOR_transaction_counter= 13
# UVM_INFO components/comparator.svh(82) @ 310: uvm_test_top.env_h.scoreboard_h.comparator_h [SCOREBOARD] PASS
# UVM_INFO components/comparator.svh(70) @ 310: uvm_test_top.env_h.scoreboard_h.comparator_h [COMPARATOR] RUN PHASE
# UVM_INFO components/comparator.svh(74) @ 310: uvm_test_top.env_h.scoreboard_h.comparator_h [COMPARATOR] EXPECTED_SEQ_ITEM RECEIVED:  time: 310 HSEL: 1  HRDATA: 0  HRESP: 0   HREADY: 1, PREDICTOR_transaction_counter = 16, COMPARATOR_transaction_counter= 14
# start of pre_body task
# start of pre_body task
# CREATEDDDDDDDDDDDDDDDDDDDDDDDDDDDDDDDDDDDDDDDDDDDDDDDD
# UVM_INFO components/driver.svh(64) @ 310: uvm_test_top.env_h.active_agent_h.driver_h [uvm_test_top.env_h.active_agent_h.driver_h] DRIVEN_ITEM: time: 310 HRESETn = 1, HSEL= 1, HWRITE = 1, HTRANS =  2, HSIZE = 0, HBURST = 0, HPROT = 0, HADDR = 1073741837, HWDATA = 52, PREDICTOR_transaction_counter = 16, COMPARATOR_transaction_counter= 14
# HWRITE ========================================================== HWRITE = 1
# RECIEVING PHASE: ASSSINGING RANDOMIZED VALUES
# RECIEVING PHASE: TIME: 310 WAITING FOR COUNTERS ~~~~~~~~~~~~~~~~~~~~~~~~~~~~~~~~~~~~~~~~~~~~~~~~~~~~~~~
# UVM_INFO components/predictor.svh(98) @ 310: uvm_test_top.env_h.scoreboard_h.predictor_h [PREDICTOR] WRITTEN_DATA: HRESETn:1, HWRITE:1, HTRANS:2, HSIZE:0, HBURST:0, HPROT:0, HADDR:1073741837, HWDATA:52
# UVM_INFO components/predictor.svh(103) @ 310: uvm_test_top.env_h.scoreboard_h.predictor_h [PREDICTOR] EXPECTED_DATA:  time: 310 HRESETn = 1, HSEL= 1, HWRITE = 1, HTRANS =  2, HSIZE = 0, HBURST = 0, HPROT = 0, HADDR = 1073741837, HWDATA = 52, PREDICTOR_transaction_counter = 17, COMPARATOR_transaction_counter= 14
# my_predictor run phase
# OUTPUT_PHASE_SIGNALS: TIME:320 SENDING OUTPUTS
# UVM_INFO components/outputs_monitor.svh(75) @ 320: uvm_test_top.env_h.passive_agent_h.outputs_monitor_h [uvm_test_top.env_h.passive_agent_h.outputs_monitor_h] OUTPUTS SENT TO THE COMPARATOR
# time:320 send_outputs 
# CONTROL PHASE: TIME:320 ASSIGINING SIGNALS
# DATA_PHASE: TIME:320 ASSIGNING SIGNALS
# DATA_PHASE_WRITE: TIME:320 ASSIGNING SIGNALS
# UVM_INFO components/comparator.svh(77) @ 320: uvm_test_top.env_h.scoreboard_h.comparator_h [COMPARATOR] ACTUAL_SEQ_ITEM RECEIVED:  time: 320 HSEL: 0  HRDATA: 0  HRESP: 1   HREADY: 1, PREDICTOR_transaction_counter = 17, COMPARATOR_transaction_counter= 14
# UVM_ERROR components/comparator.svh(85) @ 320: uvm_test_top.env_h.scoreboard_h.comparator_h [SCOREBOARD] FAIL
# UVM_INFO components/comparator.svh(70) @ 320: uvm_test_top.env_h.scoreboard_h.comparator_h [COMPARATOR] RUN PHASE
# UVM_INFO components/comparator.svh(74) @ 320: uvm_test_top.env_h.scoreboard_h.comparator_h [COMPARATOR] EXPECTED_SEQ_ITEM RECEIVED:  time: 320 HSEL: 1  HRDATA: 0  HRESP: 0   HREADY: 1, PREDICTOR_transaction_counter = 17, COMPARATOR_transaction_counter= 15
# OUTPUT_PHASE_SIGNALS: TIME:330 SENDING OUTPUTS
# UVM_INFO components/outputs_monitor.svh(75) @ 330: uvm_test_top.env_h.passive_agent_h.outputs_monitor_h [uvm_test_top.env_h.passive_agent_h.outputs_monitor_h] OUTPUTS SENT TO THE COMPARATOR
# time:330 send_outputs 
# DATA_PHASE: TIME:330 ASSIGNING SIGNALS
# DATA_PHASE_WRITE: TIME:330 ASSIGNING SIGNALS
# UVM_INFO components/comparator.svh(77) @ 330: uvm_test_top.env_h.scoreboard_h.comparator_h [COMPARATOR] ACTUAL_SEQ_ITEM RECEIVED:  time: 330 HSEL: 0  HRDATA: 0  HRESP: 1   HREADY: 1, PREDICTOR_transaction_counter = 17, COMPARATOR_transaction_counter= 15
# UVM_ERROR components/comparator.svh(85) @ 330: uvm_test_top.env_h.scoreboard_h.comparator_h [SCOREBOARD] FAIL
# UVM_INFO components/comparator.svh(70) @ 330: uvm_test_top.env_h.scoreboard_h.comparator_h [COMPARATOR] RUN PHASE
# UVM_INFO components/comparator.svh(74) @ 330: uvm_test_top.env_h.scoreboard_h.comparator_h [COMPARATOR] EXPECTED_SEQ_ITEM RECEIVED:  time: 330 HSEL: 1  HRDATA: 0  HRESP: 0   HREADY: 1, PREDICTOR_transaction_counter = 17, COMPARATOR_transaction_counter= 16
# OUTPUT_PHASE_SIGNALS: TIME:340 SENDING OUTPUTS
# UVM_INFO components/outputs_monitor.svh(75) @ 340: uvm_test_top.env_h.passive_agent_h.outputs_monitor_h [uvm_test_top.env_h.passive_agent_h.outputs_monitor_h] OUTPUTS SENT TO THE COMPARATOR
# time:340 send_outputs 
# DATA_PHASE: TIME:340 ASSIGNING SIGNALS
# UVM_INFO components/comparator.svh(77) @ 340: uvm_test_top.env_h.scoreboard_h.comparator_h [COMPARATOR] ACTUAL_SEQ_ITEM RECEIVED:  time: 340 HSEL: 0  HRDATA: 0  HRESP: 0   HREADY: 0, PREDICTOR_transaction_counter = 17, COMPARATOR_transaction_counter= 16
# UVM_INFO components/comparator.svh(82) @ 340: uvm_test_top.env_h.scoreboard_h.comparator_h [SCOREBOARD] PASS
# UVM_INFO components/comparator.svh(70) @ 340: uvm_test_top.env_h.scoreboard_h.comparator_h [COMPARATOR] RUN PHASE
# my_test run phase
# UVM_INFO verilog_src/uvm-1.1d/src/base/uvm_objection.svh(1267) @ 340: reporter [TEST_DONE] 'run' phase is ready to proceed to the 'extract' phase
# -------------------------------------------------------------------------------------------------------------------------------------------------------------
# INCORRECT FLAG ASSERTION/DEASSERTION COUNTER = 0
# CORRECT FLAG ASSERTION/DEASSERTION COUNTER = 0
# -------------------------------------------------------------------------------------------------------------------------------------------------------------
# UVM_INFO components/scoreboard.svh(63) @ 340: uvm_test_top.env_h.scoreboard_h [SCOREBOARD] Scoreboard is stopping.
# 
# --- UVM Report Summary ---
# 
# ** Report counts by severity
# UVM_INFO :  149
# UVM_WARNING :    0
# UVM_ERROR :    4
# UVM_FATAL :    0
# ** Report counts by id
# [COMPARATOR]    52
# [PREDICTOR]    34
# [Questa UVM]     2
# [RNTST]     1
# [SCOREBOARD]    20
# [SEQUENCER]     3
# [TEST_DONE]     1
# [env_h]     6
# [uvm_test_top.env_h.active_agent_h.driver_h]    17
# [uvm_test_top.env_h.passive_agent_h.outputs_monitor_h]    17
# ** Note: $finish    : F:/questasim/questasim64_2021.1/win64/../verilog_src/uvm-1.1d/src/base/uvm_root.svh(430)
#    Time: 340 ns  Iteration: 68  Instance: /top_test_uvm
# 1
# Break in Task uvm_pkg/uvm_root::run_test at F:/questasim/questasim64_2021.1/win64/../verilog_src/uvm-1.1d/src/base/uvm_root.svh line 430
do run.do
# Error 31: Unable to unlink file "F:/ic_design/repos/AHB_LITE/dv/work/top_optimized/_lib.qdb".
# Error 31: Unable to unlink file "F:/ic_design/repos/AHB_LITE/dv/work/top_optimized/_lib3_0.qdb".
# Error 31: Unable to unlink file "F:/ic_design/repos/AHB_LITE/dv/work/top_optimized/_lib3_0.qpg".
# Error 31: Unable to unlink file "F:/ic_design/repos/AHB_LITE/dv/work/top_optimized/_lib3_0.qtl".
# Error 133: Unable to remove directory "F:/ic_design/repos/AHB_LITE/dv/work/top_optimized".
# Error 133: Unable to remove directory "F:/ic_design/repos/AHB_LITE/dv/work".
# QuestaSim-64 vlog 2021.1 Compiler 2021.01 Jan 19 2021
# Start time: 03:12:43 on Oct 13,2024
# vlog -reportprogress 300 -f dut.f "+cover" -covercells 
# -- Compiling module ahb_default_slave
# -- Compiling module ahb_slave
# -- Compiling module ahb_mux
# -- Compiling module ahb_decoder
# -- Compiling module ahb_lite
# 
# Top level modules:
# 	ahb_lite
# End time: 03:12:43 on Oct 13,2024, Elapsed time: 0:00:00
# Errors: 0, Warnings: 0
# QuestaSim-64 vlog 2021.1 Compiler 2021.01 Jan 19 2021
# Start time: 03:12:43 on Oct 13,2024
# vlog -reportprogress 300 -f tb.f "+cover" -covercells 
# -- Compiling package AHB_pkg
# -- Importing package mtiUvm.uvm_pkg (uvm-1.1d Built-in)
# ** Note: (vlog-2286) AHB_lite_uvm_pkg.sv(4): Using implicit +incdir+F:/questasim/questasim64_2021.1/uvm-1.1d/../verilog_src/uvm-1.1d/src from import uvm_pkg
# -- Compiling interface inf
# -- Importing package AHB_pkg
# -- Compiling module top_test_uvm
# 
# Top level modules:
# 	top_test_uvm
# End time: 03:12:44 on Oct 13,2024, Elapsed time: 0:00:01
# Errors: 0, Warnings: 0
# QuestaSim-64 vopt 2021.1 Compiler 2021.01 Jan 19 2021
# Start time: 03:12:45 on Oct 13,2024
# vopt -reportprogress 300 top_test_uvm -o top_optimized "+acc" "+cover=bcefsx+ahb_lite(rtl)" 
# ** Warning: (vopt-31) Unable to unlink file "F:/ic_design/repos/AHB_LITE/dv/work/top_optimized/_lib.qdb".
# ** Warning: (vopt-133) Unable to remove directory "F:/ic_design/repos/AHB_LITE/dv/work/top_optimized".
# 
# Top level modules:
# 	top_test_uvm
# 
# Analyzing design...
# -- Loading module top_test_uvm
# -- Importing package mtiUvm.uvm_pkg (uvm-1.1d Built-in)
# -- Importing package AHB_pkg
# -- Loading package mtiUvm.questa_uvm_pkg
# -- Loading interface inf
# -- Loading module ahb_lite
# -- Loading module ahb_decoder
# -- Loading module ahb_mux
# -- Loading module ahb_default_slave
# -- Loading module ahb_slave
# init_auxdbinfo(): INTERNAL ERROR: Cannot open page file "F:/ic_design/repos/AHB_LITE/dv/work/top_optimized/_lib1_0.qpg" in read mode
# Optimizing 11 design-units (inlining 0/9 module instances):
# -- Optimizing package mtiUvm.uvm_pkg (uvm-1.1d Built-in)(fast)
# -- Optimizing package mtiUvm.questa_uvm_pkg(fast)
# -- Optimizing package AHB_pkg(fast)
# -- Optimizing interface inf(fast__2)
# -- Optimizing module ahb_slave(fast)
# -- Optimizing module ahb_mux(fast)
# -- Optimizing module ahb_lite(fast)
# -- Optimizing module ahb_decoder(fast)
# -- Optimizing module ahb_default_slave(fast)
# -- Optimizing module top_test_uvm(fast)
# -- Optimizing interface inf(fast)
# Optimized design name is top_optimized
# End time: 03:12:48 on Oct 13,2024, Elapsed time: 0:00:03
# Errors: 0, Warnings: 2
# End time: 03:12:57 on Oct 13,2024, Elapsed time: 0:22:54
# Errors: 0, Warnings: 0
# vsim top_optimized -coverage -solvefaildebug=2 "+UVM_TESTNAME=write_twice_test" 
# Start time: 03:12:58 on Oct 13,2024
# Loading sv_std.std
# Loading work.inf(fast)
# Loading mtiUvm.uvm_pkg(fast)
# Loading work.AHB_pkg(fast)
# Loading mtiUvm.questa_uvm_pkg(fast)
# Loading work.top_test_uvm(fast)
# Loading work.inf(fast__2)
# Loading work.ahb_lite(fast)
# Loading work.ahb_decoder(fast)
# Loading work.ahb_mux(fast)
# Loading work.ahb_default_slave(fast)
# Loading work.ahb_slave(fast)
# Loading F:/questasim/questasim64_2021.1/uvm-1.1d\win64\uvm_dpi.dll
# ----------------------------------------------------------------
# UVM-1.1d
# (C) 2007-2013 Mentor Graphics Corporation
# (C) 2007-2013 Cadence Design Systems, Inc.
# (C) 2006-2013 Synopsys, Inc.
# (C) 2011-2013 Cypress Semiconductor Corp.
# ----------------------------------------------------------------
# 
#   ***********       IMPORTANT RELEASE NOTES         ************
# 
#   You are using a version of the UVM library that has been compiled
#   with `UVM_NO_DEPRECATED undefined.
#   See http://www.eda.org/svdb/view.php?id=3313 for more details.
# 
#   You are using a version of the UVM library that has been compiled
#   with `UVM_OBJECT_MUST_HAVE_CONSTRUCTOR undefined.
#   See http://www.eda.org/svdb/view.php?id=3770 for more details.
# 
#       (Specify +UVM_NO_RELNOTES to turn off this notice)
# 
# UVM_INFO verilog_src/questa_uvm_pkg-1.2/src/questa_uvm_pkg.sv(277) @ 0: reporter [Questa UVM] QUESTA_UVM-1.2.3
# UVM_INFO verilog_src/questa_uvm_pkg-1.2/src/questa_uvm_pkg.sv(278) @ 0: reporter [Questa UVM]  questa_uvm::init(+struct)
# CREATEDDDDDDDDDDDDDDDDDDDDDDDDDDDDDDDDDDDDDDDDDDDDDDDD
# UVM_INFO @ 0: reporter [RNTST] Running test write_twice_test...
# base_test build phase
# my_test build phase
# env build phase
# my_active_agent build phase
# my_driver build phase
# Inputs monitor build phase complete.
# UVM_INFO components/sequencer.svh(24) @ 0: uvm_test_top.env_h.active_agent_h.sequencer_h [SEQUENCER] Build phase executed
# coverage build_phase
# Passive agent build phase complete.
# Outputs monitor build phase complete.
# UVM_INFO components/scoreboard.svh(48) @ 0: uvm_test_top.env_h.scoreboard_h [SCOREBOARD] Build phase completed
# my_comparator build phase
# my_predictor build phase
# my_driver connect phase
# Inputs monitor connect phase complete.
# UVM_INFO components/sequencer.svh(30) @ 0: uvm_test_top.env_h.active_agent_h.sequencer_h [SEQUENCER] Connect phase executed
# my_active_agent connect phase
# Outputs monitor connect phase complete.
# Passive agent connect phase complete.
# my_comparator connect phase
# my_predictor connect phase
# UVM_INFO components/scoreboard.svh(58) @ 0: uvm_test_top.env_h.scoreboard_h [SCOREBOARD] Connect phase completed
# env connect phase
# my_test connect phase
# my_test connect phase
# Inputs monitor end of elaboration phase complete.
# my_monitor end_of_elaboration_phase
# Outputs monitor end of elaboration phase complete.
# Passive agent end of elaboration phase complete.
# UVM_INFO components/env.svh(97) @ 0: uvm_test_top.env_h [env_h] '{"uvm_test_top.env_h.passive_agent_h.tlm_analysis_port_outputs":@uvm_port_component__5@15 }
